! Sonnet Data File
! From: em Version : 14.52
! From Project: Capacity
! Data is De-embedded 
! Data File Written: 03/27/2019 16:11:43
!< HDATE 03/27/2019 16:04:07
!< MDATE 03/27/2019 16:04:07
# GHZ Y MA R 1.0
0.00100000 6.593e-7 90.014
!< P1 F=0.001 Eeff=(undefined: sl) Z0=(undefined: sl) R=0.0 C=0.0 
0.01000000 6.588e-6 90.001
0.02000000 1.318e-5 90.000
0.03000000 1.976e-5 90.000
0.04000000 2.635e-5 90.000
0.05000000 3.294e-5 90.000
0.06000000 3.953e-5 90.000
0.07000000 4.611e-5 90.000
0.08000000 5.270e-5 90.000
0.09000000 5.929e-5 90.000
0.10000000 6.588e-5 90.000
0.11000000 7.247e-5 90.000
0.12000000 7.905e-5 90.000
0.13000000 8.564e-5 90.000
0.14000000 9.223e-5 90.000
0.15000000 9.882e-5 90.000
0.16000000 1.054e-4 90.000
0.17000000 1.120e-4 90.000
0.18000000 1.186e-4 90.000
0.19000000 1.252e-4 90.000
0.20000000 1.318e-4 90.000
0.21000000 1.383e-4 90.000
0.22000000 1.449e-4 90.000
0.23000000 1.515e-4 90.000
0.24000000 1.581e-4 90.000
0.25000000 1.647e-4 90.000
0.26000000 1.713e-4 90.000
0.27000000 1.779e-4 90.000
0.28000000 1.845e-4 90.000
0.29000000 1.911e-4 90.000
0.30000000 1.976e-4 90.000
0.31000000 2.042e-4 90.000
0.32000000 2.108e-4 90.000
0.33000000 2.174e-4 90.000
0.34000000 2.240e-4 90.000
0.35000000 2.306e-4 90.000
0.36000000 2.372e-4 90.000
0.37000000 2.438e-4 90.000
0.38000000 2.504e-4 90.000
0.39000000 2.569e-4 90.000
0.40000000 2.635e-4 90.000
0.41000000 2.701e-4 90.000
0.42000000 2.767e-4 90.000
0.43000000 2.833e-4 90.000
0.44000000 2.899e-4 90.000
0.45000000 2.965e-4 90.000
0.46000000 3.031e-4 90.000
0.47000000 3.097e-4 90.000
0.48000000 3.163e-4 90.000
0.49000000 3.228e-4 90.000
0.50000000 3.294e-4 90.000
0.51000000 3.360e-4 90.000
0.52000000 3.426e-4 90.000
0.53000000 3.492e-4 90.000
0.54000000 3.558e-4 90.000
0.55000000 3.624e-4 90.000
0.56000000 3.690e-4 90.000
0.57000000 3.756e-4 90.000
0.58000000 3.822e-4 90.000
0.59000000 3.887e-4 90.000
0.60000000 3.953e-4 90.000
0.61000000 4.019e-4 90.000
0.62000000 4.085e-4 90.000
0.63000000 4.151e-4 90.000
0.64000000 4.217e-4 90.000
0.65000000 4.283e-4 90.000
0.66000000 4.349e-4 90.000
0.67000000 4.415e-4 90.000
0.68000000 4.481e-4 90.000
0.69000000 4.547e-4 90.000
0.70000000 4.613e-4 90.000
0.71000000 4.679e-4 90.000
0.72000000 4.744e-4 90.000
0.73000000 4.810e-4 90.000
0.74000000 4.876e-4 90.000
0.75000000 4.942e-4 90.000
0.76000000 5.008e-4 90.000
0.77000000 5.074e-4 90.000
0.78000000 5.140e-4 90.000
0.79000000 5.206e-4 90.000
0.80000000 5.272e-4 90.000
0.81000000 5.338e-4 90.000
0.82000000 5.404e-4 90.000
0.83000000 5.470e-4 90.000
0.84000000 5.536e-4 90.000
0.85000000 5.602e-4 90.000
0.86000000 5.668e-4 90.000
0.87000000 5.734e-4 90.000
0.88000000 5.800e-4 90.000
0.89000000 5.865e-4 90.000
0.90000000 5.931e-4 90.000
0.91000000 5.997e-4 90.000
0.92000000 6.063e-4 90.000
0.93000000 6.129e-4 90.000
0.94000000 6.195e-4 90.000
0.95000000 6.261e-4 90.000
0.96000000 6.327e-4 90.000
0.97000000 6.393e-4 90.000
0.98000000 6.459e-4 90.000
0.99000000 6.525e-4 90.000
1.00000000 6.591e-4 90.000
!< P1 F=1.0 Eeff=(5.94061203 -4.8316e-6) Z0=(159.300998 6.50179e-5) R=0.03948213 C=0.00473738 
1.01000000 6.657e-4 90.000
1.02000000 6.723e-4 90.000
1.03000000 6.789e-4 90.000
1.04000000 6.855e-4 90.000
1.05000000 6.921e-4 90.000
1.06000000 6.987e-4 90.000
1.07000000 7.053e-4 90.000
1.08000000 7.119e-4 90.000
1.09000000 7.185e-4 90.000
1.10000000 7.251e-4 90.000
1.11000000 7.317e-4 90.000
1.12000000 7.383e-4 90.000
1.13000000 7.449e-4 90.000
1.14000000 7.515e-4 90.000
1.15000000 7.581e-4 90.000
1.16000000 7.647e-4 90.000
1.17000000 7.713e-4 90.000
1.18000000 7.779e-4 90.000
1.19000000 7.845e-4 90.000
1.20000000 7.911e-4 90.000
1.21000000 7.977e-4 90.000
1.22000000 8.043e-4 90.000
1.23000000 8.109e-4 90.000
1.24000000 8.175e-4 90.000
1.25000000 8.241e-4 90.000
1.26000000 8.307e-4 90.000
1.27000000 8.373e-4 90.000
1.28000000 8.439e-4 90.000
1.29000000 8.505e-4 90.000
1.30000000 8.571e-4 90.000
1.31000000 8.638e-4 90.000
1.32000000 8.704e-4 90.000
1.33000000 8.770e-4 90.000
1.34000000 8.836e-4 90.000
1.35000000 8.902e-4 90.000
1.36000000 8.968e-4 90.000
1.37000000 9.034e-4 90.000
1.38000000 9.100e-4 90.000
1.39000000 9.166e-4 90.000
1.40000000 9.232e-4 90.000
1.41000000 9.298e-4 90.000
1.42000000 9.364e-4 90.000
1.43000000 9.430e-4 90.000
1.44000000 9.496e-4 90.000
1.45000000 9.563e-4 90.000
1.46000000 9.629e-4 90.000
1.47000000 9.695e-4 90.000
1.48000000 9.761e-4 90.000
1.49000000 9.827e-4 90.000
1.50000000 9.893e-4 90.000
1.51000000 9.959e-4 90.000
1.52000000 0.001003 90.000
1.53000000 0.001009 90.000
1.54000000 0.001016 90.000
1.55000000 0.001022 90.000
1.56000000 0.001029 90.000
1.57000000 0.001036 90.000
1.58000000 0.001042 90.000
!< P1 F=1.58 Eeff=(5.94090973 -4.8529e-6) Z0=(159.301908 6.4948e-5) R=0.02507202 C=0.00473727 
1.59000000 0.001049 90.000
1.60000000 0.001055 90.000
1.61000000 0.001062 90.000
1.62000000 0.001069 90.000
1.63000000 0.001075 90.000
1.64000000 0.001082 90.000
1.65000000 0.001088 90.000
1.66000000 0.001095 90.000
1.67000000 0.001102 90.000
1.68000000 0.001108 90.000
1.69000000 0.001115 90.000
1.70000000 0.001122 90.000
1.71000000 0.001128 90.000
1.72000000 0.001135 90.000
1.73000000 0.001141 90.000
1.74000000 0.001148 90.000
1.75000000 0.001155 90.000
1.76000000 0.001161 90.000
1.77000000 0.001168 90.000
1.78000000 0.001175 90.000
1.79000000 0.001181 90.000
1.80000000 0.001188 90.000
1.81000000 0.001194 90.000
1.82000000 0.001201 90.000
1.83000000 0.001208 90.000
1.84000000 0.001214 90.000
1.85000000 0.001221 90.000
1.86000000 0.001227 90.000
1.87000000 0.001234 90.000
1.88000000 0.001241 90.000
1.89000000 0.001247 90.000
1.90000000 0.001254 90.000
1.91000000 0.001261 90.000
1.92000000 0.001267 90.000
1.93000000 0.001274 90.000
1.94000000 0.001280 90.000
1.95000000 0.001287 90.000
1.96000000 0.001294 90.000
1.97000000 0.001300 90.000
1.98000000 0.001307 90.000
1.99000000 0.001314 90.000
2.00000000 0.001320 90.000
!< P1 F=2.0 Eeff=(5.94114288 -4.8437e-6) Z0=(159.301938 6.4962e-5) R=0.01978958 C=0.00473714 
