! Sonnet Data File
! From: em Version : 14.52
! From Project: Cq
! Data is De-embedded 
! Data File Written: 01/25/2019 21:55:58
!< HDATE 01/25/2019 21:53:21
!< MDATE 01/25/2019 21:53:21
# GHZ Y MA R 1.0
0.00100000 5.203e-7 89.998
!< P1 F=0.001 Eeff=(undefined: sl) Z0=(undefined: sl) R=0.0 C=0.0 
0.01000000 5.203e-6 89.999
0.02000000 1.041e-5 89.999
0.03000000 1.561e-5 89.999
0.04000000 2.081e-5 89.999
0.05000000 2.602e-5 89.999
0.06000000 3.122e-5 89.999
0.07000000 3.642e-5 89.999
0.08000000 4.162e-5 89.999
0.09000000 4.683e-5 89.999
0.10000000 5.203e-5 89.999
0.11000000 5.723e-5 89.999
0.12000000 6.244e-5 89.999
0.13000000 6.764e-5 89.999
0.14000000 7.284e-5 89.999
0.15000000 7.805e-5 89.999
0.16000000 8.325e-5 90.000
0.17000000 8.845e-5 90.000
0.18000000 9.366e-5 90.000
0.19000000 9.886e-5 90.000
0.20000000 1.041e-4 90.000
0.21000000 1.093e-4 90.000
0.22000000 1.145e-4 90.000
0.23000000 1.197e-4 90.000
0.24000000 1.249e-4 90.000
0.25000000 1.301e-4 90.000
0.26000000 1.353e-4 90.000
0.27000000 1.405e-4 90.000
0.28000000 1.457e-4 90.000
0.29000000 1.509e-4 90.000
0.30000000 1.561e-4 90.000
0.31000000 1.613e-4 90.000
0.32000000 1.665e-4 90.000
0.33000000 1.717e-4 90.000
0.34000000 1.769e-4 90.000
0.35000000 1.821e-4 90.000
0.36000000 1.873e-4 90.000
0.37000000 1.925e-4 90.000
0.38000000 1.977e-4 90.000
0.39000000 2.029e-4 90.000
0.40000000 2.081e-4 90.000
0.41000000 2.133e-4 90.000
0.42000000 2.185e-4 90.000
0.43000000 2.237e-4 90.000
0.44000000 2.290e-4 90.000
0.45000000 2.342e-4 90.000
0.46000000 2.394e-4 90.000
0.47000000 2.446e-4 90.000
0.48000000 2.498e-4 90.000
0.49000000 2.550e-4 90.000
0.50000000 2.602e-4 90.000
0.51000000 2.654e-4 90.000
0.52000000 2.706e-4 90.000
0.53000000 2.758e-4 90.000
0.54000000 2.810e-4 90.000
0.55000000 2.862e-4 90.000
0.56000000 2.914e-4 90.000
0.57000000 2.966e-4 90.000
0.58000000 3.018e-4 90.000
0.59000000 3.070e-4 90.000
0.60000000 3.122e-4 90.000
0.61000000 3.174e-4 90.000
0.62000000 3.226e-4 90.000
0.63000000 3.278e-4 90.000
0.64000000 3.330e-4 90.000
0.65000000 3.383e-4 90.000
0.66000000 3.435e-4 90.000
0.67000000 3.487e-4 90.000
0.68000000 3.539e-4 90.000
0.69000000 3.591e-4 90.000
0.70000000 3.643e-4 90.000
0.71000000 3.695e-4 90.000
0.72000000 3.747e-4 90.000
0.73000000 3.799e-4 90.000
0.74000000 3.851e-4 90.000
0.75000000 3.903e-4 90.000
0.76000000 3.955e-4 90.000
0.77000000 4.007e-4 90.000
0.78000000 4.059e-4 90.000
0.79000000 4.111e-4 90.000
0.80000000 4.163e-4 90.000
0.81000000 4.216e-4 90.000
0.82000000 4.268e-4 90.000
0.83000000 4.320e-4 90.000
0.84000000 4.372e-4 90.000
0.85000000 4.424e-4 90.000
0.86000000 4.476e-4 90.000
0.87000000 4.528e-4 90.000
0.88000000 4.580e-4 90.000
0.89000000 4.632e-4 90.000
0.90000000 4.684e-4 90.000
0.91000000 4.736e-4 90.000
0.92000000 4.788e-4 90.000
0.93000000 4.840e-4 90.000
0.94000000 4.892e-4 90.000
0.95000000 4.945e-4 90.000
0.96000000 4.997e-4 90.000
0.97000000 5.049e-4 90.000
0.98000000 5.101e-4 90.000
0.99000000 5.153e-4 90.000
1.00000000 5.205e-4 90.000
!< P1 F=1.0 Eeff=(5.91295271 -5.2617e-6) Z0=(158.227091 6.97161e-5) R=0.04796257 C=0.00331509 
1.01000000 5.257e-4 90.000
1.02000000 5.309e-4 90.000
1.03000000 5.361e-4 90.000
1.04000000 5.413e-4 90.000
1.05000000 5.465e-4 90.000
1.06000000 5.518e-4 90.000
1.07000000 5.570e-4 90.000
1.08000000 5.622e-4 90.000
1.09000000 5.674e-4 90.000
1.10000000 5.726e-4 90.000
1.11000000 5.778e-4 90.000
1.12000000 5.830e-4 90.000
1.13000000 5.882e-4 90.000
1.14000000 5.934e-4 90.000
1.15000000 5.986e-4 90.000
1.16000000 6.039e-4 90.000
1.17000000 6.091e-4 90.000
1.18000000 6.143e-4 90.000
1.19000000 6.195e-4 90.000
1.20000000 6.247e-4 90.000
1.21000000 6.299e-4 90.000
1.22000000 6.351e-4 90.000
1.23000000 6.403e-4 90.000
1.24000000 6.455e-4 90.000
1.25000000 6.508e-4 90.000
1.26000000 6.560e-4 90.000
1.27000000 6.612e-4 90.000
1.28000000 6.664e-4 90.000
1.29000000 6.716e-4 90.000
1.30000000 6.768e-4 90.000
1.31000000 6.820e-4 90.000
1.32000000 6.872e-4 90.000
1.33000000 6.925e-4 90.000
1.34000000 6.977e-4 90.000
1.35000000 7.029e-4 90.000
1.36000000 7.081e-4 90.000
1.37000000 7.133e-4 90.000
1.38000000 7.185e-4 90.000
1.39000000 7.237e-4 90.000
1.40000000 7.290e-4 90.000
1.41000000 7.342e-4 90.000
1.42000000 7.394e-4 90.000
1.43000000 7.446e-4 90.000
1.44000000 7.498e-4 90.000
1.45000000 7.550e-4 90.000
1.46000000 7.602e-4 90.000
1.47000000 7.655e-4 90.000
1.48000000 7.707e-4 90.000
1.49000000 7.759e-4 90.000
1.50000000 7.811e-4 90.000
1.51000000 7.863e-4 90.000
1.52000000 7.915e-4 90.000
1.53000000 7.968e-4 90.000
1.54000000 8.020e-4 90.000
1.55000000 8.072e-4 90.000
1.56000000 8.124e-4 90.000
1.57000000 8.176e-4 90.000
1.58000000 8.228e-4 90.000
!< P1 F=1.58 Eeff=(5.91305963 -5.2479e-6) Z0=(158.228287 7.01453e-5) R=0.02968594 C=0.00331513 
1.59000000 8.281e-4 90.000
1.60000000 8.333e-4 90.000
1.61000000 8.385e-4 90.000
1.62000000 8.437e-4 90.000
1.63000000 8.489e-4 90.000
1.64000000 8.542e-4 90.000
1.65000000 8.594e-4 90.000
1.66000000 8.646e-4 90.000
1.67000000 8.698e-4 90.000
1.68000000 8.750e-4 90.000
1.69000000 8.803e-4 90.000
1.70000000 8.855e-4 90.000
1.71000000 8.907e-4 90.000
1.72000000 8.959e-4 90.000
1.73000000 9.011e-4 90.000
1.74000000 9.064e-4 90.000
1.75000000 9.116e-4 90.000
1.76000000 9.168e-4 90.000
1.77000000 9.220e-4 90.000
1.78000000 9.272e-4 90.000
1.79000000 9.325e-4 90.000
1.80000000 9.377e-4 90.000
1.81000000 9.429e-4 90.000
1.82000000 9.481e-4 90.000
1.83000000 9.533e-4 90.000
1.84000000 9.586e-4 90.000
1.85000000 9.638e-4 90.000
1.86000000 9.690e-4 90.000
1.87000000 9.742e-4 90.000
1.88000000 9.795e-4 90.000
1.89000000 9.847e-4 90.000
1.90000000 9.899e-4 90.000
1.91000000 9.951e-4 90.000
1.92000000 0.001000 90.000
1.93000000 0.001006 90.000
1.94000000 0.001011 90.000
1.95000000 0.001016 90.000
1.96000000 0.001021 90.000
1.97000000 0.001026 90.000
1.98000000 0.001032 90.000
1.99000000 0.001037 90.000
2.00000000 0.001042 90.000
!< P1 F=2.0 Eeff=(5.91314135 -5.2359e-6) Z0=(158.229146 7.01453e-5) R=0.0234291 C=0.00331516 
