! Sonnet Data File
! From: em Version : 14.52
! From Project: Cq1
! Data is De-embedded 
! Data File Written: 01/03/2019 11:03:15
!< HDATE 01/03/2019 10:25:38
!< MDATE 01/03/2019 10:25:38
# GHZ Y MA R 1.0
0.00100000 5.000e-7 89.999
!< P1 F=0.001 Eeff=(undefined: sl) Z0=(undefined: sl) R=0.0 C=0.0 
0.01000000 5.003e-6 90.000
0.02000000 1.001e-5 90.000
0.03000000 1.501e-5 90.000
0.04000000 2.002e-5 90.000
0.05000000 2.502e-5 90.000
0.06000000 3.002e-5 90.000
0.07000000 3.503e-5 90.000
0.08000000 4.003e-5 90.000
0.09000000 4.503e-5 90.000
0.10000000 5.004e-5 90.000
0.11000000 5.504e-5 90.000
0.12000000 6.005e-5 90.000
0.13000000 6.505e-5 90.000
0.14000000 7.005e-5 90.000
0.15000000 7.506e-5 90.000
0.16000000 8.006e-5 90.000
0.17000000 8.507e-5 90.000
0.18000000 9.007e-5 90.000
0.19000000 9.507e-5 90.000
0.20000000 1.001e-4 90.000
0.21000000 1.051e-4 90.000
0.22000000 1.101e-4 90.000
0.23000000 1.151e-4 90.000
0.24000000 1.201e-4 90.000
0.25000000 1.251e-4 90.000
0.26000000 1.301e-4 90.000
0.27000000 1.351e-4 90.000
0.28000000 1.401e-4 90.000
0.29000000 1.451e-4 90.000
0.30000000 1.501e-4 90.000
0.31000000 1.551e-4 90.000
0.32000000 1.601e-4 90.000
0.33000000 1.651e-4 90.000
0.34000000 1.701e-4 90.000
0.35000000 1.751e-4 90.000
0.36000000 1.801e-4 90.000
0.37000000 1.851e-4 90.000
0.38000000 1.902e-4 90.000
0.39000000 1.952e-4 90.000
0.40000000 2.002e-4 90.000
0.41000000 2.052e-4 90.000
0.42000000 2.102e-4 90.000
0.43000000 2.152e-4 90.000
0.44000000 2.202e-4 90.000
0.45000000 2.252e-4 90.000
0.46000000 2.302e-4 90.000
0.47000000 2.352e-4 90.000
0.48000000 2.402e-4 90.000
0.49000000 2.452e-4 90.000
0.50000000 2.502e-4 90.000
0.51000000 2.552e-4 90.000
0.52000000 2.602e-4 90.000
0.53000000 2.652e-4 90.000
0.54000000 2.702e-4 90.000
0.55000000 2.752e-4 90.000
0.56000000 2.802e-4 90.000
0.57000000 2.852e-4 90.000
0.58000000 2.903e-4 90.000
0.59000000 2.953e-4 90.000
0.60000000 3.003e-4 90.000
0.61000000 3.053e-4 90.000
0.62000000 3.103e-4 90.000
0.63000000 3.153e-4 90.000
0.64000000 3.203e-4 90.000
0.65000000 3.253e-4 90.000
0.66000000 3.303e-4 90.000
0.67000000 3.353e-4 90.000
0.68000000 3.403e-4 90.000
0.69000000 3.453e-4 90.000
0.70000000 3.503e-4 90.000
0.71000000 3.553e-4 90.000
0.72000000 3.603e-4 90.000
0.73000000 3.653e-4 90.000
0.74000000 3.703e-4 90.000
0.75000000 3.753e-4 90.000
0.76000000 3.804e-4 90.000
0.77000000 3.854e-4 90.000
0.78000000 3.904e-4 90.000
0.79000000 3.954e-4 90.000
0.80000000 4.004e-4 90.000
0.81000000 4.054e-4 90.000
0.82000000 4.104e-4 90.000
0.83000000 4.154e-4 90.000
0.84000000 4.204e-4 90.000
0.85000000 4.254e-4 90.000
0.86000000 4.304e-4 90.000
0.87000000 4.354e-4 90.000
0.88000000 4.404e-4 90.000
0.89000000 4.454e-4 90.000
0.90000000 4.504e-4 90.000
0.91000000 4.555e-4 90.000
0.92000000 4.605e-4 90.000
0.93000000 4.655e-4 90.000
0.94000000 4.705e-4 90.000
0.95000000 4.755e-4 90.000
0.96000000 4.805e-4 90.000
0.97000000 4.855e-4 90.000
0.98000000 4.905e-4 90.000
0.99000000 4.955e-4 90.000
1.00000000 5.005e-4 90.000
!< P1 F=1.0 Eeff=(5.8793003 -5.2596e-6) Z0=(110.547167 4.91489e-5) R=0.01598054 C=0.00937141 
1.01000000 5.055e-4 90.000
1.02000000 5.105e-4 90.000
1.03000000 5.155e-4 90.000
1.04000000 5.206e-4 90.000
1.05000000 5.256e-4 90.000
1.06000000 5.306e-4 90.000
1.07000000 5.356e-4 90.000
1.08000000 5.406e-4 90.000
1.09000000 5.456e-4 90.000
1.10000000 5.506e-4 90.000
1.11000000 5.556e-4 90.000
1.12000000 5.606e-4 90.000
1.13000000 5.656e-4 90.000
1.14000000 5.706e-4 90.000
1.15000000 5.757e-4 90.000
1.16000000 5.807e-4 90.000
1.17000000 5.857e-4 90.000
1.18000000 5.907e-4 90.000
1.19000000 5.957e-4 90.000
1.20000000 6.007e-4 90.000
1.21000000 6.057e-4 90.000
1.22000000 6.107e-4 90.000
1.23000000 6.157e-4 90.000
1.24000000 6.207e-4 90.000
1.25000000 6.258e-4 90.000
1.26000000 6.308e-4 90.000
1.27000000 6.358e-4 90.000
1.28000000 6.408e-4 90.000
1.29000000 6.458e-4 90.000
1.30000000 6.508e-4 90.000
1.31000000 6.558e-4 90.000
1.32000000 6.608e-4 90.000
1.33000000 6.658e-4 90.000
1.34000000 6.709e-4 90.000
1.35000000 6.759e-4 90.000
1.36000000 6.809e-4 90.000
1.37000000 6.859e-4 90.000
1.38000000 6.909e-4 90.000
1.39000000 6.959e-4 90.000
1.40000000 7.009e-4 90.000
1.41000000 7.059e-4 90.000
1.42000000 7.110e-4 90.000
1.43000000 7.160e-4 90.000
1.44000000 7.210e-4 90.000
1.45000000 7.260e-4 90.000
1.46000000 7.310e-4 90.000
1.47000000 7.360e-4 90.000
1.48000000 7.410e-4 90.000
1.49000000 7.460e-4 90.000
1.50000000 7.511e-4 90.000
1.51000000 7.561e-4 90.000
1.52000000 7.611e-4 90.000
1.53000000 7.661e-4 90.000
1.54000000 7.711e-4 90.000
1.55000000 7.761e-4 90.000
1.56000000 7.811e-4 90.000
1.57000000 7.862e-4 90.000
1.58000000 7.912e-4 90.000
!< P1 F=1.58 Eeff=(5.87937779 -5.2391e-6) Z0=(110.547258 4.92598e-5) R=0.01006954 C=0.00937143 
1.59000000 7.962e-4 90.000
1.60000000 8.012e-4 90.000
1.61000000 8.062e-4 90.000
1.62000000 8.112e-4 90.000
1.63000000 8.162e-4 90.000
1.64000000 8.213e-4 90.000
1.65000000 8.263e-4 90.000
1.66000000 8.313e-4 90.000
1.67000000 8.363e-4 90.000
1.68000000 8.413e-4 90.000
1.69000000 8.463e-4 90.000
1.70000000 8.513e-4 90.000
1.71000000 8.564e-4 90.000
1.72000000 8.614e-4 90.000
1.73000000 8.664e-4 90.000
1.74000000 8.714e-4 90.000
1.75000000 8.764e-4 90.000
1.76000000 8.814e-4 90.000
1.77000000 8.865e-4 90.000
1.78000000 8.915e-4 90.000
1.79000000 8.965e-4 90.000
1.80000000 9.015e-4 90.000
1.81000000 9.065e-4 90.000
1.82000000 9.116e-4 90.000
1.83000000 9.166e-4 90.000
1.84000000 9.216e-4 90.000
1.85000000 9.266e-4 90.000
1.86000000 9.316e-4 90.000
1.87000000 9.366e-4 90.000
1.88000000 9.417e-4 90.000
1.89000000 9.467e-4 90.000
1.90000000 9.517e-4 90.000
1.91000000 9.567e-4 90.000
1.92000000 9.617e-4 90.000
1.93000000 9.668e-4 90.000
1.94000000 9.718e-4 90.000
1.95000000 9.768e-4 90.000
1.96000000 9.818e-4 90.000
1.97000000 9.868e-4 90.000
1.98000000 9.919e-4 90.000
1.99000000 9.969e-4 90.000
2.00000000 0.001002 90.000
!< P1 F=2.0 Eeff=(5.87945439 -5.2265e-6) Z0=(110.547338 4.92321e-5) R=0.00796159 C=0.00937145 
