! Sonnet Data File
! From: em Version : 14.52
! From Project: Cq1
! Data is De-embedded 
! Data File Written: 04/02/2019 02:08:11
!< HDATE 04/01/2019 22:23:11
!< MDATE 04/01/2019 22:23:11
# GHZ Y MA R 1.0
0.00100000 6.425e-7 89.985
!< P1 F=0.001 Eeff=(undefined: nd) Z0=(undefined: nd) R=0.0 C=0.0 
0.01000000 6.353e-6 89.997
0.02000000 1.270e-5 89.998
0.03000000 1.904e-5 89.998
0.04000000 2.539e-5 89.998
0.05000000 3.173e-5 89.998
0.06000000 3.808e-5 89.998
0.07000000 4.442e-5 89.998
0.08000000 5.077e-5 89.998
0.09000000 5.712e-5 89.998
0.10000000 6.346e-5 89.998
0.11000000 6.981e-5 89.999
0.12000000 7.615e-5 89.999
0.13000000 8.250e-5 89.999
0.14000000 8.884e-5 89.999
0.15000000 9.519e-5 89.999
0.16000000 1.015e-4 89.999
0.17000000 1.079e-4 89.999
0.18000000 1.142e-4 89.999
0.19000000 1.206e-4 89.999
0.20000000 1.269e-4 89.999
0.21000000 1.333e-4 89.999
0.22000000 1.396e-4 89.999
0.23000000 1.460e-4 89.999
0.24000000 1.523e-4 89.999
0.25000000 1.586e-4 89.999
0.26000000 1.650e-4 89.999
0.27000000 1.713e-4 89.999
0.28000000 1.777e-4 89.999
0.29000000 1.840e-4 89.999
0.30000000 1.904e-4 89.999
0.31000000 1.967e-4 89.999
0.32000000 2.031e-4 89.999
0.33000000 2.094e-4 89.999
0.34000000 2.158e-4 89.999
0.35000000 2.221e-4 89.999
0.36000000 2.285e-4 89.999
0.37000000 2.348e-4 89.999
0.38000000 2.411e-4 89.999
0.39000000 2.475e-4 89.999
0.40000000 2.538e-4 89.999
0.41000000 2.602e-4 89.999
0.42000000 2.665e-4 89.999
0.43000000 2.729e-4 89.999
0.44000000 2.792e-4 89.999
0.45000000 2.856e-4 89.999
0.46000000 2.919e-4 89.999
0.47000000 2.983e-4 89.999
0.48000000 3.046e-4 89.999
0.49000000 3.110e-4 89.999
0.50000000 3.173e-4 90.000
0.51000000 3.237e-4 90.000
0.52000000 3.300e-4 90.000
0.53000000 3.364e-4 90.000
0.54000000 3.427e-4 90.000
0.55000000 3.491e-4 90.000
0.56000000 3.554e-4 90.000
0.57000000 3.618e-4 90.000
0.58000000 3.681e-4 90.000
0.59000000 3.745e-4 90.000
0.60000000 3.808e-4 90.000
0.61000000 3.872e-4 90.000
0.62000000 3.935e-4 90.000
0.63000000 3.999e-4 90.000
0.64000000 4.062e-4 90.000
0.65000000 4.126e-4 90.000
0.66000000 4.189e-4 90.000
0.67000000 4.253e-4 90.000
0.68000000 4.316e-4 90.000
0.69000000 4.380e-4 90.000
0.70000000 4.443e-4 90.000
0.71000000 4.507e-4 90.000
0.72000000 4.570e-4 90.000
0.73000000 4.634e-4 90.000
0.74000000 4.697e-4 90.000
0.75000000 4.761e-4 90.000
0.76000000 4.824e-4 90.000
0.77000000 4.888e-4 90.000
0.78000000 4.951e-4 90.000
0.79000000 5.015e-4 90.000
0.80000000 5.078e-4 90.000
0.81000000 5.142e-4 90.000
0.82000000 5.205e-4 90.000
0.83000000 5.269e-4 90.000
0.84000000 5.332e-4 90.000
0.85000000 5.396e-4 90.000
0.86000000 5.460e-4 90.000
0.87000000 5.523e-4 90.000
0.88000000 5.587e-4 90.000
0.89000000 5.650e-4 90.000
0.90000000 5.714e-4 90.000
0.91000000 5.777e-4 90.000
0.92000000 5.841e-4 90.000
0.93000000 5.904e-4 90.000
0.94000000 5.968e-4 90.000
0.95000000 6.031e-4 90.000
0.96000000 6.095e-4 90.000
0.97000000 6.159e-4 90.000
0.98000000 6.222e-4 90.000
0.99000000 6.286e-4 90.000
1.00000000 6.349e-4 90.000
!< P1 F=1.0 Eeff=(undefined: nd) Z0=(undefined: nd) R=0.0 C=0.0 
1.01000000 6.413e-4 90.000
1.02000000 6.476e-4 90.000
1.03000000 6.540e-4 90.000
1.04000000 6.604e-4 90.000
1.05000000 6.667e-4 90.000
1.06000000 6.731e-4 90.000
1.07000000 6.794e-4 90.000
1.08000000 6.858e-4 90.000
1.09000000 6.922e-4 90.000
1.10000000 6.985e-4 90.000
1.11000000 7.049e-4 90.000
1.12000000 7.112e-4 90.000
1.13000000 7.176e-4 90.000
1.14000000 7.240e-4 90.000
1.15000000 7.303e-4 90.000
1.16000000 7.367e-4 90.000
1.17000000 7.430e-4 90.000
1.18000000 7.494e-4 90.000
1.19000000 7.558e-4 90.000
1.20000000 7.621e-4 90.000
1.21000000 7.685e-4 90.000
1.22000000 7.749e-4 90.000
1.23000000 7.812e-4 90.000
1.24000000 7.876e-4 90.000
1.25000000 7.939e-4 90.000
1.26000000 8.003e-4 90.000
1.27000000 8.067e-4 90.000
1.28000000 8.130e-4 90.000
1.29000000 8.194e-4 90.000
1.30000000 8.258e-4 90.000
1.31000000 8.321e-4 90.000
1.32000000 8.385e-4 90.000
1.33000000 8.449e-4 90.000
1.34000000 8.512e-4 90.000
1.35000000 8.576e-4 90.000
1.36000000 8.640e-4 90.000
1.37000000 8.703e-4 90.000
1.38000000 8.767e-4 90.000
1.39000000 8.831e-4 90.000
1.40000000 8.894e-4 90.000
1.41000000 8.958e-4 90.000
1.42000000 9.022e-4 90.000
1.43000000 9.085e-4 90.000
1.44000000 9.149e-4 90.000
1.45000000 9.213e-4 90.000
1.46000000 9.277e-4 90.000
1.47000000 9.340e-4 90.000
1.48000000 9.404e-4 90.000
1.49000000 9.468e-4 90.000
1.50000000 9.531e-4 90.000
1.51000000 9.595e-4 90.000
1.52000000 9.659e-4 90.000
1.53000000 9.723e-4 90.000
1.54000000 9.786e-4 90.000
1.55000000 9.850e-4 90.000
1.56000000 9.914e-4 90.000
1.57000000 9.977e-4 90.000
1.58000000 0.001004 90.000
!< P1 F=1.58 Eeff=(undefined: nd) Z0=(undefined: nd) R=0.0 C=0.0 
1.59000000 0.001010 90.000
1.60000000 0.001017 90.000
1.61000000 0.001023 90.000
1.62000000 0.001030 90.000
1.63000000 0.001036 90.000
1.64000000 0.001042 90.000
1.65000000 0.001049 90.000
1.66000000 0.001055 90.000
1.67000000 0.001062 90.000
1.68000000 0.001068 90.000
1.69000000 0.001074 90.000
1.70000000 0.001081 90.000
1.71000000 0.001087 90.000
1.72000000 0.001093 90.000
1.73000000 0.001100 90.000
1.74000000 0.001106 90.000
1.75000000 0.001113 90.000
1.76000000 0.001119 90.000
1.77000000 0.001125 90.000
1.78000000 0.001132 90.000
1.79000000 0.001138 90.000
1.80000000 0.001144 90.000
1.81000000 0.001151 90.000
1.82000000 0.001157 90.000
1.83000000 0.001164 90.000
1.84000000 0.001170 90.000
1.85000000 0.001176 90.000
1.86000000 0.001183 90.000
1.87000000 0.001189 90.000
1.88000000 0.001196 90.000
1.89000000 0.001202 90.000
1.90000000 0.001208 90.000
1.91000000 0.001215 90.000
1.92000000 0.001221 90.000
1.93000000 0.001227 90.000
1.94000000 0.001234 90.000
1.95000000 0.001240 90.000
1.96000000 0.001247 90.000
1.97000000 0.001253 90.000
1.98000000 0.001259 90.000
1.99000000 0.001266 90.000
2.00000000 0.001272 90.000
!< P1 F=2.0 Eeff=(undefined: nd) Z0=(undefined: nd) R=0.0 C=0.0 
