! Sonnet Data File
! From: em Version : 14.52
! From Project: Cq2
! Data is De-embedded 
! Data File Written: 04/02/2019 02:16:00
!< HDATE 04/01/2019 22:30:09
!< MDATE 04/01/2019 22:30:09
# GHZ Y MA R 1.0
0.00100000 6.842e-7 90.009
!< P1 F=0.001 Eeff=(undefined: sl) Z0=(undefined: sl) R=0.0 C=0.0 
0.01000000 6.842e-6 90.001
0.02000000 1.368e-5 90.000
0.03000000 2.053e-5 90.000
0.04000000 2.737e-5 90.000
0.05000000 3.421e-5 90.000
0.06000000 4.105e-5 90.000
0.07000000 4.790e-5 90.000
0.08000000 5.474e-5 90.000
0.09000000 6.158e-5 90.000
0.10000000 6.843e-5 90.000
0.11000000 7.527e-5 90.000
0.12000000 8.211e-5 90.000
0.13000000 8.895e-5 90.000
0.14000000 9.580e-5 90.000
0.15000000 1.026e-4 90.000
0.16000000 1.095e-4 90.000
0.17000000 1.163e-4 90.000
0.18000000 1.232e-4 90.000
0.19000000 1.300e-4 90.000
0.20000000 1.369e-4 90.000
0.21000000 1.437e-4 90.000
0.22000000 1.505e-4 90.000
0.23000000 1.574e-4 90.000
0.24000000 1.642e-4 90.000
0.25000000 1.711e-4 90.000
0.26000000 1.779e-4 90.000
0.27000000 1.848e-4 90.000
0.28000000 1.916e-4 90.000
0.29000000 1.984e-4 90.000
0.30000000 2.053e-4 90.000
0.31000000 2.121e-4 90.000
0.32000000 2.190e-4 90.000
0.33000000 2.258e-4 90.000
0.34000000 2.327e-4 90.000
0.35000000 2.395e-4 90.000
0.36000000 2.463e-4 90.000
0.37000000 2.532e-4 90.000
0.38000000 2.600e-4 90.000
0.39000000 2.669e-4 90.000
0.40000000 2.737e-4 90.000
0.41000000 2.806e-4 90.000
0.42000000 2.874e-4 90.000
0.43000000 2.943e-4 90.000
0.44000000 3.011e-4 90.000
0.45000000 3.079e-4 90.000
0.46000000 3.148e-4 90.000
0.47000000 3.216e-4 90.000
0.48000000 3.285e-4 90.000
0.49000000 3.353e-4 90.000
0.50000000 3.422e-4 90.000
0.51000000 3.490e-4 90.000
0.52000000 3.559e-4 90.000
0.53000000 3.627e-4 90.000
0.54000000 3.695e-4 90.000
0.55000000 3.764e-4 90.000
0.56000000 3.832e-4 90.000
0.57000000 3.901e-4 90.000
0.58000000 3.969e-4 90.000
0.59000000 4.038e-4 90.000
0.60000000 4.106e-4 90.000
0.61000000 4.175e-4 90.000
0.62000000 4.243e-4 90.000
0.63000000 4.312e-4 90.000
0.64000000 4.380e-4 90.000
0.65000000 4.449e-4 90.000
0.66000000 4.517e-4 90.000
0.67000000 4.585e-4 90.000
0.68000000 4.654e-4 90.000
0.69000000 4.722e-4 90.000
0.70000000 4.791e-4 90.000
0.71000000 4.859e-4 90.000
0.72000000 4.928e-4 90.000
0.73000000 4.996e-4 90.000
0.74000000 5.065e-4 90.000
0.75000000 5.133e-4 90.000
0.76000000 5.202e-4 90.000
0.77000000 5.270e-4 90.000
0.78000000 5.339e-4 90.000
0.79000000 5.407e-4 90.000
0.80000000 5.476e-4 90.000
0.81000000 5.544e-4 90.000
0.82000000 5.613e-4 90.000
0.83000000 5.681e-4 90.000
0.84000000 5.750e-4 90.000
0.85000000 5.818e-4 90.000
0.86000000 5.887e-4 90.000
0.87000000 5.955e-4 90.000
0.88000000 6.024e-4 90.000
0.89000000 6.092e-4 90.000
0.90000000 6.161e-4 90.000
0.91000000 6.229e-4 90.000
0.92000000 6.298e-4 90.000
0.93000000 6.366e-4 90.000
0.94000000 6.435e-4 90.000
0.95000000 6.503e-4 90.000
0.96000000 6.572e-4 90.000
0.97000000 6.640e-4 90.000
0.98000000 6.709e-4 90.000
0.99000000 6.777e-4 90.000
1.00000000 6.846e-4 90.000
!< P1 F=1.0 Eeff=(5.93278012 -4.8911e-6) Z0=(158.288521 6.54223e-5) R=0.03922235 C=0.00462202 
1.01000000 6.914e-4 90.000
1.02000000 6.983e-4 90.000
1.03000000 7.052e-4 90.000
1.04000000 7.120e-4 90.000
1.05000000 7.189e-4 90.000
1.06000000 7.257e-4 90.000
1.07000000 7.326e-4 90.000
1.08000000 7.394e-4 90.000
1.09000000 7.463e-4 90.000
1.10000000 7.531e-4 90.000
1.11000000 7.600e-4 90.000
1.12000000 7.668e-4 90.000
1.13000000 7.737e-4 90.000
1.14000000 7.806e-4 90.000
1.15000000 7.874e-4 90.000
1.16000000 7.943e-4 90.000
1.17000000 8.011e-4 90.000
1.18000000 8.080e-4 90.000
1.19000000 8.148e-4 90.000
1.20000000 8.217e-4 90.000
1.21000000 8.286e-4 90.000
1.22000000 8.354e-4 90.000
1.23000000 8.423e-4 90.000
1.24000000 8.491e-4 90.000
1.25000000 8.560e-4 90.000
1.26000000 8.628e-4 90.000
1.27000000 8.697e-4 90.000
1.28000000 8.766e-4 90.000
1.29000000 8.834e-4 90.000
1.30000000 8.903e-4 90.000
1.31000000 8.971e-4 90.000
1.32000000 9.040e-4 90.000
1.33000000 9.109e-4 90.000
1.34000000 9.177e-4 90.000
1.35000000 9.246e-4 90.000
1.36000000 9.314e-4 90.000
1.37000000 9.383e-4 90.000
1.38000000 9.452e-4 90.000
1.39000000 9.520e-4 90.000
1.40000000 9.589e-4 90.000
1.41000000 9.658e-4 90.000
1.42000000 9.726e-4 90.000
1.43000000 9.795e-4 90.000
1.44000000 9.864e-4 90.000
1.45000000 9.932e-4 90.000
1.46000000 0.001000 90.000
1.47000000 0.001007 90.000
1.48000000 0.001014 90.000
1.49000000 0.001021 90.000
1.50000000 0.001028 90.000
1.51000000 0.001034 90.000
1.52000000 0.001041 90.000
1.53000000 0.001048 90.000
1.54000000 0.001055 90.000
1.55000000 0.001062 90.000
1.56000000 0.001069 90.000
1.57000000 0.001076 90.000
1.58000000 0.001082 90.000
!< P1 F=1.58 Eeff=(5.93301827 -4.9022e-6) Z0=(158.289339 6.5464e-5) R=0.02480708 C=0.00462196 
1.59000000 0.001089 90.000
1.60000000 0.001096 90.000
1.61000000 0.001103 90.000
1.62000000 0.001110 90.000
1.63000000 0.001117 90.000
1.64000000 0.001124 90.000
1.65000000 0.001131 90.000
1.66000000 0.001137 90.000
1.67000000 0.001144 90.000
1.68000000 0.001151 90.000
1.69000000 0.001158 90.000
1.70000000 0.001165 90.000
1.71000000 0.001172 90.000
1.72000000 0.001179 90.000
1.73000000 0.001186 90.000
1.74000000 0.001192 90.000
1.75000000 0.001199 90.000
1.76000000 0.001206 90.000
1.77000000 0.001213 90.000
1.78000000 0.001220 90.000
1.79000000 0.001227 90.000
1.80000000 0.001234 90.000
1.81000000 0.001241 90.000
1.82000000 0.001247 90.000
1.83000000 0.001254 90.000
1.84000000 0.001261 90.000
1.85000000 0.001268 90.000
1.86000000 0.001275 90.000
1.87000000 0.001282 90.000
1.88000000 0.001289 90.000
1.89000000 0.001296 90.000
1.90000000 0.001302 90.000
1.91000000 0.001309 90.000
1.92000000 0.001316 90.000
1.93000000 0.001323 90.000
1.94000000 0.001330 90.000
1.95000000 0.001337 90.000
1.96000000 0.001344 90.000
1.97000000 0.001351 90.000
1.98000000 0.001358 90.000
1.99000000 0.001364 90.000
2.00000000 0.001371 90.000
!< P1 F=2.0 Eeff=(5.93319447 -4.8971e-6) Z0=(158.28932 6.54501e-5) R=0.01961857 C=0.00462189 
