! Sonnet Data File
! From: em Version : 14.52
! From Project: Cq2
! Data is De-embedded 
! Data File Written: 01/03/2019 11:04:47
!< HDATE 01/03/2019 10:27:29
!< MDATE 01/03/2019 10:27:29
# GHZ Y MA R 1.0
0.00100000 4.915e-7 90.015
!< P1 F=0.001 Eeff=(undefined: sl) Z0=(undefined: sl) R=0.0 C=0.0 
0.01000000 4.914e-6 90.001
0.02000000 9.828e-6 90.000
0.03000000 1.474e-5 90.000
0.04000000 1.966e-5 90.000
0.05000000 2.457e-5 90.000
0.06000000 2.948e-5 90.000
0.07000000 3.440e-5 90.000
0.08000000 3.931e-5 90.000
0.09000000 4.423e-5 90.000
0.10000000 4.914e-5 90.000
0.11000000 5.405e-5 90.000
0.12000000 5.897e-5 90.000
0.13000000 6.388e-5 90.000
0.14000000 6.880e-5 90.000
0.15000000 7.371e-5 90.000
0.16000000 7.863e-5 90.000
0.17000000 8.354e-5 90.000
0.18000000 8.845e-5 90.000
0.19000000 9.337e-5 90.000
0.20000000 9.828e-5 90.000
0.21000000 1.032e-4 90.000
0.22000000 1.081e-4 90.000
0.23000000 1.130e-4 90.000
0.24000000 1.179e-4 90.000
0.25000000 1.229e-4 90.000
0.26000000 1.278e-4 90.000
0.27000000 1.327e-4 90.000
0.28000000 1.376e-4 90.000
0.29000000 1.425e-4 90.000
0.30000000 1.474e-4 90.000
0.31000000 1.523e-4 90.000
0.32000000 1.573e-4 90.000
0.33000000 1.622e-4 90.000
0.34000000 1.671e-4 90.000
0.35000000 1.720e-4 90.000
0.36000000 1.769e-4 90.000
0.37000000 1.818e-4 90.000
0.38000000 1.867e-4 90.000
0.39000000 1.917e-4 90.000
0.40000000 1.966e-4 90.000
0.41000000 2.015e-4 90.000
0.42000000 2.064e-4 90.000
0.43000000 2.113e-4 90.000
0.44000000 2.162e-4 90.000
0.45000000 2.211e-4 90.000
0.46000000 2.261e-4 90.000
0.47000000 2.310e-4 90.000
0.48000000 2.359e-4 90.000
0.49000000 2.408e-4 90.000
0.50000000 2.457e-4 90.000
0.51000000 2.506e-4 90.000
0.52000000 2.556e-4 90.000
0.53000000 2.605e-4 90.000
0.54000000 2.654e-4 90.000
0.55000000 2.703e-4 90.000
0.56000000 2.752e-4 90.000
0.57000000 2.801e-4 90.000
0.58000000 2.850e-4 90.000
0.59000000 2.900e-4 90.000
0.60000000 2.949e-4 90.000
0.61000000 2.998e-4 90.000
0.62000000 3.047e-4 90.000
0.63000000 3.096e-4 90.000
0.64000000 3.145e-4 90.000
0.65000000 3.195e-4 90.000
0.66000000 3.244e-4 90.000
0.67000000 3.293e-4 90.000
0.68000000 3.342e-4 90.000
0.69000000 3.391e-4 90.000
0.70000000 3.440e-4 90.000
0.71000000 3.490e-4 90.000
0.72000000 3.539e-4 90.000
0.73000000 3.588e-4 90.000
0.74000000 3.637e-4 90.000
0.75000000 3.686e-4 90.000
0.76000000 3.735e-4 90.000
0.77000000 3.784e-4 90.000
0.78000000 3.834e-4 90.000
0.79000000 3.883e-4 90.000
0.80000000 3.932e-4 90.000
0.81000000 3.981e-4 90.000
0.82000000 4.030e-4 90.000
0.83000000 4.080e-4 90.000
0.84000000 4.129e-4 90.000
0.85000000 4.178e-4 90.000
0.86000000 4.227e-4 90.000
0.87000000 4.276e-4 90.000
0.88000000 4.325e-4 90.000
0.89000000 4.375e-4 90.000
0.90000000 4.424e-4 90.000
0.91000000 4.473e-4 90.000
0.92000000 4.522e-4 90.000
0.93000000 4.571e-4 90.000
0.94000000 4.620e-4 90.000
0.95000000 4.670e-4 90.000
0.96000000 4.719e-4 90.000
0.97000000 4.768e-4 90.000
0.98000000 4.817e-4 90.000
0.99000000 4.866e-4 90.000
1.00000000 4.916e-4 90.000
!< P1 F=1.0 Eeff=(5.87874393 -5.2371e-6) Z0=(110.511161 4.92414e-5) R=0.01591948 C=0.00936855 
1.01000000 4.965e-4 90.000
1.02000000 5.014e-4 90.000
1.03000000 5.063e-4 90.000
1.04000000 5.112e-4 90.000
1.05000000 5.161e-4 90.000
1.06000000 5.211e-4 90.000
1.07000000 5.260e-4 90.000
1.08000000 5.309e-4 90.000
1.09000000 5.358e-4 90.000
1.10000000 5.407e-4 90.000
1.11000000 5.457e-4 90.000
1.12000000 5.506e-4 90.000
1.13000000 5.555e-4 90.000
1.14000000 5.604e-4 90.000
1.15000000 5.653e-4 90.000
1.16000000 5.703e-4 90.000
1.17000000 5.752e-4 90.000
1.18000000 5.801e-4 90.000
1.19000000 5.850e-4 90.000
1.20000000 5.899e-4 90.000
1.21000000 5.949e-4 90.000
1.22000000 5.998e-4 90.000
1.23000000 6.047e-4 90.000
1.24000000 6.096e-4 90.000
1.25000000 6.145e-4 90.000
1.26000000 6.195e-4 90.000
1.27000000 6.244e-4 90.000
1.28000000 6.293e-4 90.000
1.29000000 6.342e-4 90.000
1.30000000 6.391e-4 90.000
1.31000000 6.441e-4 90.000
1.32000000 6.490e-4 90.000
1.33000000 6.539e-4 90.000
1.34000000 6.588e-4 90.000
1.35000000 6.638e-4 90.000
1.36000000 6.687e-4 90.000
1.37000000 6.736e-4 90.000
1.38000000 6.785e-4 90.000
1.39000000 6.834e-4 90.000
1.40000000 6.884e-4 90.000
1.41000000 6.933e-4 90.000
1.42000000 6.982e-4 90.000
1.43000000 7.031e-4 90.000
1.44000000 7.081e-4 90.000
1.45000000 7.130e-4 90.000
1.46000000 7.179e-4 90.000
1.47000000 7.228e-4 90.000
1.48000000 7.278e-4 90.000
1.49000000 7.327e-4 90.000
1.50000000 7.376e-4 90.000
1.51000000 7.425e-4 90.000
1.52000000 7.475e-4 90.000
1.53000000 7.524e-4 90.000
1.54000000 7.573e-4 90.000
1.55000000 7.622e-4 90.000
1.56000000 7.671e-4 90.000
1.57000000 7.721e-4 90.000
1.58000000 7.770e-4 90.000
!< P1 F=1.58 Eeff=(5.87882141 -5.2494e-6) Z0=(110.511252 4.93152e-5) R=0.01004859 C=0.00936857 
1.59000000 7.819e-4 90.000
1.60000000 7.868e-4 90.000
1.61000000 7.918e-4 90.000
1.62000000 7.967e-4 90.000
1.63000000 8.016e-4 90.000
1.64000000 8.066e-4 90.000
1.65000000 8.115e-4 90.000
1.66000000 8.164e-4 90.000
1.67000000 8.213e-4 90.000
1.68000000 8.263e-4 90.000
1.69000000 8.312e-4 90.000
1.70000000 8.361e-4 90.000
1.71000000 8.410e-4 90.000
1.72000000 8.460e-4 90.000
1.73000000 8.509e-4 90.000
1.74000000 8.558e-4 90.000
1.75000000 8.607e-4 90.000
1.76000000 8.657e-4 90.000
1.77000000 8.706e-4 90.000
1.78000000 8.755e-4 90.000
1.79000000 8.805e-4 90.000
1.80000000 8.854e-4 90.000
1.81000000 8.903e-4 90.000
1.82000000 8.952e-4 90.000
1.83000000 9.002e-4 90.000
1.84000000 9.051e-4 90.000
1.85000000 9.100e-4 90.000
1.86000000 9.150e-4 90.000
1.87000000 9.199e-4 90.000
1.88000000 9.248e-4 90.000
1.89000000 9.297e-4 90.000
1.90000000 9.347e-4 90.000
1.91000000 9.396e-4 90.000
1.92000000 9.445e-4 90.000
1.93000000 9.495e-4 90.000
1.94000000 9.544e-4 90.000
1.95000000 9.593e-4 90.000
1.96000000 9.643e-4 90.000
1.97000000 9.692e-4 90.000
1.98000000 9.741e-4 90.000
1.99000000 9.791e-4 90.000
2.00000000 9.840e-4 90.000
!< P1 F=2.0 Eeff=(5.87889773 -5.2315e-6) Z0=(110.511329 4.92875e-5) R=0.00794503 C=0.00936859 
