! Sonnet Data File
! From: em Version : 14.52
! From Project: Cq_1
! Data is De-embedded 
! Data File Written: 01/09/2019 23:19:38
!< HDATE 01/09/2019 15:11:11
!< MDATE 01/09/2019 15:11:11
# GHZ Y MA R 1.0
0.00100000 5.696e-7 89.996
!< P1 F=0.001 Eeff=(undefined: sl) Z0=(undefined: sl) R=0.0 C=0.0 
0.01000000 5.696e-6 90.000
0.02000000 1.139e-5 90.000
0.03000000 1.709e-5 90.000
0.04000000 2.278e-5 90.000
0.05000000 2.848e-5 90.000
0.06000000 3.418e-5 90.000
0.07000000 3.987e-5 90.000
0.08000000 4.557e-5 90.000
0.09000000 5.126e-5 90.000
0.10000000 5.696e-5 90.000
0.11000000 6.265e-5 90.000
0.12000000 6.835e-5 90.000
0.13000000 7.405e-5 90.000
0.14000000 7.974e-5 90.000
0.15000000 8.544e-5 90.000
0.16000000 9.113e-5 90.000
0.17000000 9.683e-5 90.000
0.18000000 1.025e-4 90.000
0.19000000 1.082e-4 90.000
0.20000000 1.139e-4 90.000
0.21000000 1.196e-4 90.000
0.22000000 1.253e-4 90.000
0.23000000 1.310e-4 90.000
0.24000000 1.367e-4 90.000
0.25000000 1.424e-4 90.000
0.26000000 1.481e-4 90.000
0.27000000 1.538e-4 90.000
0.28000000 1.595e-4 90.000
0.29000000 1.652e-4 90.000
0.30000000 1.709e-4 90.000
0.31000000 1.766e-4 90.000
0.32000000 1.823e-4 90.000
0.33000000 1.880e-4 90.000
0.34000000 1.937e-4 90.000
0.35000000 1.994e-4 90.000
0.36000000 2.051e-4 90.000
0.37000000 2.108e-4 90.000
0.38000000 2.165e-4 90.000
0.39000000 2.221e-4 90.000
0.40000000 2.278e-4 90.000
0.41000000 2.335e-4 90.000
0.42000000 2.392e-4 90.000
0.43000000 2.449e-4 90.000
0.44000000 2.506e-4 90.000
0.45000000 2.563e-4 90.000
0.46000000 2.620e-4 90.000
0.47000000 2.677e-4 90.000
0.48000000 2.734e-4 90.000
0.49000000 2.791e-4 90.000
0.50000000 2.848e-4 90.000
0.51000000 2.905e-4 90.000
0.52000000 2.962e-4 90.000
0.53000000 3.019e-4 90.000
0.54000000 3.076e-4 90.000
0.55000000 3.133e-4 90.000
0.56000000 3.190e-4 90.000
0.57000000 3.247e-4 90.000
0.58000000 3.304e-4 90.000
0.59000000 3.361e-4 90.000
0.60000000 3.418e-4 90.000
0.61000000 3.475e-4 90.000
0.62000000 3.532e-4 90.000
0.63000000 3.589e-4 90.000
0.64000000 3.646e-4 90.000
0.65000000 3.703e-4 90.000
0.66000000 3.760e-4 90.000
0.67000000 3.817e-4 90.000
0.68000000 3.874e-4 90.000
0.69000000 3.931e-4 90.000
0.70000000 3.988e-4 90.000
0.71000000 4.045e-4 90.000
0.72000000 4.102e-4 90.000
0.73000000 4.159e-4 90.000
0.74000000 4.216e-4 90.000
0.75000000 4.273e-4 90.000
0.76000000 4.330e-4 90.000
0.77000000 4.387e-4 90.000
0.78000000 4.444e-4 90.000
0.79000000 4.501e-4 90.000
0.80000000 4.558e-4 90.000
0.81000000 4.615e-4 90.000
0.82000000 4.672e-4 90.000
0.83000000 4.729e-4 90.000
0.84000000 4.786e-4 90.000
0.85000000 4.843e-4 90.000
0.86000000 4.900e-4 90.000
0.87000000 4.957e-4 90.000
0.88000000 5.014e-4 90.000
0.89000000 5.071e-4 90.000
0.90000000 5.128e-4 90.000
0.91000000 5.185e-4 90.000
0.92000000 5.242e-4 90.000
0.93000000 5.299e-4 90.000
0.94000000 5.356e-4 90.000
0.95000000 5.413e-4 90.000
0.96000000 5.470e-4 90.000
0.97000000 5.527e-4 90.000
0.98000000 5.584e-4 90.000
0.99000000 5.641e-4 90.000
1.00000000 5.698e-4 90.000
!< P1 F=1.0 Eeff=(5.91035444 -5.1852e-6) Z0=(158.103836 7.01712e-5) R=0.0466866 C=0.00331047 
1.01000000 5.755e-4 90.000
1.02000000 5.812e-4 90.000
1.03000000 5.869e-4 90.000
1.04000000 5.926e-4 90.000
1.05000000 5.983e-4 90.000
1.06000000 6.040e-4 90.000
1.07000000 6.097e-4 90.000
1.08000000 6.154e-4 90.000
1.09000000 6.211e-4 90.000
1.10000000 6.268e-4 90.000
1.11000000 6.325e-4 90.000
1.12000000 6.382e-4 90.000
1.13000000 6.439e-4 90.000
1.14000000 6.496e-4 90.000
1.15000000 6.553e-4 90.000
1.16000000 6.610e-4 90.000
1.17000000 6.667e-4 90.000
1.18000000 6.724e-4 90.000
1.19000000 6.781e-4 90.000
1.20000000 6.838e-4 90.000
1.21000000 6.895e-4 90.000
1.22000000 6.953e-4 90.000
1.23000000 7.010e-4 90.000
1.24000000 7.067e-4 90.000
1.25000000 7.124e-4 90.000
1.26000000 7.181e-4 90.000
1.27000000 7.238e-4 90.000
1.28000000 7.295e-4 90.000
1.29000000 7.352e-4 90.000
1.30000000 7.409e-4 90.000
1.31000000 7.466e-4 90.000
1.32000000 7.523e-4 90.000
1.33000000 7.580e-4 90.000
1.34000000 7.637e-4 90.000
1.35000000 7.694e-4 90.000
1.36000000 7.751e-4 90.000
1.37000000 7.808e-4 90.000
1.38000000 7.865e-4 90.000
1.39000000 7.923e-4 90.000
1.40000000 7.980e-4 90.000
1.41000000 8.037e-4 90.000
1.42000000 8.094e-4 90.000
1.43000000 8.151e-4 90.000
1.44000000 8.208e-4 90.000
1.45000000 8.265e-4 90.000
1.46000000 8.322e-4 90.000
1.47000000 8.379e-4 90.000
1.48000000 8.436e-4 90.000
1.49000000 8.493e-4 90.000
1.50000000 8.550e-4 90.000
1.51000000 8.608e-4 90.000
1.52000000 8.665e-4 90.000
1.53000000 8.722e-4 90.000
1.54000000 8.779e-4 90.000
1.55000000 8.836e-4 90.000
1.56000000 8.893e-4 90.000
1.57000000 8.950e-4 90.000
1.58000000 9.007e-4 90.000
!< P1 F=1.58 Eeff=(5.91046089 -5.2577e-6) Z0=(158.105019 7.00415e-5) R=0.02977433 C=0.0033105 
1.59000000 9.064e-4 90.000
1.60000000 9.121e-4 90.000
1.61000000 9.179e-4 90.000
1.62000000 9.236e-4 90.000
1.63000000 9.293e-4 90.000
1.64000000 9.350e-4 90.000
1.65000000 9.407e-4 90.000
1.66000000 9.464e-4 90.000
1.67000000 9.521e-4 90.000
1.68000000 9.578e-4 90.000
1.69000000 9.636e-4 90.000
1.70000000 9.693e-4 90.000
1.71000000 9.750e-4 90.000
1.72000000 9.807e-4 90.000
1.73000000 9.864e-4 90.000
1.74000000 9.921e-4 90.000
1.75000000 9.978e-4 90.000
1.76000000 0.001004 90.000
1.77000000 0.001009 90.000
1.78000000 0.001015 90.000
1.79000000 0.001021 90.000
1.80000000 0.001026 90.000
1.81000000 0.001032 90.000
1.82000000 0.001038 90.000
1.83000000 0.001044 90.000
1.84000000 0.001049 90.000
1.85000000 0.001055 90.000
1.86000000 0.001061 90.000
1.87000000 0.001066 90.000
1.88000000 0.001072 90.000
1.89000000 0.001078 90.000
1.90000000 0.001084 90.000
1.91000000 0.001089 90.000
1.92000000 0.001095 90.000
1.93000000 0.001101 90.000
1.94000000 0.001106 90.000
1.95000000 0.001112 90.000
1.96000000 0.001118 90.000
1.97000000 0.001124 90.000
1.98000000 0.001129 90.000
1.99000000 0.001135 90.000
2.00000000 0.001141 90.000
!< P1 F=2.0 Eeff=(5.91054218 -5.2472e-6) Z0=(158.105863 7.01194e-5) R=0.02347766 C=0.00331054 
