! Sonnet Data File
! From: em Version : 14.52
! From Project: Cq_2
! Data is De-embedded 
! Data File Written: 01/09/2019 23:21:08
!< HDATE 01/09/2019 15:14:09
!< MDATE 01/09/2019 15:14:09
# GHZ Y MA R 1.0
0.00100000 5.604e-7 90.001
!< P1 F=0.001 Eeff=(undefined: sl) Z0=(undefined: sl) R=0.0 C=0.0 
0.01000000 5.604e-6 90.000
0.02000000 1.121e-5 90.000
0.03000000 1.681e-5 90.000
0.04000000 2.242e-5 90.000
0.05000000 2.802e-5 90.000
0.06000000 3.363e-5 90.000
0.07000000 3.923e-5 90.000
0.08000000 4.483e-5 90.000
0.09000000 5.044e-5 90.000
0.10000000 5.604e-5 90.000
0.11000000 6.165e-5 90.000
0.12000000 6.725e-5 90.000
0.13000000 7.285e-5 90.000
0.14000000 7.846e-5 90.000
0.15000000 8.406e-5 90.000
0.16000000 8.967e-5 90.000
0.17000000 9.527e-5 90.000
0.18000000 1.009e-4 90.000
0.19000000 1.065e-4 90.000
0.20000000 1.121e-4 90.000
0.21000000 1.177e-4 90.000
0.22000000 1.233e-4 90.000
0.23000000 1.289e-4 90.000
0.24000000 1.345e-4 90.000
0.25000000 1.401e-4 90.000
0.26000000 1.457e-4 90.000
0.27000000 1.513e-4 90.000
0.28000000 1.569e-4 90.000
0.29000000 1.625e-4 90.000
0.30000000 1.681e-4 90.000
0.31000000 1.737e-4 90.000
0.32000000 1.793e-4 90.000
0.33000000 1.849e-4 90.000
0.34000000 1.905e-4 90.000
0.35000000 1.962e-4 90.000
0.36000000 2.018e-4 90.000
0.37000000 2.074e-4 90.000
0.38000000 2.130e-4 90.000
0.39000000 2.186e-4 90.000
0.40000000 2.242e-4 90.000
0.41000000 2.298e-4 90.000
0.42000000 2.354e-4 90.000
0.43000000 2.410e-4 90.000
0.44000000 2.466e-4 90.000
0.45000000 2.522e-4 90.000
0.46000000 2.578e-4 90.000
0.47000000 2.634e-4 90.000
0.48000000 2.690e-4 90.000
0.49000000 2.746e-4 90.000
0.50000000 2.802e-4 90.000
0.51000000 2.858e-4 90.000
0.52000000 2.914e-4 90.000
0.53000000 2.971e-4 90.000
0.54000000 3.027e-4 90.000
0.55000000 3.083e-4 90.000
0.56000000 3.139e-4 90.000
0.57000000 3.195e-4 90.000
0.58000000 3.251e-4 90.000
0.59000000 3.307e-4 90.000
0.60000000 3.363e-4 90.000
0.61000000 3.419e-4 90.000
0.62000000 3.475e-4 90.000
0.63000000 3.531e-4 90.000
0.64000000 3.587e-4 90.000
0.65000000 3.643e-4 90.000
0.66000000 3.699e-4 90.000
0.67000000 3.755e-4 90.000
0.68000000 3.811e-4 90.000
0.69000000 3.868e-4 90.000
0.70000000 3.924e-4 90.000
0.71000000 3.980e-4 90.000
0.72000000 4.036e-4 90.000
0.73000000 4.092e-4 90.000
0.74000000 4.148e-4 90.000
0.75000000 4.204e-4 90.000
0.76000000 4.260e-4 90.000
0.77000000 4.316e-4 90.000
0.78000000 4.372e-4 90.000
0.79000000 4.428e-4 90.000
0.80000000 4.484e-4 90.000
0.81000000 4.540e-4 90.000
0.82000000 4.597e-4 90.000
0.83000000 4.653e-4 90.000
0.84000000 4.709e-4 90.000
0.85000000 4.765e-4 90.000
0.86000000 4.821e-4 90.000
0.87000000 4.877e-4 90.000
0.88000000 4.933e-4 90.000
0.89000000 4.989e-4 90.000
0.90000000 5.045e-4 90.000
0.91000000 5.101e-4 90.000
0.92000000 5.157e-4 90.000
0.93000000 5.213e-4 90.000
0.94000000 5.270e-4 90.000
0.95000000 5.326e-4 90.000
0.96000000 5.382e-4 90.000
0.97000000 5.438e-4 90.000
0.98000000 5.494e-4 90.000
0.99000000 5.550e-4 90.000
1.00000000 5.606e-4 90.000
!< P1 F=1.0 Eeff=(5.91265831 -5.2252e-6) Z0=(158.213214 7.02749e-5) R=0.04638503 C=0.00331457 
1.01000000 5.662e-4 90.000
1.02000000 5.718e-4 90.000
1.03000000 5.774e-4 90.000
1.04000000 5.831e-4 90.000
1.05000000 5.887e-4 90.000
1.06000000 5.943e-4 90.000
1.07000000 5.999e-4 90.000
1.08000000 6.055e-4 90.000
1.09000000 6.111e-4 90.000
1.10000000 6.167e-4 90.000
1.11000000 6.223e-4 90.000
1.12000000 6.279e-4 90.000
1.13000000 6.336e-4 90.000
1.14000000 6.392e-4 90.000
1.15000000 6.448e-4 90.000
1.16000000 6.504e-4 90.000
1.17000000 6.560e-4 90.000
1.18000000 6.616e-4 90.000
1.19000000 6.672e-4 90.000
1.20000000 6.728e-4 90.000
1.21000000 6.785e-4 90.000
1.22000000 6.841e-4 90.000
1.23000000 6.897e-4 90.000
1.24000000 6.953e-4 90.000
1.25000000 7.009e-4 90.000
1.26000000 7.065e-4 90.000
1.27000000 7.121e-4 90.000
1.28000000 7.178e-4 90.000
1.29000000 7.234e-4 90.000
1.30000000 7.290e-4 90.000
1.31000000 7.346e-4 90.000
1.32000000 7.402e-4 90.000
1.33000000 7.458e-4 90.000
1.34000000 7.514e-4 90.000
1.35000000 7.571e-4 90.000
1.36000000 7.627e-4 90.000
1.37000000 7.683e-4 90.000
1.38000000 7.739e-4 90.000
1.39000000 7.795e-4 90.000
1.40000000 7.851e-4 90.000
1.41000000 7.907e-4 90.000
1.42000000 7.964e-4 90.000
1.43000000 8.020e-4 90.000
1.44000000 8.076e-4 90.000
1.45000000 8.132e-4 90.000
1.46000000 8.188e-4 90.000
1.47000000 8.244e-4 90.000
1.48000000 8.301e-4 90.000
1.49000000 8.357e-4 90.000
1.50000000 8.413e-4 90.000
1.51000000 8.469e-4 90.000
1.52000000 8.525e-4 90.000
1.53000000 8.582e-4 90.000
1.54000000 8.638e-4 90.000
1.55000000 8.694e-4 90.000
1.56000000 8.750e-4 90.000
1.57000000 8.806e-4 90.000
1.58000000 8.862e-4 90.000
!< P1 F=1.58 Eeff=(5.91276521 -5.2478e-6) Z0=(158.214409 7.01324e-5) R=0.02976044 C=0.00331461 
1.59000000 8.919e-4 90.000
1.60000000 8.975e-4 90.000
1.61000000 9.031e-4 90.000
1.62000000 9.087e-4 90.000
1.63000000 9.143e-4 90.000
1.64000000 9.200e-4 90.000
1.65000000 9.256e-4 90.000
1.66000000 9.312e-4 90.000
1.67000000 9.368e-4 90.000
1.68000000 9.424e-4 90.000
1.69000000 9.481e-4 90.000
1.70000000 9.537e-4 90.000
1.71000000 9.593e-4 90.000
1.72000000 9.649e-4 90.000
1.73000000 9.706e-4 90.000
1.74000000 9.762e-4 90.000
1.75000000 9.818e-4 90.000
1.76000000 9.874e-4 90.000
1.77000000 9.930e-4 90.000
1.78000000 9.987e-4 90.000
1.79000000 0.001004 90.000
1.80000000 0.001010 90.000
1.81000000 0.001016 90.000
1.82000000 0.001021 90.000
1.83000000 0.001027 90.000
1.84000000 0.001032 90.000
1.85000000 0.001038 90.000
1.86000000 0.001044 90.000
1.87000000 0.001049 90.000
1.88000000 0.001055 90.000
1.89000000 0.001061 90.000
1.90000000 0.001066 90.000
1.91000000 0.001072 90.000
1.92000000 0.001077 90.000
1.93000000 0.001083 90.000
1.94000000 0.001089 90.000
1.95000000 0.001094 90.000
1.96000000 0.001100 90.000
1.97000000 0.001106 90.000
1.98000000 0.001111 90.000
1.99000000 0.001117 90.000
2.00000000 0.001122 90.000
!< P1 F=2.0 Eeff=(5.9128469 -5.2414e-6) Z0=(158.215266 7.00675e-5) R=0.02352593 C=0.00331464 
