! Sonnet Data File
! From: emclient Version : 14.52
! From Project: V4
! Data is De-embedded 
! Data File Written: 08/20/2020 14:05:48
!< HDATE 08/20/2020 09:25:09
!< MDATE 08/20/2020 09:25:09
# GHZ Y MA R 1.0
1.00000e-4 9.447e-8 89.999 8.24e-10 -89.80 1.306e-8 -90.00 5.51e-11 -90.00
           4.40e-11 -90.00 1.304e-8 -90.00 1.075e-9 -90.00 1.35e-12 -90.00
           1.36e-12 -90.00 9.45e-10 -90.00
           7.87e-10 -90.08 9.483e-8 90.001 4.35e-11 -90.00 1.304e-8 -90.00
           1.306e-8 -90.00 5.43e-11 -90.00 1.21e-12 -90.00 9.37e-10 -90.00
           1.084e-9 -90.00 1.32e-12 -90.00
           1.306e-8 -90.00 4.34e-11 -90.00 6.596e-8 90.000 1.45e-11 -90.00
           3.54e-12 -90.00 1.44e-11 -90.00 1.294e-8 -90.00 4.08e-13 -90.00
           3.91e-14 -90.00 7.50e-13 -90.00
           5.52e-11 -90.00 1.304e-8 -90.00 1.44e-11 -90.00 6.779e-8 90.000
           1.43e-11 -90.00 3.49e-12 -90.00 1.19e-12 -90.00 1.294e-8 -90.00
           6.95e-13 -90.00 1.67e-13 -90.00
           4.41e-11 -90.00 1.306e-8 -90.00 3.52e-12 -90.00 1.45e-11 -90.00
           6.607e-8 90.000 1.44e-11 -90.00 9.77e-14 -90.00 9.49e-13 -90.00
           1.293e-8 -90.00 5.96e-13 -90.00
           1.304e-8 -90.00 5.43e-11 -90.00 1.42e-11 -90.00 3.59e-12 -90.00
           1.46e-11 -90.00 7.092e-8 89.999 5.68e-13 -90.00 9.24e-14 -90.00
           9.38e-13 -90.00 1.292e-8 -90.00
           1.075e-9 -90.00 1.43e-12 -90.00 1.294e-8 -90.00 7.25e-13 -90.00
           1.81e-13 -90.00 4.05e-13 -90.00 4.220e-8 90.000 2.56e-13 -90.00
           9.38e-13 90.000 1.49e-13 90.000
           1.25e-12 -90.00 9.38e-10 -90.00 4.94e-13 -90.00 1.294e-8 -90.00
           9.06e-13 -90.00 3.77e-13 -90.00 3.04e-13 -90.00 4.220e-8 90.000
           7.11e-14 90.000 3.41e-13 -90.00
           1.69e-12 -90.00 1.084e-9 -90.00 5.75e-13 90.000 5.24e-13 -90.00
           1.293e-8 -90.00 1.09e-12 -90.00 8.46e-13 -90.00 9.95e-14 -90.00
           4.160e-8 90.000 5.68e-14 90.000
           9.45e-10 -90.00 1.24e-12 -90.00 1.04e-12 -90.00 1.88e-13 -90.00
           5.77e-13 -90.00 1.292e-8 -90.00 2.49e-13 -90.00 2.84e-14 90.000
           3.98e-13 -90.00 4.094e-8 90.000
!< P1 F=1.0e-4 Eeff=(undefined: sl) Z0=(undefined: sl) R=0.0 C=0.0 
!< P2 F=1.0e-4 Eeff=(undefined: sl) Z0=(undefined: sl) R=0.0 C=0.0 
!< P3 F=1.0e-4 Eeff=(undefined: sl) Z0=(undefined: sl) R=0.0 C=0.0 
!< P4 F=1.0e-4 Eeff=(undefined: sl) Z0=(undefined: sl) R=0.0 C=0.0 
!< P5 F=1.0e-4 Eeff=(undefined: sl) Z0=(undefined: sl) R=0.0 C=0.0 
!< P6 F=1.0e-4 Eeff=(undefined: sl) Z0=(undefined: sl) R=0.0 C=0.0 
!< P7 F=1.0e-4 Eeff=(undefined: sl) Z0=(undefined: sl) R=0.0 C=0.0 
!< P8 F=1.0e-4 Eeff=(undefined: sl) Z0=(undefined: sl) R=0.0 C=0.0 
!< P9 F=1.0e-4 Eeff=(undefined: sl) Z0=(undefined: sl) R=0.0 C=0.0 
!< P10 F=1.0e-4 Eeff=(undefined: sl) Z0=(undefined: sl) R=0.0 C=0.0 
0.00500000 4.725e-6 90.000 3.933e-8 -90.00 6.530e-7 -90.00 2.756e-9 -90.00
           2.206e-9 -90.00 6.522e-7 -90.00 5.377e-8 -90.00 6.71e-11 -90.00
           6.86e-11 -90.00 4.725e-8 -90.00
           3.933e-8 -90.00 4.743e-6 90.000 2.170e-9 -90.00 6.522e-7 -90.00
           6.529e-7 -90.00 2.716e-9 -90.00 6.80e-11 -90.00 4.687e-8 -90.00
           5.421e-8 -90.00 6.58e-11 -90.00
           6.530e-7 -90.00 2.170e-9 -90.00 3.313e-6 90.000 7.23e-10 -90.00
           1.75e-10 -90.00 7.20e-10 -90.00 6.470e-7 -90.00 2.91e-11 -90.00
           5.81e-12 -90.00 4.58e-11 -90.00
           2.756e-9 -90.00 6.522e-7 -90.00 7.23e-10 -90.00 3.391e-6 90.000
           7.21e-10 -90.00 1.77e-10 -90.00 4.85e-11 -90.00 6.473e-7 -90.00
           2.98e-11 -90.00 5.83e-12 -90.00
           2.206e-9 -90.00 6.529e-7 -90.00 1.75e-10 -90.00 7.21e-10 -90.00
           3.318e-6 90.000 7.23e-10 -90.00 5.89e-12 -90.00 4.66e-11 -90.00
           6.465e-7 -90.00 2.89e-11 -90.00
           6.522e-7 -90.00 2.716e-9 -90.00 7.20e-10 -90.00 1.77e-10 -90.00
           7.23e-10 -90.00 3.400e-6 90.000 2.98e-11 -90.00 5.81e-12 -90.00
           4.80e-11 -90.00 6.458e-7 -90.00
           5.377e-8 -90.00 6.80e-11 -90.00 6.470e-7 -90.00 4.85e-11 -90.00
           5.89e-12 -90.00 2.98e-11 -90.00 2.109e-6 90.000 4.53e-12 -90.00
           6.87e-13 89.961 4.05e-12 -90.00
           6.71e-11 -90.00 4.687e-8 -90.00 2.91e-11 -90.00 6.473e-7 -90.00
           4.66e-11 -90.00 5.81e-12 -90.00 4.53e-12 -90.00 2.109e-6 90.000
           4.16e-12 -90.00 5.01e-13 -90.06
           6.86e-11 -90.00 5.421e-8 -90.00 5.81e-12 -90.00 2.98e-11 -90.00
           6.465e-7 -90.00 4.80e-11 -90.00 6.87e-13 89.961 4.16e-12 -90.00
           2.079e-6 90.000 4.15e-12 -90.00
           4.725e-8 -90.00 6.58e-11 -90.00 4.58e-11 -90.00 5.83e-12 -90.00
           2.89e-11 -90.00 6.458e-7 -90.00 4.05e-12 -90.00 5.01e-13 -90.06
           4.15e-12 -90.00 2.046e-6 90.000
0.01000000 9.449e-6 90.000 7.863e-8 -90.00 1.306e-6 -90.00 5.512e-9 -90.00
           4.411e-9 -90.00 1.304e-6 -90.00 1.075e-7 -90.00 1.34e-10 -90.00
           1.37e-10 -90.00 9.451e-8 -90.00
           7.863e-8 -90.00 9.486e-6 90.000 4.339e-9 -90.00 1.304e-6 -90.00
           1.306e-6 -90.00 5.431e-9 -90.00 1.36e-10 -90.00 9.374e-8 -90.00
           1.084e-7 -90.00 1.32e-10 -90.00
           1.306e-6 -90.00 4.339e-9 -90.00 6.626e-6 90.000 1.446e-9 -90.00
           3.50e-10 -90.00 1.440e-9 -90.00 1.294e-6 -90.00 5.83e-11 -90.00
           1.17e-11 -90.00 9.18e-11 -90.00
           5.512e-9 -90.00 1.304e-6 -90.00 1.446e-9 -90.00 6.782e-6 90.000
           1.442e-9 -90.00 3.54e-10 -90.00 9.67e-11 -90.00 1.295e-6 -90.00
           5.96e-11 -90.00 1.16e-11 -90.00
           4.411e-9 -90.00 1.306e-6 -90.00 3.50e-10 -90.00 1.442e-9 -90.00
           6.636e-6 90.000 1.445e-9 -90.00 1.18e-11 -90.00 9.31e-11 -90.00
           1.293e-6 -90.00 5.78e-11 -90.00
           1.304e-6 -90.00 5.431e-9 -90.00 1.440e-9 -90.00 3.54e-10 -90.00
           1.445e-9 -90.00 6.797e-6 90.000 5.96e-11 -90.00 1.16e-11 -90.00
           9.60e-11 -90.00 1.292e-6 -90.00
           1.075e-7 -90.00 1.36e-10 -90.00 1.294e-6 -90.00 9.67e-11 -90.00
           1.18e-11 -90.00 5.96e-11 -90.00 4.219e-6 90.000 8.89e-12 -90.00
           4.35e-13 89.885 8.34e-12 -90.00
           1.34e-10 -90.00 9.374e-8 -90.00 5.83e-11 -90.00 1.295e-6 -90.00
           9.31e-11 -90.00 1.16e-11 -90.00 8.89e-12 -90.00 4.217e-6 90.000
           8.47e-12 -90.00 6.66e-13 -90.09
           1.37e-10 -90.00 1.084e-7 -90.00 1.17e-11 -90.00 5.96e-11 -90.00
           1.293e-6 -90.00 9.60e-11 -90.00 4.35e-13 89.885 8.47e-12 -90.00
           4.159e-6 90.000 8.43e-12 -90.00
           9.451e-8 -90.00 1.32e-10 -90.00 9.18e-11 -90.00 1.16e-11 -90.00
           5.78e-11 -90.00 1.292e-6 -90.00 8.34e-12 -90.00 6.66e-13 -90.09
           8.43e-12 -90.00 4.092e-6 90.000
0.01500000 1.417e-5 90.000 1.179e-7 -90.00 1.959e-6 -90.00 8.268e-9 -90.00
           6.617e-9 -90.00 1.957e-6 -90.00 1.613e-7 -90.00 2.01e-10 -90.00
           2.06e-10 -90.00 1.418e-7 -90.00
           1.179e-7 -90.00 1.423e-5 90.000 6.509e-9 -90.00 1.957e-6 -90.00
           1.959e-6 -90.00 8.147e-9 -90.00 2.05e-10 -90.00 1.406e-7 -90.00
           1.626e-7 -90.00 1.97e-10 -90.00
           1.959e-6 -90.00 6.509e-9 -90.00 9.939e-6 90.000 2.168e-9 -90.00
           5.25e-10 -90.00 2.159e-9 -90.00 1.941e-6 -90.00 8.76e-11 -90.00
           1.76e-11 -90.00 1.38e-10 -90.00
           8.268e-9 -90.00 1.957e-6 -90.00 2.168e-9 -90.00 1.017e-5 90.000
           2.164e-9 -90.00 5.32e-10 -90.00 1.45e-10 -90.00 1.942e-6 -90.00
           8.94e-11 -90.00 1.74e-11 -90.00
           6.617e-9 -90.00 1.959e-6 -90.00 5.25e-10 -90.00 2.164e-9 -90.00
           9.954e-6 90.000 2.168e-9 -90.00 1.77e-11 -90.00 1.40e-10 -90.00
           1.940e-6 -90.00 8.68e-11 -90.00
           1.957e-6 -90.00 8.147e-9 -90.00 2.159e-9 -90.00 5.32e-10 -90.00
           2.168e-9 -90.00 1.019e-5 90.000 8.95e-11 -90.00 1.75e-11 -90.00
           1.44e-10 -90.00 1.938e-6 -90.00
           1.613e-7 -90.00 2.05e-10 -90.00 1.941e-6 -90.00 1.45e-10 -90.00
           1.77e-11 -90.00 8.95e-11 -90.00 6.328e-6 90.000 1.32e-11 -90.00
           1.87e-13 89.624 1.26e-11 -90.00
           2.01e-10 -90.00 1.406e-7 -90.00 8.76e-11 -90.00 1.942e-6 -90.00
           1.40e-10 -90.00 1.75e-11 -90.00 1.32e-11 -90.00 6.326e-6 90.000
           1.28e-11 -90.00 8.29e-13 -90.10
           2.06e-10 -90.00 1.626e-7 -90.00 1.76e-11 -90.00 8.94e-11 -90.00
           1.940e-6 -90.00 1.44e-10 -90.00 1.87e-13 89.624 1.28e-11 -90.00
           6.238e-6 90.000 1.27e-11 -90.00
           1.418e-7 -90.00 1.97e-10 -90.00 1.38e-10 -90.00 1.74e-11 -90.00
           8.68e-11 -90.00 1.938e-6 -90.00 1.26e-11 -90.00 8.29e-13 -90.10
           1.27e-11 -90.00 6.138e-6 90.000
0.02000000 1.890e-5 90.000 1.572e-7 -90.00 2.612e-6 -90.00 1.102e-8 -90.00
           8.822e-9 -90.00 2.609e-6 -90.00 2.151e-7 -90.00 2.69e-10 -90.00
           2.75e-10 -90.00 1.890e-7 -90.00
           1.572e-7 -90.00 1.897e-5 90.000 8.678e-9 -90.00 2.609e-6 -90.00
           2.612e-6 -90.00 1.086e-8 -90.00 2.73e-10 -90.00 1.875e-7 -90.00
           2.169e-7 -90.00 2.63e-10 -90.00
           2.612e-6 -90.00 8.678e-9 -90.00 1.325e-5 90.000 2.891e-9 -90.00
           7.00e-10 -90.00 2.879e-9 -90.00 2.588e-6 -90.00 1.17e-10 -90.00
           2.35e-11 -90.00 1.84e-10 -90.00
           1.102e-8 -90.00 2.609e-6 -90.00 2.891e-9 -90.00 1.356e-5 90.000
           2.885e-9 -90.00 7.09e-10 -90.00 1.93e-10 -90.00 2.589e-6 -90.00
           1.19e-10 -90.00 2.32e-11 -90.00
           8.822e-9 -90.00 2.612e-6 -90.00 7.00e-10 -90.00 2.885e-9 -90.00
           1.327e-5 90.000 2.890e-9 -90.00 2.36e-11 -90.00 1.86e-10 -90.00
           2.586e-6 -90.00 1.16e-10 -90.00
           2.609e-6 -90.00 1.086e-8 -90.00 2.879e-9 -90.00 7.09e-10 -90.00
           2.890e-9 -90.00 1.359e-5 90.000 1.19e-10 -90.00 2.34e-11 -90.00
           1.92e-10 -90.00 2.583e-6 -90.00
           2.151e-7 -90.00 2.73e-10 -90.00 2.588e-6 -90.00 1.93e-10 -90.00
           2.36e-11 -90.00 1.19e-10 -90.00 8.438e-6 90.000 1.76e-11 -90.00
           5.28e-14 -88.34 1.69e-11 -90.00
           2.69e-10 -90.00 1.875e-7 -90.00 1.17e-10 -90.00 2.589e-6 -90.00
           1.86e-10 -90.00 2.34e-11 -90.00 1.76e-11 -90.00 8.434e-6 90.000
           1.71e-11 -90.00 9.89e-13 -90.10
           2.75e-10 -90.00 2.169e-7 -90.00 2.35e-11 -90.00 1.19e-10 -90.00
           2.586e-6 -90.00 1.92e-10 -90.00 5.28e-14 -88.34 1.71e-11 -90.00
           8.318e-6 90.000 1.70e-11 -90.00
           1.890e-7 -90.00 2.63e-10 -90.00 1.84e-10 -90.00 2.32e-11 -90.00
           1.16e-10 -90.00 2.583e-6 -90.00 1.69e-11 -90.00 9.89e-13 -90.10
           1.70e-11 -90.00 8.184e-6 90.000
0.02500000 2.362e-5 90.000 1.965e-7 -90.00 3.265e-6 -90.00 1.378e-8 -90.00
           1.103e-8 -90.00 3.261e-6 -90.00 2.689e-7 -90.00 3.36e-10 -90.00
           3.43e-10 -90.00 2.363e-7 -90.00
           1.965e-7 -90.00 2.371e-5 90.000 1.085e-8 -90.00 3.261e-6 -90.00
           3.265e-6 -90.00 1.358e-8 -90.00 3.41e-10 -90.00 2.344e-7 -90.00
           2.711e-7 -90.00 3.30e-10 -90.00
           3.265e-6 -90.00 1.085e-8 -90.00 1.657e-5 90.000 3.614e-9 -90.00
           8.74e-10 -90.00 3.599e-9 -90.00 3.235e-6 -90.00 1.46e-10 -90.00
           2.94e-11 -90.00 2.30e-10 -90.00
           1.378e-8 -90.00 3.261e-6 -90.00 3.614e-9 -90.00 1.695e-5 90.000
           3.606e-9 -90.00 8.86e-10 -90.00 2.42e-10 -90.00 3.236e-6 -90.00
           1.49e-10 -90.00 2.91e-11 -90.00
           1.103e-8 -90.00 3.265e-6 -90.00 8.74e-10 -90.00 3.606e-9 -90.00
           1.659e-5 90.000 3.612e-9 -90.00 2.96e-11 -90.00 2.33e-10 -90.00
           3.233e-6 -90.00 1.45e-10 -90.00
           3.261e-6 -90.00 1.358e-8 -90.00 3.599e-9 -90.00 8.86e-10 -90.00
           3.612e-9 -90.00 1.699e-5 90.000 1.49e-10 -90.00 2.92e-11 -90.00
           2.40e-10 -90.00 3.229e-6 -90.00
           2.689e-7 -90.00 3.41e-10 -90.00 3.235e-6 -90.00 2.42e-10 -90.00
           2.96e-11 -90.00 1.49e-10 -90.00 1.055e-5 90.000 2.19e-11 -90.00
           2.82e-13 -89.64 2.11e-11 -90.00
           3.36e-10 -90.00 2.344e-7 -90.00 1.46e-10 -90.00 3.236e-6 -90.00
           2.33e-10 -90.00 2.92e-11 -90.00 2.19e-11 -90.00 1.054e-5 90.000
           2.13e-11 -90.00 1.14e-12 -90.10
           3.43e-10 -90.00 2.711e-7 -90.00 2.94e-11 -90.00 1.49e-10 -90.00
           3.233e-6 -90.00 2.40e-10 -90.00 2.82e-13 -89.64 2.13e-11 -90.00
           1.040e-5 90.000 2.12e-11 -90.00
           2.363e-7 -90.00 3.30e-10 -90.00 2.30e-10 -90.00 2.91e-11 -90.00
           1.45e-10 -90.00 3.229e-6 -90.00 2.11e-11 -90.00 1.14e-12 -90.10
           2.12e-11 -90.00 1.023e-5 90.000
0.03000000 2.835e-5 90.000 2.358e-7 -90.00 3.918e-6 -90.00 1.653e-8 -90.00
           1.323e-8 -90.00 3.913e-6 -90.00 3.226e-7 -90.00 4.04e-10 -90.00
           4.13e-10 -90.00 2.835e-7 -90.00
           2.358e-7 -90.00 2.846e-5 90.000 1.301e-8 -90.00 3.913e-6 -90.00
           3.918e-6 -90.00 1.629e-8 -90.00 4.10e-10 -90.00 2.812e-7 -90.00
           3.253e-7 -90.00 3.96e-10 -90.00
           3.918e-6 -90.00 1.301e-8 -90.00 1.988e-5 90.000 4.336e-9 -90.00
           1.049e-9 -90.00 4.318e-9 -90.00 3.882e-6 -90.00 1.76e-10 -90.00
           3.54e-11 -90.00 2.76e-10 -90.00
           1.653e-8 -90.00 3.913e-6 -90.00 4.336e-9 -90.00 2.034e-5 90.000
           4.326e-9 -90.00 1.063e-9 -90.00 2.90e-10 -90.00 3.884e-6 -90.00
           1.79e-10 -90.00 3.49e-11 -90.00
           1.323e-8 -90.00 3.918e-6 -90.00 1.049e-9 -90.00 4.326e-9 -90.00
           1.991e-5 90.000 4.334e-9 -90.00 3.56e-11 -90.00 2.80e-10 -90.00
           3.879e-6 -90.00 1.74e-10 -90.00
           3.913e-6 -90.00 1.629e-8 -90.00 4.318e-9 -90.00 1.063e-9 -90.00
           4.334e-9 -90.00 2.039e-5 90.000 1.79e-10 -90.00 3.51e-11 -90.00
           2.88e-10 -90.00 3.875e-6 -90.00
           3.226e-7 -90.00 4.10e-10 -90.00 3.882e-6 -90.00 2.90e-10 -90.00
           3.56e-11 -90.00 1.79e-10 -90.00 1.266e-5 90.000 2.62e-11 -90.00
           5.00e-13 -89.77 2.54e-11 -90.00
           4.04e-10 -90.00 2.812e-7 -90.00 1.76e-10 -90.00 3.884e-6 -90.00
           2.80e-10 -90.00 3.51e-11 -90.00 2.62e-11 -90.00 1.265e-5 90.000
           2.56e-11 -90.00 1.29e-12 -90.10
           4.13e-10 -90.00 3.253e-7 -90.00 3.54e-11 -90.00 1.79e-10 -90.00
           3.879e-6 -90.00 2.88e-10 -90.00 5.00e-13 -89.77 2.56e-11 -90.00
           1.248e-5 90.000 2.55e-11 -90.00
           2.835e-7 -90.00 3.96e-10 -90.00 2.76e-10 -90.00 3.49e-11 -90.00
           1.74e-10 -90.00 3.875e-6 -90.00 2.54e-11 -90.00 1.29e-12 -90.10
           2.55e-11 -90.00 1.228e-5 90.000
0.03500000 3.307e-5 90.000 2.751e-7 -90.00 4.571e-6 -90.00 1.929e-8 -90.00
           1.544e-8 -90.00 4.566e-6 -90.00 3.764e-7 -90.00 4.71e-10 -90.00
           4.82e-10 -90.00 3.308e-7 -90.00
           2.751e-7 -90.00 3.320e-5 90.000 1.518e-8 -90.00 4.566e-6 -90.00
           4.571e-6 -90.00 1.900e-8 -90.00 4.79e-10 -90.00 3.281e-7 -90.00
           3.795e-7 -90.00 4.62e-10 -90.00
           4.571e-6 -90.00 1.518e-8 -90.00 2.319e-5 90.000 5.059e-9 -90.00
           1.224e-9 -90.00 5.038e-9 -90.00 4.529e-6 -90.00 2.05e-10 -90.00
           4.13e-11 -90.00 3.22e-10 -90.00
           1.929e-8 -90.00 4.566e-6 -90.00 5.059e-9 -90.00 2.374e-5 90.000
           5.047e-9 -90.00 1.241e-9 -90.00 3.38e-10 -90.00 4.531e-6 -90.00
           2.09e-10 -90.00 4.08e-11 -90.00
           1.544e-8 -90.00 4.571e-6 -90.00 1.224e-9 -90.00 5.047e-9 -90.00
           2.323e-5 90.000 5.056e-9 -90.00 4.15e-11 -90.00 3.26e-10 -90.00
           4.526e-6 -90.00 2.03e-10 -90.00
           4.566e-6 -90.00 1.900e-8 -90.00 5.038e-9 -90.00 1.241e-9 -90.00
           5.056e-9 -90.00 2.378e-5 90.000 2.09e-10 -90.00 4.11e-11 -90.00
           3.37e-10 -90.00 4.521e-6 -90.00
           3.764e-7 -90.00 4.79e-10 -90.00 4.529e-6 -90.00 3.38e-10 -90.00
           4.15e-11 -90.00 2.09e-10 -90.00 1.477e-5 90.000 3.05e-11 -90.00
           7.02e-13 -89.83 2.96e-11 -90.00
           4.71e-10 -90.00 3.281e-7 -90.00 2.05e-10 -90.00 4.531e-6 -90.00
           3.26e-10 -90.00 4.11e-11 -90.00 3.05e-11 -90.00 1.476e-5 90.000
           2.98e-11 -90.00 1.42e-12 -90.10
           4.82e-10 -90.00 3.795e-7 -90.00 4.13e-11 -90.00 2.09e-10 -90.00
           4.526e-6 -90.00 3.37e-10 -90.00 7.02e-13 -89.83 2.98e-11 -90.00
           1.456e-5 90.000 2.97e-11 -90.00
           3.308e-7 -90.00 4.62e-10 -90.00 3.22e-10 -90.00 4.08e-11 -90.00
           2.03e-10 -90.00 4.521e-6 -90.00 2.96e-11 -90.00 1.42e-12 -90.10
           2.97e-11 -90.00 1.432e-5 90.000
0.04000000 3.780e-5 90.000 3.144e-7 -90.00 5.224e-6 -90.00 2.204e-8 -90.00
           1.764e-8 -90.00 5.218e-6 -90.00 4.302e-7 -90.00 5.39e-10 -90.00
           5.51e-10 -90.00 3.780e-7 -90.00
           3.144e-7 -90.00 3.794e-5 90.000 1.735e-8 -90.00 5.218e-6 -90.00
           5.224e-6 -90.00 2.172e-8 -90.00 5.48e-10 -90.00 3.750e-7 -90.00
           4.337e-7 -90.00 5.29e-10 -90.00
           5.224e-6 -90.00 1.735e-8 -90.00 2.650e-5 90.000 5.781e-9 -90.00
           1.399e-9 -90.00 5.757e-9 -90.00 5.176e-6 -90.00 2.35e-10 -90.00
           4.73e-11 -90.00 3.68e-10 -90.00
           2.204e-8 -90.00 5.218e-6 -90.00 5.781e-9 -90.00 2.713e-5 90.000
           5.768e-9 -90.00 1.418e-9 -90.00 3.87e-10 -90.00 5.178e-6 -90.00
           2.39e-10 -90.00 4.67e-11 -90.00
           1.764e-8 -90.00 5.224e-6 -90.00 1.399e-9 -90.00 5.768e-9 -90.00
           2.654e-5 90.000 5.778e-9 -90.00 4.76e-11 -90.00 3.73e-10 -90.00
           5.172e-6 -90.00 2.32e-10 -90.00
           5.218e-6 -90.00 2.172e-8 -90.00 5.757e-9 -90.00 1.418e-9 -90.00
           5.778e-9 -90.00 2.718e-5 90.000 2.39e-10 -90.00 4.70e-11 -90.00
           3.85e-10 -90.00 5.167e-6 -90.00
           4.302e-7 -90.00 5.48e-10 -90.00 5.176e-6 -90.00 3.87e-10 -90.00
           4.76e-11 -90.00 2.39e-10 -90.00 1.688e-5 90.000 3.48e-11 -90.00
           8.86e-13 -89.85 3.38e-11 -90.00
           5.39e-10 -90.00 3.750e-7 -90.00 2.35e-10 -90.00 5.178e-6 -90.00
           3.73e-10 -90.00 4.70e-11 -90.00 3.48e-11 -90.00 1.687e-5 90.000
           3.40e-11 -90.00 1.54e-12 -90.10
           5.51e-10 -90.00 4.337e-7 -90.00 4.73e-11 -90.00 2.39e-10 -90.00
           5.172e-6 -90.00 3.85e-10 -90.00 8.86e-13 -89.85 3.40e-11 -90.00
           1.664e-5 90.000 3.39e-11 -90.00
           3.780e-7 -90.00 5.29e-10 -90.00 3.68e-10 -90.00 4.67e-11 -90.00
           2.32e-10 -90.00 5.167e-6 -90.00 3.38e-11 -90.00 1.54e-12 -90.10
           3.39e-11 -90.00 1.637e-5 90.000
0.04500000 4.252e-5 90.000 3.537e-7 -90.00 5.877e-6 -90.00 2.479e-8 -90.00
           1.984e-8 -90.00 5.870e-6 -90.00 4.840e-7 -90.00 6.07e-10 -90.00
           6.21e-10 -90.00 4.253e-7 -90.00
           3.537e-7 -90.00 4.269e-5 90.000 1.952e-8 -90.00 5.870e-6 -90.00
           5.876e-6 -90.00 2.443e-8 -90.00 6.18e-10 -90.00 4.219e-7 -90.00
           4.879e-7 -90.00 5.96e-10 -90.00
           5.877e-6 -90.00 1.952e-8 -90.00 2.982e-5 90.000 6.503e-9 -90.00
           1.574e-9 -90.00 6.476e-9 -90.00 5.823e-6 -90.00 2.64e-10 -90.00
           5.34e-11 -90.00 4.15e-10 -90.00
           2.479e-8 -90.00 5.870e-6 -90.00 6.503e-9 -90.00 3.052e-5 90.000
           6.488e-9 -90.00 1.595e-9 -90.00 4.36e-10 -90.00 5.825e-6 -90.00
           2.69e-10 -90.00 5.26e-11 -90.00
           1.984e-8 -90.00 5.876e-6 -90.00 1.574e-9 -90.00 6.488e-9 -90.00
           2.986e-5 90.000 6.500e-9 -90.00 5.36e-11 -90.00 4.20e-10 -90.00
           5.819e-6 -90.00 2.61e-10 -90.00
           5.870e-6 -90.00 2.443e-8 -90.00 6.476e-9 -90.00 1.595e-9 -90.00
           6.500e-9 -90.00 3.058e-5 90.000 2.70e-10 -90.00 5.30e-11 -90.00
           4.33e-10 -90.00 5.813e-6 -90.00
           4.840e-7 -90.00 6.18e-10 -90.00 5.823e-6 -90.00 4.36e-10 -90.00
           5.36e-11 -90.00 2.70e-10 -90.00 1.898e-5 90.000 3.90e-11 -90.00
           1.05e-12 -89.87 3.79e-11 -90.00
           6.07e-10 -90.00 4.219e-7 -90.00 2.64e-10 -90.00 5.825e-6 -90.00
           4.20e-10 -90.00 5.30e-11 -90.00 3.90e-11 -90.00 1.898e-5 90.000
           3.82e-11 -90.00 1.64e-12 -90.10
           6.21e-10 -90.00 4.879e-7 -90.00 5.34e-11 -90.00 2.69e-10 -90.00
           5.819e-6 -90.00 4.33e-10 -90.00 1.05e-12 -89.87 3.82e-11 -90.00
           1.871e-5 90.000 3.80e-11 -90.00
