! Sonnet Data File
! From: em Version : 14.52
! From Project: Xmon_Cq
! Data is De-embedded 
! Data File Written: 06/16/2017 16:32:27
!< HDATE 06/16/2017 11:39:54
!< MDATE 06/16/2017 11:40:50
# GHZ Y MA R 1.0
1.00000000 4.828e-4 90.000
!< P1 F=1.0 Eeff=(5.96209547 -6.0328e-6) Z0=(122.700044 -6.226e-5) R=0.0 C=0.01100599 
1.00100000 4.833e-4 90.000
1.00200000 4.838e-4 90.000
1.00300000 4.842e-4 90.000
1.00400000 4.847e-4 90.000
1.00500000 4.852e-4 90.000
1.00600000 4.857e-4 90.000
1.00700000 4.862e-4 90.000
1.00800000 4.867e-4 90.000
1.00900000 4.871e-4 90.000
1.01000000 4.876e-4 90.000
1.01100000 4.881e-4 90.000
1.01200000 4.886e-4 90.000
1.01300000 4.891e-4 90.000
1.01400000 4.896e-4 90.000
1.01500000 4.900e-4 90.000
1.01600000 4.905e-4 90.000
1.01700000 4.910e-4 90.000
1.01800000 4.915e-4 90.000
1.01900000 4.920e-4 90.000
1.02000000 4.925e-4 90.000
1.02100000 4.929e-4 90.000
1.02200000 4.934e-4 90.000
1.02300000 4.939e-4 90.000
1.02400000 4.944e-4 90.000
1.02500000 4.949e-4 90.000
1.02600000 4.954e-4 90.000
1.02700000 4.958e-4 90.000
1.02800000 4.963e-4 90.000
1.02900000 4.968e-4 90.000
1.03000000 4.973e-4 90.000
1.03100000 4.978e-4 90.000
1.03200000 4.983e-4 90.000
1.03300000 4.987e-4 90.000
1.03400000 4.992e-4 90.000
1.03500000 4.997e-4 90.000
1.03600000 5.002e-4 90.000
1.03700000 5.007e-4 90.000
1.03800000 5.012e-4 90.000
1.03900000 5.016e-4 90.000
1.04000000 5.021e-4 90.000
1.04100000 5.026e-4 90.000
1.04200000 5.031e-4 90.000
1.04300000 5.036e-4 90.000
1.04400000 5.041e-4 90.000
1.04500000 5.045e-4 90.000
1.04600000 5.050e-4 90.000
1.04700000 5.055e-4 90.000
1.04800000 5.060e-4 90.000
1.04900000 5.065e-4 90.000
1.05000000 5.070e-4 90.000
1.05100000 5.074e-4 90.000
1.05200000 5.079e-4 90.000
1.05300000 5.084e-4 90.000
1.05400000 5.089e-4 90.000
1.05500000 5.094e-4 90.000
1.05600000 5.099e-4 90.000
1.05700000 5.103e-4 90.000
1.05800000 5.108e-4 90.000
1.05900000 5.113e-4 90.000
1.06000000 5.118e-4 90.000
1.06100000 5.123e-4 90.000
1.06200000 5.128e-4 90.000
1.06300000 5.132e-4 90.000
1.06400000 5.137e-4 90.000
1.06500000 5.142e-4 90.000
1.06600000 5.147e-4 90.000
1.06700000 5.152e-4 90.000
1.06800000 5.157e-4 90.000
1.06900000 5.161e-4 90.000
1.07000000 5.166e-4 90.000
1.07100000 5.171e-4 90.000
1.07200000 5.176e-4 90.000
1.07300000 5.181e-4 90.000
1.07400000 5.186e-4 90.000
1.07500000 5.190e-4 90.000
1.07600000 5.195e-4 90.000
1.07700000 5.200e-4 90.000
1.07800000 5.205e-4 90.000
1.07900000 5.210e-4 90.000
1.08000000 5.215e-4 90.000
1.08100000 5.219e-4 90.000
1.08200000 5.224e-4 90.000
1.08300000 5.229e-4 90.000
1.08400000 5.234e-4 90.000
1.08500000 5.239e-4 90.000
1.08600000 5.244e-4 90.000
1.08700000 5.248e-4 90.000
1.08800000 5.253e-4 90.000
1.08900000 5.258e-4 90.000
1.09000000 5.263e-4 90.000
1.09100000 5.268e-4 90.000
1.09200000 5.273e-4 90.000
1.09300000 5.277e-4 90.000
1.09400000 5.282e-4 90.000
1.09500000 5.287e-4 90.000
1.09600000 5.292e-4 90.000
1.09700000 5.297e-4 90.000
1.09800000 5.302e-4 90.000
1.09900000 5.306e-4 90.000
1.10000000 5.311e-4 90.000
1.10100000 5.316e-4 90.000
1.10200000 5.321e-4 90.000
1.10300000 5.326e-4 90.000
1.10400000 5.331e-4 90.000
1.10500000 5.335e-4 90.000
1.10600000 5.340e-4 90.000
1.10700000 5.345e-4 90.000
1.10800000 5.350e-4 90.000
1.10900000 5.355e-4 90.000
1.11000000 5.360e-4 90.000
1.11100000 5.364e-4 90.000
1.11200000 5.369e-4 90.000
1.11300000 5.374e-4 90.000
1.11400000 5.379e-4 90.000
1.11500000 5.384e-4 90.000
1.11600000 5.389e-4 90.000
1.11700000 5.393e-4 90.000
1.11800000 5.398e-4 90.000
1.11900000 5.403e-4 90.000
1.12000000 5.408e-4 90.000
1.12100000 5.413e-4 90.000
1.12200000 5.418e-4 90.000
1.12300000 5.422e-4 90.000
1.12400000 5.427e-4 90.000
1.12500000 5.432e-4 90.000
1.12600000 5.437e-4 90.000
1.12700000 5.442e-4 90.000
1.12800000 5.447e-4 90.000
1.12900000 5.451e-4 90.000
1.13000000 5.456e-4 90.000
1.13100000 5.461e-4 90.000
1.13200000 5.466e-4 90.000
1.13300000 5.471e-4 90.000
1.13400000 5.476e-4 90.000
1.13500000 5.480e-4 90.000
1.13600000 5.485e-4 90.000
1.13700000 5.490e-4 90.000
1.13800000 5.495e-4 90.000
1.13900000 5.500e-4 90.000
1.14000000 5.505e-4 90.000
1.14100000 5.509e-4 90.000
1.14200000 5.514e-4 90.000
1.14300000 5.519e-4 90.000
1.14400000 5.524e-4 90.000
1.14500000 5.529e-4 90.000
1.14600000 5.534e-4 90.000
1.14700000 5.538e-4 90.000
1.14800000 5.543e-4 90.000
1.14900000 5.548e-4 90.000
1.15000000 5.553e-4 90.000
1.15100000 5.558e-4 90.000
1.15200000 5.563e-4 90.000
1.15300000 5.567e-4 90.000
1.15400000 5.572e-4 90.000
1.15500000 5.577e-4 90.000
1.15600000 5.582e-4 90.000
1.15700000 5.587e-4 90.000
1.15800000 5.592e-4 90.000
1.15900000 5.596e-4 90.000
1.16000000 5.601e-4 90.000
1.16100000 5.606e-4 90.000
1.16200000 5.611e-4 90.000
1.16300000 5.616e-4 90.000
1.16400000 5.621e-4 90.000
1.16500000 5.625e-4 90.000
1.16600000 5.630e-4 90.000
1.16700000 5.635e-4 90.000
1.16800000 5.640e-4 90.000
1.16900000 5.645e-4 90.000
1.17000000 5.650e-4 90.000
1.17100000 5.654e-4 90.000
1.17200000 5.659e-4 90.000
1.17300000 5.664e-4 90.000
1.17400000 5.669e-4 90.000
1.17500000 5.674e-4 90.000
1.17600000 5.679e-4 90.000
1.17700000 5.683e-4 90.000
1.17800000 5.688e-4 90.000
1.17900000 5.693e-4 90.000
1.18000000 5.698e-4 90.000
1.18100000 5.703e-4 90.000
1.18200000 5.708e-4 90.000
1.18300000 5.712e-4 90.000
1.18400000 5.717e-4 90.000
1.18500000 5.722e-4 90.000
1.18600000 5.727e-4 90.000
1.18700000 5.732e-4 90.000
1.18800000 5.737e-4 90.000
1.18900000 5.741e-4 90.000
1.19000000 5.746e-4 90.000
1.19100000 5.751e-4 90.000
1.19200000 5.756e-4 90.000
1.19300000 5.761e-4 90.000
1.19400000 5.766e-4 90.000
1.19500000 5.770e-4 90.000
1.19600000 5.775e-4 90.000
1.19700000 5.780e-4 90.000
1.19800000 5.785e-4 90.000
1.19900000 5.790e-4 90.000
1.20000000 5.795e-4 90.000
1.20100000 5.799e-4 90.000
1.20200000 5.804e-4 90.000
1.20300000 5.809e-4 90.000
1.20400000 5.814e-4 90.000
1.20500000 5.819e-4 90.000
1.20600000 5.824e-4 90.000
1.20700000 5.828e-4 90.000
1.20800000 5.833e-4 90.000
1.20900000 5.838e-4 90.000
1.21000000 5.843e-4 90.000
1.21100000 5.848e-4 90.000
1.21200000 5.853e-4 90.000
1.21300000 5.857e-4 90.000
1.21400000 5.862e-4 90.000
1.21500000 5.867e-4 90.000
1.21600000 5.872e-4 90.000
1.21700000 5.877e-4 90.000
1.21800000 5.882e-4 90.000
1.21900000 5.886e-4 90.000
1.22000000 5.891e-4 90.000
1.22100000 5.896e-4 90.000
1.22200000 5.901e-4 90.000
1.22300000 5.906e-4 90.000
1.22400000 5.911e-4 90.000
1.22500000 5.915e-4 90.000
1.22600000 5.920e-4 90.000
1.22700000 5.925e-4 90.000
1.22800000 5.930e-4 90.000
1.22900000 5.935e-4 90.000
1.23000000 5.940e-4 90.000
1.23100000 5.944e-4 90.000
1.23200000 5.949e-4 90.000
1.23300000 5.954e-4 90.000
1.23400000 5.959e-4 90.000
1.23500000 5.964e-4 90.000
1.23600000 5.969e-4 90.000
1.23700000 5.973e-4 90.000
1.23800000 5.978e-4 90.000
1.23900000 5.983e-4 90.000
1.24000000 5.988e-4 90.000
1.24100000 5.993e-4 90.000
1.24200000 5.998e-4 90.000
1.24300000 6.003e-4 90.000
1.24400000 6.007e-4 90.000
1.24500000 6.012e-4 90.000
1.24600000 6.017e-4 90.000
1.24700000 6.022e-4 90.000
1.24800000 6.027e-4 90.000
1.24900000 6.032e-4 90.000
1.25000000 6.036e-4 90.000
1.25100000 6.041e-4 90.000
1.25200000 6.046e-4 90.000
1.25300000 6.051e-4 90.000
1.25400000 6.056e-4 90.000
1.25500000 6.061e-4 90.000
1.25600000 6.065e-4 90.000
1.25700000 6.070e-4 90.000
1.25800000 6.075e-4 90.000
1.25900000 6.080e-4 90.000
1.26000000 6.085e-4 90.000
1.26100000 6.090e-4 90.000
1.26200000 6.094e-4 90.000
1.26300000 6.099e-4 90.000
1.26400000 6.104e-4 90.000
1.26500000 6.109e-4 90.000
1.26600000 6.114e-4 90.000
1.26700000 6.119e-4 90.000
1.26800000 6.123e-4 90.000
1.26900000 6.128e-4 90.000
1.27000000 6.133e-4 90.000
1.27100000 6.138e-4 90.000
1.27200000 6.143e-4 90.000
1.27300000 6.148e-4 90.000
1.27400000 6.152e-4 90.000
1.27500000 6.157e-4 90.000
1.27600000 6.162e-4 90.000
1.27700000 6.167e-4 90.000
1.27800000 6.172e-4 90.000
1.27900000 6.177e-4 90.000
1.28000000 6.181e-4 90.000
1.28100000 6.186e-4 90.000
1.28200000 6.191e-4 90.000
1.28300000 6.196e-4 90.000
1.28400000 6.201e-4 90.000
1.28500000 6.206e-4 90.000
1.28600000 6.210e-4 90.000
1.28700000 6.215e-4 90.000
1.28800000 6.220e-4 90.000
1.28900000 6.225e-4 90.000
1.29000000 6.230e-4 90.000
1.29100000 6.235e-4 90.000
1.29200000 6.239e-4 90.000
1.29300000 6.244e-4 90.000
1.29400000 6.249e-4 90.000
1.29500000 6.254e-4 90.000
1.29600000 6.259e-4 90.000
1.29700000 6.264e-4 90.000
1.29800000 6.268e-4 90.000
1.29900000 6.273e-4 90.000
1.30000000 6.278e-4 90.000
1.30100000 6.283e-4 90.000
1.30200000 6.288e-4 90.000
1.30300000 6.293e-4 90.000
1.30400000 6.298e-4 90.000
1.30500000 6.302e-4 90.000
1.30600000 6.307e-4 90.000
1.30700000 6.312e-4 90.000
1.30800000 6.317e-4 90.000
1.30900000 6.322e-4 90.000
1.31000000 6.327e-4 90.000
1.31100000 6.331e-4 90.000
1.31200000 6.336e-4 90.000
1.31300000 6.341e-4 90.000
1.31400000 6.346e-4 90.000
1.31500000 6.351e-4 90.000
1.31600000 6.356e-4 90.000
1.31700000 6.360e-4 90.000
1.31800000 6.365e-4 90.000
1.31900000 6.370e-4 90.000
1.32000000 6.375e-4 90.000
1.32100000 6.380e-4 90.000
1.32200000 6.385e-4 90.000
1.32300000 6.389e-4 90.000
1.32400000 6.394e-4 90.000
1.32500000 6.399e-4 90.000
1.32600000 6.404e-4 90.000
1.32700000 6.409e-4 90.000
1.32800000 6.414e-4 90.000
1.32900000 6.418e-4 90.000
1.33000000 6.423e-4 90.000
1.33100000 6.428e-4 90.000
1.33200000 6.433e-4 90.000
1.33300000 6.438e-4 90.000
1.33400000 6.443e-4 90.000
1.33500000 6.447e-4 90.000
1.33600000 6.452e-4 90.000
1.33700000 6.457e-4 90.000
1.33800000 6.462e-4 90.000
1.33900000 6.467e-4 90.000
1.34000000 6.472e-4 90.000
1.34100000 6.476e-4 90.000
1.34200000 6.481e-4 90.000
1.34300000 6.486e-4 90.000
1.34400000 6.491e-4 90.000
1.34500000 6.496e-4 90.000
1.34600000 6.501e-4 90.000
1.34700000 6.505e-4 90.000
1.34800000 6.510e-4 90.000
1.34900000 6.515e-4 90.000
1.35000000 6.520e-4 90.000
1.35100000 6.525e-4 90.000
1.35200000 6.530e-4 90.000
1.35300000 6.535e-4 90.000
1.35400000 6.539e-4 90.000
1.35500000 6.544e-4 90.000
1.35600000 6.549e-4 90.000
1.35700000 6.554e-4 90.000
1.35800000 6.559e-4 90.000
1.35900000 6.564e-4 90.000
1.36000000 6.568e-4 90.000
1.36100000 6.573e-4 90.000
1.36200000 6.578e-4 90.000
1.36300000 6.583e-4 90.000
1.36400000 6.588e-4 90.000
1.36500000 6.593e-4 90.000
1.36600000 6.597e-4 90.000
1.36700000 6.602e-4 90.000
1.36800000 6.607e-4 90.000
1.36900000 6.612e-4 90.000
1.37000000 6.617e-4 90.000
1.37100000 6.622e-4 90.000
1.37200000 6.626e-4 90.000
1.37300000 6.631e-4 90.000
1.37400000 6.636e-4 90.000
1.37500000 6.641e-4 90.000
1.37600000 6.646e-4 90.000
1.37700000 6.651e-4 90.000
1.37800000 6.655e-4 90.000
1.37900000 6.660e-4 90.000
1.38000000 6.665e-4 90.000
1.38100000 6.670e-4 90.000
1.38200000 6.675e-4 90.000
1.38300000 6.680e-4 90.000
1.38400000 6.684e-4 90.000
1.38500000 6.689e-4 90.000
1.38600000 6.694e-4 90.000
1.38700000 6.699e-4 90.000
1.38800000 6.704e-4 90.000
1.38900000 6.709e-4 90.000
1.39000000 6.714e-4 90.000
1.39100000 6.718e-4 90.000
1.39200000 6.723e-4 90.000
1.39300000 6.728e-4 90.000
1.39400000 6.733e-4 90.000
1.39500000 6.738e-4 90.000
1.39600000 6.743e-4 90.000
1.39700000 6.747e-4 90.000
1.39800000 6.752e-4 90.000
1.39900000 6.757e-4 90.000
1.40000000 6.762e-4 90.000
1.40100000 6.767e-4 90.000
1.40200000 6.772e-4 90.000
1.40300000 6.776e-4 90.000
1.40400000 6.781e-4 90.000
1.40500000 6.786e-4 90.000
1.40600000 6.791e-4 90.000
1.40700000 6.796e-4 90.000
1.40800000 6.801e-4 90.000
1.40900000 6.805e-4 90.000
1.41000000 6.810e-4 90.000
1.41100000 6.815e-4 90.000
1.41200000 6.820e-4 90.000
1.41300000 6.825e-4 90.000
1.41400000 6.830e-4 90.000
1.41500000 6.834e-4 90.000
1.41600000 6.839e-4 90.000
1.41700000 6.844e-4 90.000
1.41800000 6.849e-4 90.000
1.41900000 6.854e-4 90.000
1.42000000 6.859e-4 90.000
1.42100000 6.863e-4 90.000
1.42200000 6.868e-4 90.000
1.42300000 6.873e-4 90.000
1.42400000 6.878e-4 90.000
1.42500000 6.883e-4 90.000
1.42600000 6.888e-4 90.000
1.42700000 6.893e-4 90.000
1.42800000 6.897e-4 90.000
1.42900000 6.902e-4 90.000
1.43000000 6.907e-4 90.000
1.43100000 6.912e-4 90.000
1.43200000 6.917e-4 90.000
1.43300000 6.922e-4 90.000
1.43400000 6.926e-4 90.000
1.43500000 6.931e-4 90.000
1.43600000 6.936e-4 90.000
1.43700000 6.941e-4 90.000
1.43800000 6.946e-4 90.000
1.43900000 6.951e-4 90.000
1.44000000 6.955e-4 90.000
1.44100000 6.960e-4 90.000
1.44200000 6.965e-4 90.000
1.44300000 6.970e-4 90.000
1.44400000 6.975e-4 90.000
1.44500000 6.980e-4 90.000
1.44600000 6.984e-4 90.000
1.44700000 6.989e-4 90.000
1.44800000 6.994e-4 90.000
1.44900000 6.999e-4 90.000
1.45000000 7.004e-4 90.000
1.45100000 7.009e-4 90.000
1.45200000 7.014e-4 90.000
1.45300000 7.018e-4 90.000
1.45400000 7.023e-4 90.000
1.45500000 7.028e-4 90.000
1.45600000 7.033e-4 90.000
1.45700000 7.038e-4 90.000
1.45800000 7.043e-4 90.000
1.45900000 7.047e-4 90.000
1.46000000 7.052e-4 90.000
1.46100000 7.057e-4 90.000
1.46200000 7.062e-4 90.000
1.46300000 7.067e-4 90.000
1.46400000 7.072e-4 90.000
1.46500000 7.076e-4 90.000
1.46600000 7.081e-4 90.000
1.46700000 7.086e-4 90.000
1.46800000 7.091e-4 90.000
1.46900000 7.096e-4 90.000
1.47000000 7.101e-4 90.000
1.47100000 7.105e-4 90.000
1.47200000 7.110e-4 90.000
1.47300000 7.115e-4 90.000
1.47400000 7.120e-4 90.000
1.47500000 7.125e-4 90.000
1.47600000 7.130e-4 90.000
1.47700000 7.134e-4 90.000
1.47800000 7.139e-4 90.000
1.47900000 7.144e-4 90.000
1.48000000 7.149e-4 90.000
1.48100000 7.154e-4 90.000
1.48200000 7.159e-4 90.000
1.48300000 7.164e-4 90.000
1.48400000 7.168e-4 90.000
1.48500000 7.173e-4 90.000
1.48600000 7.178e-4 90.000
1.48700000 7.183e-4 90.000
1.48800000 7.188e-4 90.000
1.48900000 7.193e-4 90.000
1.49000000 7.197e-4 90.000
1.49100000 7.202e-4 90.000
1.49200000 7.207e-4 90.000
1.49300000 7.212e-4 90.000
1.49400000 7.217e-4 90.000
1.49500000 7.222e-4 90.000
1.49600000 7.226e-4 90.000
1.49700000 7.231e-4 90.000
1.49800000 7.236e-4 90.000
1.49900000 7.241e-4 90.000
1.50000000 7.246e-4 90.000
1.50100000 7.251e-4 90.000
1.50200000 7.255e-4 90.000
1.50300000 7.260e-4 90.000
1.50400000 7.265e-4 90.000
1.50500000 7.270e-4 90.000
1.50600000 7.275e-4 90.000
1.50700000 7.280e-4 90.000
1.50800000 7.285e-4 90.000
1.50900000 7.289e-4 90.000
1.51000000 7.294e-4 90.000
1.51100000 7.299e-4 90.000
1.51200000 7.304e-4 90.000
1.51300000 7.309e-4 90.000
1.51400000 7.314e-4 90.000
1.51500000 7.318e-4 90.000
1.51600000 7.323e-4 90.000
1.51700000 7.328e-4 90.000
1.51800000 7.333e-4 90.000
1.51900000 7.338e-4 90.000
1.52000000 7.343e-4 90.000
1.52100000 7.347e-4 90.000
1.52200000 7.352e-4 90.000
1.52300000 7.357e-4 90.000
1.52400000 7.362e-4 90.000
1.52500000 7.367e-4 90.000
1.52600000 7.372e-4 90.000
1.52700000 7.376e-4 90.000
1.52800000 7.381e-4 90.000
1.52900000 7.386e-4 90.000
1.53000000 7.391e-4 90.000
1.53100000 7.396e-4 90.000
1.53200000 7.401e-4 90.000
1.53300000 7.406e-4 90.000
1.53400000 7.410e-4 90.000
1.53500000 7.415e-4 90.000
1.53600000 7.420e-4 90.000
1.53700000 7.425e-4 90.000
1.53800000 7.430e-4 90.000
1.53900000 7.435e-4 90.000
1.54000000 7.439e-4 90.000
1.54100000 7.444e-4 90.000
1.54200000 7.449e-4 90.000
1.54300000 7.454e-4 90.000
1.54400000 7.459e-4 90.000
1.54500000 7.464e-4 90.000
1.54600000 7.468e-4 90.000
1.54700000 7.473e-4 90.000
1.54800000 7.478e-4 90.000
1.54900000 7.483e-4 90.000
1.55000000 7.488e-4 90.000
1.55100000 7.493e-4 90.000
1.55200000 7.498e-4 90.000
1.55300000 7.502e-4 90.000
1.55400000 7.507e-4 90.000
1.55500000 7.512e-4 90.000
1.55600000 7.517e-4 90.000
1.55700000 7.522e-4 90.000
1.55800000 7.527e-4 90.000
1.55900000 7.531e-4 90.000
1.56000000 7.536e-4 90.000
1.56100000 7.541e-4 90.000
1.56200000 7.546e-4 90.000
1.56300000 7.551e-4 90.000
1.56400000 7.556e-4 90.000
1.56500000 7.560e-4 90.000
1.56600000 7.565e-4 90.000
1.56700000 7.570e-4 90.000
1.56800000 7.575e-4 90.000
1.56900000 7.580e-4 90.000
1.57000000 7.585e-4 90.000
1.57100000 7.590e-4 90.000
1.57200000 7.594e-4 90.000
1.57300000 7.599e-4 90.000
1.57400000 7.604e-4 90.000
1.57500000 7.609e-4 90.000
1.57600000 7.614e-4 90.000
1.57700000 7.619e-4 90.000
1.57800000 7.623e-4 90.000
1.57900000 7.628e-4 90.000
1.58000000 7.633e-4 90.000
1.58100000 7.638e-4 90.000
1.58200000 7.643e-4 90.000
1.58300000 7.648e-4 90.000
1.58400000 7.652e-4 90.000
1.58500000 7.657e-4 90.000
1.58600000 7.662e-4 90.000
1.58700000 7.667e-4 90.000
1.58800000 7.672e-4 90.000
1.58900000 7.677e-4 90.000
1.59000000 7.681e-4 90.000
1.59100000 7.686e-4 90.000
1.59200000 7.691e-4 90.000
1.59300000 7.696e-4 90.000
1.59400000 7.701e-4 90.000
1.59500000 7.706e-4 90.000
1.59600000 7.711e-4 90.000
1.59700000 7.715e-4 90.000
1.59800000 7.720e-4 90.000
1.59900000 7.725e-4 90.000
1.60000000 7.730e-4 90.000
1.60100000 7.735e-4 90.000
1.60200000 7.740e-4 90.000
1.60300000 7.744e-4 90.000
1.60400000 7.749e-4 90.000
1.60500000 7.754e-4 90.000
1.60600000 7.759e-4 90.000
1.60700000 7.764e-4 90.000
1.60800000 7.769e-4 90.000
1.60900000 7.773e-4 90.000
1.61000000 7.778e-4 90.000
1.61100000 7.783e-4 90.000
1.61200000 7.788e-4 90.000
1.61300000 7.793e-4 90.000
1.61400000 7.798e-4 90.000
1.61500000 7.803e-4 90.000
1.61600000 7.807e-4 90.000
1.61700000 7.812e-4 90.000
1.61800000 7.817e-4 90.000
1.61900000 7.822e-4 90.000
1.62000000 7.827e-4 90.000
1.62100000 7.832e-4 90.000
1.62200000 7.836e-4 90.000
1.62300000 7.841e-4 90.000
1.62400000 7.846e-4 90.000
1.62500000 7.851e-4 90.000
1.62600000 7.856e-4 90.000
1.62700000 7.861e-4 90.000
1.62800000 7.866e-4 90.000
1.62900000 7.870e-4 90.000
1.63000000 7.875e-4 90.000
1.63100000 7.880e-4 90.000
1.63200000 7.885e-4 90.000
1.63300000 7.890e-4 90.000
1.63400000 7.895e-4 90.000
1.63500000 7.899e-4 90.000
1.63600000 7.904e-4 90.000
1.63700000 7.909e-4 90.000
1.63800000 7.914e-4 90.000
1.63900000 7.919e-4 90.000
1.64000000 7.924e-4 90.000
1.64100000 7.928e-4 90.000
1.64200000 7.933e-4 90.000
1.64300000 7.938e-4 90.000
1.64400000 7.943e-4 90.000
1.64500000 7.948e-4 90.000
1.64600000 7.953e-4 90.000
1.64700000 7.958e-4 90.000
1.64800000 7.962e-4 90.000
1.64900000 7.967e-4 90.000
1.65000000 7.972e-4 90.000
1.65100000 7.977e-4 90.000
1.65200000 7.982e-4 90.000
1.65300000 7.987e-4 90.000
1.65400000 7.991e-4 90.000
1.65500000 7.996e-4 90.000
1.65600000 8.001e-4 90.000
1.65700000 8.006e-4 90.000
1.65800000 8.011e-4 90.000
1.65900000 8.016e-4 90.000
1.66000000 8.020e-4 90.000
1.66100000 8.025e-4 90.000
1.66200000 8.030e-4 90.000
1.66300000 8.035e-4 90.000
1.66400000 8.040e-4 90.000
1.66500000 8.045e-4 90.000
1.66600000 8.050e-4 90.000
1.66700000 8.054e-4 90.000
1.66800000 8.059e-4 90.000
1.66900000 8.064e-4 90.000
1.67000000 8.069e-4 90.000
1.67100000 8.074e-4 90.000
1.67200000 8.079e-4 90.000
1.67300000 8.083e-4 90.000
1.67400000 8.088e-4 90.000
1.67500000 8.093e-4 90.000
1.67600000 8.098e-4 90.000
1.67700000 8.103e-4 90.000
1.67800000 8.108e-4 90.000
1.67900000 8.113e-4 90.000
1.68000000 8.117e-4 90.000
1.68100000 8.122e-4 90.000
1.68200000 8.127e-4 90.000
1.68300000 8.132e-4 90.000
1.68400000 8.137e-4 90.000
1.68500000 8.142e-4 90.000
1.68600000 8.146e-4 90.000
1.68700000 8.151e-4 90.000
1.68800000 8.156e-4 90.000
1.68900000 8.161e-4 90.000
1.69000000 8.166e-4 90.000
1.69100000 8.171e-4 90.000
1.69200000 8.175e-4 90.000
1.69300000 8.180e-4 90.000
1.69400000 8.185e-4 90.000
1.69500000 8.190e-4 90.000
1.69600000 8.195e-4 90.000
1.69700000 8.200e-4 90.000
1.69800000 8.205e-4 90.000
1.69900000 8.209e-4 90.000
1.70000000 8.214e-4 90.000
1.70100000 8.219e-4 90.000
1.70200000 8.224e-4 90.000
1.70300000 8.229e-4 90.000
1.70400000 8.234e-4 90.000
1.70500000 8.238e-4 90.000
1.70600000 8.243e-4 90.000
1.70700000 8.248e-4 90.000
1.70800000 8.253e-4 90.000
1.70900000 8.258e-4 90.000
1.71000000 8.263e-4 90.000
1.71100000 8.268e-4 90.000
1.71200000 8.272e-4 90.000
1.71300000 8.277e-4 90.000
1.71400000 8.282e-4 90.000
1.71500000 8.287e-4 90.000
1.71600000 8.292e-4 90.000
1.71700000 8.297e-4 90.000
1.71800000 8.301e-4 90.000
1.71900000 8.306e-4 90.000
1.72000000 8.311e-4 90.000
1.72100000 8.316e-4 90.000
1.72200000 8.321e-4 90.000
1.72300000 8.326e-4 90.000
1.72400000 8.331e-4 90.000
1.72500000 8.335e-4 90.000
1.72600000 8.340e-4 90.000
1.72700000 8.345e-4 90.000
1.72800000 8.350e-4 90.000
