! Sonnet Data File
! From: em Version : 14.52
! From Project: Cc1
! Data is De-embedded 
! Data File Written: 01/03/2019 10:55:22
!< HDATE 01/03/2019 10:15:52
!< MDATE 01/03/2019 10:24:13
# GHZ Y MA R 1.0
0.00100000 5.128e-7 90.006 1.413e-8 -90.05 1.414e-8 -90.01 3.280e-7 90.024
!< P1 F=0.001 Eeff=(undefined: sl) Z0=(undefined: sl) R=0.0 C=0.0 
!< P2 F=0.001 Eeff=(undefined: sl) Z0=(undefined: sl) R=0.0 C=0.0 
0.01000000 5.128e-6 90.001 1.415e-7 -90.00 1.415e-7 -90.00 3.279e-6 90.002
0.02000000 1.026e-5 90.000 2.829e-7 -90.00 2.829e-7 -90.00 6.559e-6 90.001
0.03000000 1.538e-5 90.000 4.244e-7 -90.00 4.244e-7 -90.00 9.838e-6 90.001
0.04000000 2.051e-5 90.000 5.659e-7 -90.00 5.659e-7 -90.00 1.312e-5 90.000
0.05000000 2.564e-5 90.000 7.074e-7 -90.00 7.074e-7 -90.00 1.640e-5 90.000
0.06000000 3.077e-5 90.000 8.489e-7 -90.00 8.489e-7 -90.00 1.968e-5 90.000
0.07000000 3.590e-5 90.000 9.904e-7 -90.00 9.904e-7 -90.00 2.296e-5 90.000
0.08000000 4.102e-5 90.000 1.132e-6 -90.00 1.132e-6 -90.00 2.623e-5 90.000
0.09000000 4.615e-5 90.000 1.273e-6 -90.00 1.273e-6 -90.00 2.951e-5 90.000
0.10000000 5.128e-5 90.000 1.415e-6 -90.00 1.415e-6 -90.00 3.279e-5 90.000
0.11000000 5.641e-5 90.000 1.556e-6 -90.00 1.556e-6 -90.00 3.607e-5 90.000
0.12000000 6.154e-5 90.000 1.698e-6 -90.00 1.698e-6 -90.00 3.935e-5 90.000
0.13000000 6.666e-5 90.000 1.839e-6 -90.00 1.839e-6 -90.00 4.263e-5 90.000
0.14000000 7.179e-5 90.000 1.981e-6 -90.00 1.981e-6 -90.00 4.591e-5 90.000
0.15000000 7.692e-5 90.000 2.122e-6 -90.00 2.122e-6 -90.00 4.919e-5 90.000
0.16000000 8.205e-5 90.000 2.264e-6 -90.00 2.264e-6 -90.00 5.247e-5 90.000
0.17000000 8.718e-5 90.000 2.405e-6 -90.00 2.405e-6 -90.00 5.575e-5 90.000
0.18000000 9.230e-5 90.000 2.547e-6 -90.00 2.547e-6 -90.00 5.903e-5 90.000
0.19000000 9.743e-5 90.000 2.688e-6 -90.00 2.688e-6 -90.00 6.231e-5 90.000
0.20000000 1.026e-4 90.000 2.830e-6 -90.00 2.830e-6 -90.00 6.559e-5 90.000
0.21000000 1.077e-4 90.000 2.971e-6 -90.00 2.971e-6 -90.00 6.887e-5 90.000
0.22000000 1.128e-4 90.000 3.113e-6 -90.00 3.113e-6 -90.00 7.215e-5 90.000
0.23000000 1.179e-4 90.000 3.254e-6 -90.00 3.254e-6 -90.00 7.542e-5 90.000
0.24000000 1.231e-4 90.000 3.396e-6 -90.00 3.396e-6 -90.00 7.870e-5 90.000
0.25000000 1.282e-4 90.000 3.537e-6 -90.00 3.537e-6 -90.00 8.198e-5 90.000
0.26000000 1.333e-4 90.000 3.679e-6 -90.00 3.679e-6 -90.00 8.526e-5 90.000
0.27000000 1.385e-4 90.000 3.820e-6 -90.00 3.820e-6 -90.00 8.854e-5 90.000
0.28000000 1.436e-4 90.000 3.962e-6 -90.00 3.962e-6 -90.00 9.182e-5 90.000
0.29000000 1.487e-4 90.000 4.103e-6 -90.00 4.103e-6 -90.00 9.510e-5 90.000
0.30000000 1.538e-4 90.000 4.245e-6 -90.00 4.245e-6 -90.00 9.838e-5 90.000
0.31000000 1.590e-4 90.000 4.386e-6 -90.00 4.386e-6 -90.00 1.017e-4 90.000
0.32000000 1.641e-4 90.000 4.528e-6 -90.00 4.528e-6 -90.00 1.049e-4 90.000
0.33000000 1.692e-4 90.000 4.669e-6 -90.00 4.669e-6 -90.00 1.082e-4 90.000
0.34000000 1.744e-4 90.000 4.811e-6 -90.00 4.811e-6 -90.00 1.115e-4 90.000
0.35000000 1.795e-4 90.000 4.952e-6 -90.00 4.952e-6 -90.00 1.148e-4 90.000
0.36000000 1.846e-4 90.000 5.094e-6 -90.00 5.094e-6 -90.00 1.181e-4 90.000
0.37000000 1.897e-4 90.000 5.235e-6 -90.00 5.235e-6 -90.00 1.213e-4 90.000
0.38000000 1.949e-4 90.000 5.377e-6 -90.00 5.377e-6 -90.00 1.246e-4 90.000
0.39000000 2.000e-4 90.000 5.518e-6 -90.00 5.518e-6 -90.00 1.279e-4 90.000
0.40000000 2.051e-4 90.000 5.660e-6 -90.00 5.660e-6 -90.00 1.312e-4 90.000
0.41000000 2.103e-4 90.000 5.801e-6 -90.00 5.801e-6 -90.00 1.345e-4 90.000
0.42000000 2.154e-4 90.000 5.943e-6 -90.00 5.943e-6 -90.00 1.377e-4 90.000
0.43000000 2.205e-4 90.000 6.084e-6 -90.00 6.084e-6 -90.00 1.410e-4 90.000
0.44000000 2.256e-4 90.000 6.226e-6 -90.00 6.226e-6 -90.00 1.443e-4 90.000
0.45000000 2.308e-4 90.000 6.367e-6 -90.00 6.367e-6 -90.00 1.476e-4 90.000
0.46000000 2.359e-4 90.000 6.509e-6 -90.00 6.509e-6 -90.00 1.509e-4 90.000
0.47000000 2.410e-4 90.000 6.650e-6 -90.00 6.650e-6 -90.00 1.541e-4 90.000
0.48000000 2.462e-4 90.000 6.792e-6 -90.00 6.792e-6 -90.00 1.574e-4 90.000
0.49000000 2.513e-4 90.000 6.933e-6 -90.00 6.933e-6 -90.00 1.607e-4 90.000
0.50000000 2.564e-4 90.000 7.075e-6 -90.00 7.075e-6 -90.00 1.640e-4 90.000
0.51000000 2.615e-4 90.000 7.216e-6 -90.00 7.216e-6 -90.00 1.672e-4 90.000
0.52000000 2.667e-4 90.000 7.358e-6 -90.00 7.358e-6 -90.00 1.705e-4 90.000
0.53000000 2.718e-4 90.000 7.499e-6 -90.00 7.499e-6 -90.00 1.738e-4 90.000
0.54000000 2.769e-4 90.000 7.641e-6 -90.00 7.641e-6 -90.00 1.771e-4 90.000
0.55000000 2.821e-4 90.000 7.782e-6 -90.00 7.782e-6 -90.00 1.804e-4 90.000
0.56000000 2.872e-4 90.000 7.924e-6 -90.00 7.924e-6 -90.00 1.836e-4 90.000
0.57000000 2.923e-4 90.000 8.066e-6 -90.00 8.066e-6 -90.00 1.869e-4 90.000
0.58000000 2.974e-4 90.000 8.207e-6 -90.00 8.207e-6 -90.00 1.902e-4 90.000
0.59000000 3.026e-4 90.000 8.349e-6 -90.00 8.349e-6 -90.00 1.935e-4 90.000
0.60000000 3.077e-4 90.000 8.490e-6 -90.00 8.490e-6 -90.00 1.968e-4 90.000
0.61000000 3.128e-4 90.000 8.632e-6 -90.00 8.632e-6 -90.00 2.000e-4 90.000
0.62000000 3.180e-4 90.000 8.773e-6 -90.00 8.773e-6 -90.00 2.033e-4 90.000
0.63000000 3.231e-4 90.000 8.915e-6 -90.00 8.915e-6 -90.00 2.066e-4 90.000
0.64000000 3.282e-4 90.000 9.056e-6 -90.00 9.056e-6 -90.00 2.099e-4 90.000
0.65000000 3.334e-4 90.000 9.198e-6 -90.00 9.198e-6 -90.00 2.132e-4 90.000
0.66000000 3.385e-4 90.000 9.340e-6 -90.00 9.340e-6 -90.00 2.164e-4 90.000
0.67000000 3.436e-4 90.000 9.481e-6 -90.00 9.481e-6 -90.00 2.197e-4 90.000
0.68000000 3.487e-4 90.000 9.623e-6 -90.00 9.623e-6 -90.00 2.230e-4 90.000
0.69000000 3.539e-4 90.000 9.764e-6 -90.00 9.764e-6 -90.00 2.263e-4 90.000
0.70000000 3.590e-4 90.000 9.906e-6 -90.00 9.906e-6 -90.00 2.296e-4 90.000
0.71000000 3.641e-4 90.000 1.005e-5 -90.00 1.005e-5 -90.00 2.328e-4 90.000
0.72000000 3.693e-4 90.000 1.019e-5 -90.00 1.019e-5 -90.00 2.361e-4 90.000
0.73000000 3.744e-4 90.000 1.033e-5 -90.00 1.033e-5 -90.00 2.394e-4 90.000
0.74000000 3.795e-4 90.000 1.047e-5 -90.00 1.047e-5 -90.00 2.427e-4 90.000
0.75000000 3.847e-4 90.000 1.061e-5 -90.00 1.061e-5 -90.00 2.460e-4 90.000
0.76000000 3.898e-4 90.000 1.076e-5 -90.00 1.076e-5 -90.00 2.492e-4 90.000
0.77000000 3.949e-4 90.000 1.090e-5 -90.00 1.090e-5 -90.00 2.525e-4 90.000
0.78000000 4.000e-4 90.000 1.104e-5 -90.00 1.104e-5 -90.00 2.558e-4 90.000
0.79000000 4.052e-4 90.000 1.118e-5 -90.00 1.118e-5 -90.00 2.591e-4 90.000
0.80000000 4.103e-4 90.000 1.132e-5 -90.00 1.132e-5 -90.00 2.624e-4 90.000
0.81000000 4.154e-4 90.000 1.146e-5 -90.00 1.146e-5 -90.00 2.656e-4 90.000
0.82000000 4.206e-4 90.000 1.160e-5 -90.00 1.160e-5 -90.00 2.689e-4 90.000
0.83000000 4.257e-4 90.000 1.175e-5 -90.00 1.175e-5 -90.00 2.722e-4 90.000
0.84000000 4.308e-4 90.000 1.189e-5 -90.00 1.189e-5 -90.00 2.755e-4 90.000
0.85000000 4.360e-4 90.000 1.203e-5 -90.00 1.203e-5 -90.00 2.788e-4 90.000
0.86000000 4.411e-4 90.000 1.217e-5 -90.00 1.217e-5 -90.00 2.820e-4 90.000
0.87000000 4.462e-4 90.000 1.231e-5 -90.00 1.231e-5 -90.00 2.853e-4 90.000
0.88000000 4.513e-4 90.000 1.245e-5 -90.00 1.245e-5 -90.00 2.886e-4 90.000
0.89000000 4.565e-4 90.000 1.260e-5 -90.00 1.260e-5 -90.00 2.919e-4 90.000
0.90000000 4.616e-4 90.000 1.274e-5 -90.00 1.274e-5 -90.00 2.952e-4 90.000
0.91000000 4.667e-4 90.000 1.288e-5 -90.00 1.288e-5 -90.00 2.984e-4 90.000
0.92000000 4.719e-4 90.000 1.302e-5 -90.00 1.302e-5 -90.00 3.017e-4 90.000
0.93000000 4.770e-4 90.000 1.316e-5 -90.00 1.316e-5 -90.00 3.050e-4 90.000
0.94000000 4.821e-4 90.000 1.330e-5 -90.00 1.330e-5 -90.00 3.083e-4 90.000
0.95000000 4.873e-4 90.000 1.345e-5 -90.00 1.345e-5 -90.00 3.116e-4 90.000
0.96000000 4.924e-4 90.000 1.359e-5 -90.00 1.359e-5 -90.00 3.148e-4 90.000
0.97000000 4.975e-4 90.000 1.373e-5 -90.00 1.373e-5 -90.00 3.181e-4 90.000
0.98000000 5.027e-4 90.000 1.387e-5 -90.00 1.387e-5 -90.00 3.214e-4 90.000
0.99000000 5.078e-4 90.000 1.401e-5 -90.00 1.401e-5 -90.00 3.247e-4 90.000
1.00000000 5.129e-4 90.000 1.415e-5 -90.00 1.415e-5 -90.00 3.280e-4 90.000
!< P1 F=1.0 Eeff=(6.02062028 -5.4061e-6) Z0=(155.249109 6.98334e-5) R=0.0498784 C=0.00299436 
!< P2 F=1.0 Eeff=(5.67094892 -5.1792e-6) Z0=(53.154485 2.42391e-5) R=0.14713491 C=9.76209e-4 
1.01000000 5.181e-4 90.000 1.430e-5 -90.00 1.430e-5 -90.00 3.312e-4 90.000
1.02000000 5.232e-4 90.000 1.444e-5 -90.00 1.444e-5 -90.00 3.345e-4 90.000
1.03000000 5.283e-4 90.000 1.458e-5 -90.00 1.458e-5 -90.00 3.378e-4 90.000
1.04000000 5.335e-4 90.000 1.472e-5 -90.00 1.472e-5 -90.00 3.411e-4 90.000
1.05000000 5.386e-4 90.000 1.486e-5 -90.00 1.486e-5 -90.00 3.444e-4 90.000
1.06000000 5.437e-4 90.000 1.500e-5 -90.00 1.500e-5 -90.00 3.476e-4 90.000
1.07000000 5.489e-4 90.000 1.515e-5 -90.00 1.515e-5 -90.00 3.509e-4 90.000
1.08000000 5.540e-4 90.000 1.529e-5 -90.00 1.529e-5 -90.00 3.542e-4 90.000
1.09000000 5.591e-4 90.000 1.543e-5 -90.00 1.543e-5 -90.00 3.575e-4 90.000
1.10000000 5.643e-4 90.000 1.557e-5 -90.00 1.557e-5 -90.00 3.608e-4 90.000
1.11000000 5.694e-4 90.000 1.571e-5 -90.00 1.571e-5 -90.00 3.640e-4 90.000
1.12000000 5.745e-4 90.000 1.585e-5 -90.00 1.585e-5 -90.00 3.673e-4 90.000
1.13000000 5.796e-4 90.000 1.600e-5 -90.00 1.600e-5 -90.00 3.706e-4 90.000
1.14000000 5.848e-4 90.000 1.614e-5 -90.00 1.614e-5 -90.00 3.739e-4 90.000
1.15000000 5.899e-4 90.000 1.628e-5 -90.00 1.628e-5 -90.00 3.772e-4 90.000
1.16000000 5.950e-4 90.000 1.642e-5 -90.00 1.642e-5 -90.00 3.804e-4 90.000
1.17000000 6.002e-4 90.000 1.656e-5 -90.00 1.656e-5 -90.00 3.837e-4 90.000
1.18000000 6.053e-4 90.000 1.671e-5 -90.00 1.671e-5 -90.00 3.870e-4 90.000
1.19000000 6.104e-4 90.000 1.685e-5 -90.00 1.685e-5 -90.00 3.903e-4 90.000
1.20000000 6.156e-4 90.000 1.699e-5 -90.00 1.699e-5 -90.00 3.936e-4 90.000
1.21000000 6.207e-4 90.000 1.713e-5 -90.00 1.713e-5 -90.00 3.968e-4 90.000
1.22000000 6.259e-4 90.000 1.727e-5 -90.00 1.727e-5 -90.00 4.001e-4 90.000
1.23000000 6.310e-4 90.000 1.741e-5 -90.00 1.741e-5 -90.00 4.034e-4 90.000
1.24000000 6.361e-4 90.000 1.756e-5 -90.00 1.756e-5 -90.00 4.067e-4 90.000
1.25000000 6.413e-4 90.000 1.770e-5 -90.00 1.770e-5 -90.00 4.100e-4 90.000
1.26000000 6.464e-4 90.000 1.784e-5 -90.00 1.784e-5 -90.00 4.133e-4 90.000
1.27000000 6.515e-4 90.000 1.798e-5 -90.00 1.798e-5 -90.00 4.165e-4 90.000
1.28000000 6.567e-4 90.000 1.812e-5 -90.00 1.812e-5 -90.00 4.198e-4 90.000
1.29000000 6.618e-4 90.000 1.826e-5 -90.00 1.826e-5 -90.00 4.231e-4 90.000
1.30000000 6.669e-4 90.000 1.841e-5 -90.00 1.841e-5 -90.00 4.264e-4 90.000
1.31000000 6.721e-4 90.000 1.855e-5 -90.00 1.855e-5 -90.00 4.297e-4 90.000
1.32000000 6.772e-4 90.000 1.869e-5 -90.00 1.869e-5 -90.00 4.329e-4 90.000
1.33000000 6.823e-4 90.000 1.883e-5 -90.00 1.883e-5 -90.00 4.362e-4 90.000
1.34000000 6.875e-4 90.000 1.897e-5 -90.00 1.897e-5 -90.00 4.395e-4 90.000
1.35000000 6.926e-4 90.000 1.912e-5 -90.00 1.912e-5 -90.00 4.428e-4 90.000
1.36000000 6.977e-4 90.000 1.926e-5 -90.00 1.926e-5 -90.00 4.461e-4 90.000
1.37000000 7.029e-4 90.000 1.940e-5 -90.00 1.940e-5 -90.00 4.493e-4 90.000
1.38000000 7.080e-4 90.000 1.954e-5 -90.00 1.954e-5 -90.00 4.526e-4 90.000
1.39000000 7.131e-4 90.000 1.968e-5 -90.00 1.968e-5 -90.00 4.559e-4 90.000
1.40000000 7.183e-4 90.000 1.982e-5 -90.00 1.982e-5 -90.00 4.592e-4 90.000
1.41000000 7.234e-4 90.000 1.997e-5 -90.00 1.997e-5 -90.00 4.625e-4 90.000
1.42000000 7.286e-4 90.000 2.011e-5 -90.00 2.011e-5 -90.00 4.657e-4 90.000
1.43000000 7.337e-4 90.000 2.025e-5 -90.00 2.025e-5 -90.00 4.690e-4 90.000
1.44000000 7.388e-4 90.000 2.039e-5 -90.00 2.039e-5 -90.00 4.723e-4 90.000
1.45000000 7.440e-4 90.000 2.053e-5 -90.00 2.053e-5 -90.00 4.756e-4 90.000
1.46000000 7.491e-4 90.000 2.068e-5 -90.00 2.068e-5 -90.00 4.789e-4 90.000
1.47000000 7.542e-4 90.000 2.082e-5 -90.00 2.082e-5 -90.00 4.822e-4 90.000
1.48000000 7.594e-4 90.000 2.096e-5 -90.00 2.096e-5 -90.00 4.854e-4 90.000
1.49000000 7.645e-4 90.000 2.110e-5 -90.00 2.110e-5 -90.00 4.887e-4 90.000
1.50000000 7.696e-4 90.000 2.124e-5 -90.00 2.124e-5 -90.00 4.920e-4 90.000
1.51000000 7.748e-4 90.000 2.139e-5 -90.00 2.139e-5 -90.00 4.953e-4 90.000
1.52000000 7.799e-4 90.000 2.153e-5 -90.00 2.153e-5 -90.00 4.986e-4 90.000
1.53000000 7.851e-4 90.000 2.167e-5 -90.00 2.167e-5 -90.00 5.018e-4 90.000
1.54000000 7.902e-4 90.000 2.181e-5 -90.00 2.181e-5 -90.00 5.051e-4 90.000
1.55000000 7.953e-4 90.000 2.195e-5 -90.00 2.195e-5 -90.00 5.084e-4 90.000
1.56000000 8.005e-4 90.000 2.210e-5 -90.00 2.210e-5 -90.00 5.117e-4 90.000
1.57000000 8.056e-4 90.000 2.224e-5 -90.00 2.224e-5 -90.00 5.150e-4 90.000
1.58000000 8.107e-4 90.000 2.238e-5 -90.00 2.238e-5 -90.00 5.182e-4 90.000
!< P1 F=1.58 Eeff=(6.02070548 -5.4257e-6) Z0=(155.250564 6.97553e-5) R=0.03179024 C=0.0029944 
!< P2 F=1.58 Eeff=(5.67102783 -5.1698e-6) Z0=(53.154852 2.42391e-5) R=0.09256615 C=9.76209e-4 
1.59000000 8.159e-4 90.000 2.252e-5 -90.00 2.252e-5 -90.00 5.215e-4 90.000
1.60000000 8.210e-4 90.000 2.266e-5 -90.00 2.266e-5 -90.00 5.248e-4 90.000
1.61000000 8.262e-4 90.000 2.280e-5 -90.00 2.280e-5 -90.00 5.281e-4 90.000
1.62000000 8.313e-4 90.000 2.295e-5 -90.00 2.295e-5 -90.00 5.314e-4 90.000
1.63000000 8.364e-4 90.000 2.309e-5 -90.00 2.309e-5 -90.00 5.347e-4 90.000
1.64000000 8.416e-4 90.000 2.323e-5 -90.00 2.323e-5 -90.00 5.379e-4 90.000
1.65000000 8.467e-4 90.000 2.337e-5 -90.00 2.337e-5 -90.00 5.412e-4 90.000
1.66000000 8.519e-4 90.000 2.351e-5 -90.00 2.351e-5 -90.00 5.445e-4 90.000
1.67000000 8.570e-4 90.000 2.366e-5 -90.00 2.366e-5 -90.00 5.478e-4 90.000
1.68000000 8.621e-4 90.000 2.380e-5 -90.00 2.380e-5 -90.00 5.511e-4 90.000
1.69000000 8.673e-4 90.000 2.394e-5 -90.00 2.394e-5 -90.00 5.543e-4 90.000
1.70000000 8.724e-4 90.000 2.408e-5 -90.00 2.408e-5 -90.00 5.576e-4 90.000
1.71000000 8.775e-4 90.000 2.422e-5 -90.00 2.422e-5 -90.00 5.609e-4 90.000
1.72000000 8.827e-4 90.000 2.437e-5 -90.00 2.437e-5 -90.00 5.642e-4 90.000
1.73000000 8.878e-4 90.000 2.451e-5 -90.00 2.451e-5 -90.00 5.675e-4 90.000
1.74000000 8.930e-4 90.000 2.465e-5 -90.00 2.465e-5 -90.00 5.708e-4 90.000
1.75000000 8.981e-4 90.000 2.479e-5 -90.00 2.479e-5 -90.00 5.740e-4 90.000
1.76000000 9.032e-4 90.000 2.494e-5 -90.00 2.494e-5 -90.00 5.773e-4 90.000
1.77000000 9.084e-4 90.000 2.508e-5 -90.00 2.508e-5 -90.00 5.806e-4 90.000
1.78000000 9.135e-4 90.000 2.522e-5 -90.00 2.522e-5 -90.00 5.839e-4 90.000
1.79000000 9.187e-4 90.000 2.536e-5 -90.00 2.536e-5 -90.00 5.872e-4 90.000
1.80000000 9.238e-4 90.000 2.550e-5 -90.00 2.550e-5 -90.00 5.905e-4 90.000
1.81000000 9.290e-4 90.000 2.565e-5 -90.00 2.565e-5 -90.00 5.937e-4 90.000
1.82000000 9.341e-4 90.000 2.579e-5 -90.00 2.579e-5 -90.00 5.970e-4 90.000
1.83000000 9.392e-4 90.000 2.593e-5 -90.00 2.593e-5 -90.00 6.003e-4 90.000
1.84000000 9.444e-4 90.000 2.607e-5 -90.00 2.607e-5 -90.00 6.036e-4 90.000
1.85000000 9.495e-4 90.000 2.621e-5 -90.00 2.621e-5 -90.00 6.069e-4 90.000
1.86000000 9.547e-4 90.000 2.636e-5 -90.00 2.636e-5 -90.00 6.101e-4 90.000
1.87000000 9.598e-4 90.000 2.650e-5 -90.00 2.650e-5 -90.00 6.134e-4 90.000
1.88000000 9.649e-4 90.000 2.664e-5 -90.00 2.664e-5 -90.00 6.167e-4 90.000
1.89000000 9.701e-4 90.000 2.678e-5 -90.00 2.678e-5 -90.00 6.200e-4 90.000
1.90000000 9.752e-4 90.000 2.692e-5 -90.00 2.692e-5 -90.00 6.233e-4 90.000
1.91000000 9.804e-4 90.000 2.707e-5 -90.00 2.707e-5 -90.00 6.266e-4 90.000
1.92000000 9.855e-4 90.000 2.721e-5 -90.00 2.721e-5 -90.00 6.298e-4 90.000
1.93000000 9.907e-4 90.000 2.735e-5 -90.00 2.735e-5 -90.00 6.331e-4 90.000
1.94000000 9.958e-4 90.000 2.749e-5 -90.00 2.749e-5 -90.00 6.364e-4 90.000
1.95000000 0.001001 90.000 2.764e-5 -90.00 2.764e-5 -90.00 6.397e-4 90.000
1.96000000 0.001006 90.000 2.778e-5 -90.00 2.778e-5 -90.00 6.430e-4 90.000
1.97000000 0.001011 90.000 2.792e-5 -90.00 2.792e-5 -90.00 6.463e-4 90.000
1.98000000 0.001016 90.000 2.806e-5 -90.00 2.806e-5 -90.00 6.495e-4 90.000
1.99000000 0.001022 90.000 2.820e-5 -90.00 2.820e-5 -90.00 6.528e-4 90.000
2.00000000 0.001027 90.000 2.835e-5 -90.00 2.835e-5 -90.00 6.561e-4 90.000
!< P1 F=2.0 Eeff=(6.02076897 -5.4005e-6) Z0=(155.251741 6.97161e-5) R=0.0251036 C=0.00299444 
!< P2 F=2.0 Eeff=(5.67103933 -5.1718e-6) Z0=(53.154903 2.42438e-5) R=0.0740222 C=9.76209e-4 
