! Sonnet Data File
! From: em Version : 14.52
! From Project: Cc2
! Data is De-embedded 
! Data File Written: 01/03/2019 10:58:36
!< HDATE 01/03/2019 10:23:40
!< MDATE 01/03/2019 10:23:40
# GHZ Y MA R 1.0
0.01000000 5.028e-6 90.000 1.225e-7 -90.00 1.225e-7 -90.00 2.914e-6 90.000
!< P1 F=0.01 Eeff=(undefined: sl) Z0=(undefined: sl) R=0.0 C=0.0 
!< P2 F=0.01 Eeff=(undefined: sl) Z0=(undefined: sl) R=0.0 C=0.0 
0.02000000 1.006e-5 90.000 2.449e-7 -90.00 2.449e-7 -90.00 5.828e-6 90.000
0.03000000 1.508e-5 90.000 3.674e-7 -90.00 3.674e-7 -90.00 8.742e-6 90.000
0.04000000 2.011e-5 90.000 4.899e-7 -90.00 4.899e-7 -90.00 1.166e-5 90.000
0.05000000 2.514e-5 90.000 6.124e-7 -90.00 6.124e-7 -90.00 1.457e-5 90.000
0.06000000 3.017e-5 90.000 7.348e-7 -90.00 7.348e-7 -90.00 1.748e-5 90.000
0.07000000 3.520e-5 90.000 8.573e-7 -90.00 8.573e-7 -90.00 2.040e-5 90.000
0.08000000 4.023e-5 90.000 9.798e-7 -90.00 9.798e-7 -90.00 2.331e-5 90.000
0.09000000 4.525e-5 90.000 1.102e-6 -90.00 1.102e-6 -90.00 2.622e-5 90.000
0.10000000 5.028e-5 90.000 1.225e-6 -90.00 1.225e-6 -90.00 2.914e-5 90.000
0.11000000 5.531e-5 90.000 1.347e-6 -90.00 1.347e-6 -90.00 3.205e-5 90.000
0.12000000 6.034e-5 90.000 1.470e-6 -90.00 1.470e-6 -90.00 3.497e-5 90.000
0.13000000 6.537e-5 90.000 1.592e-6 -90.00 1.592e-6 -90.00 3.788e-5 90.000
0.14000000 7.040e-5 90.000 1.715e-6 -90.00 1.715e-6 -90.00 4.079e-5 90.000
0.15000000 7.542e-5 90.000 1.837e-6 -90.00 1.837e-6 -90.00 4.371e-5 90.000
0.16000000 8.045e-5 90.000 1.960e-6 -90.00 1.960e-6 -90.00 4.662e-5 90.000
0.17000000 8.548e-5 90.000 2.082e-6 -90.00 2.082e-6 -90.00 4.954e-5 90.000
0.18000000 9.051e-5 90.000 2.205e-6 -90.00 2.205e-6 -90.00 5.245e-5 90.000
0.19000000 9.554e-5 90.000 2.327e-6 -90.00 2.327e-6 -90.00 5.536e-5 90.000
0.20000000 1.006e-4 90.000 2.449e-6 -90.00 2.449e-6 -90.00 5.828e-5 90.000
0.21000000 1.056e-4 90.000 2.572e-6 -90.00 2.572e-6 -90.00 6.119e-5 90.000
0.22000000 1.106e-4 90.000 2.694e-6 -90.00 2.694e-6 -90.00 6.411e-5 90.000
0.23000000 1.157e-4 90.000 2.817e-6 -90.00 2.817e-6 -90.00 6.702e-5 90.000
0.24000000 1.207e-4 90.000 2.939e-6 -90.00 2.939e-6 -90.00 6.993e-5 90.000
0.25000000 1.257e-4 90.000 3.062e-6 -90.00 3.062e-6 -90.00 7.285e-5 90.000
0.26000000 1.307e-4 90.000 3.184e-6 -90.00 3.184e-6 -90.00 7.576e-5 90.000
0.27000000 1.358e-4 90.000 3.307e-6 -90.00 3.307e-6 -90.00 7.868e-5 90.000
0.28000000 1.408e-4 90.000 3.429e-6 -90.00 3.429e-6 -90.00 8.159e-5 90.000
0.29000000 1.458e-4 90.000 3.552e-6 -90.00 3.552e-6 -90.00 8.450e-5 90.000
0.30000000 1.509e-4 90.000 3.674e-6 -90.00 3.674e-6 -90.00 8.742e-5 90.000
0.31000000 1.559e-4 90.000 3.797e-6 -90.00 3.797e-6 -90.00 9.033e-5 90.000
0.32000000 1.609e-4 90.000 3.919e-6 -90.00 3.919e-6 -90.00 9.325e-5 90.000
0.33000000 1.659e-4 90.000 4.042e-6 -90.00 4.042e-6 -90.00 9.616e-5 90.000
0.34000000 1.710e-4 90.000 4.164e-6 -90.00 4.164e-6 -90.00 9.907e-5 90.000
0.35000000 1.760e-4 90.000 4.287e-6 -90.00 4.287e-6 -90.00 1.020e-4 90.000
0.36000000 1.810e-4 90.000 4.409e-6 -90.00 4.409e-6 -90.00 1.049e-4 90.000
0.37000000 1.861e-4 90.000 4.532e-6 -90.00 4.532e-6 -90.00 1.078e-4 90.000
0.38000000 1.911e-4 90.000 4.654e-6 -90.00 4.654e-6 -90.00 1.107e-4 90.000
0.39000000 1.961e-4 90.000 4.777e-6 -90.00 4.777e-6 -90.00 1.136e-4 90.000
0.40000000 2.011e-4 90.000 4.899e-6 -90.00 4.899e-6 -90.00 1.166e-4 90.000
0.41000000 2.062e-4 90.000 5.022e-6 -90.00 5.022e-6 -90.00 1.195e-4 90.000
0.42000000 2.112e-4 90.000 5.144e-6 -90.00 5.144e-6 -90.00 1.224e-4 90.000
0.43000000 2.162e-4 90.000 5.267e-6 -90.00 5.267e-6 -90.00 1.253e-4 90.000
0.44000000 2.213e-4 90.000 5.389e-6 -90.00 5.389e-6 -90.00 1.282e-4 90.000
0.45000000 2.263e-4 90.000 5.512e-6 -90.00 5.512e-6 -90.00 1.311e-4 90.000
0.46000000 2.313e-4 90.000 5.634e-6 -90.00 5.634e-6 -90.00 1.340e-4 90.000
0.47000000 2.363e-4 90.000 5.757e-6 -90.00 5.757e-6 -90.00 1.370e-4 90.000
0.48000000 2.414e-4 90.000 5.879e-6 -90.00 5.879e-6 -90.00 1.399e-4 90.000
0.49000000 2.464e-4 90.000 6.002e-6 -90.00 6.002e-6 -90.00 1.428e-4 90.000
0.50000000 2.514e-4 90.000 6.124e-6 -90.00 6.124e-6 -90.00 1.457e-4 90.000
0.51000000 2.565e-4 90.000 6.247e-6 -90.00 6.247e-6 -90.00 1.486e-4 90.000
0.52000000 2.615e-4 90.000 6.369e-6 -90.00 6.369e-6 -90.00 1.515e-4 90.000
0.53000000 2.665e-4 90.000 6.492e-6 -90.00 6.492e-6 -90.00 1.544e-4 90.000
0.54000000 2.715e-4 90.000 6.614e-6 -90.00 6.614e-6 -90.00 1.574e-4 90.000
0.55000000 2.766e-4 90.000 6.737e-6 -90.00 6.737e-6 -90.00 1.603e-4 90.000
0.56000000 2.816e-4 90.000 6.859e-6 -90.00 6.859e-6 -90.00 1.632e-4 90.000
0.57000000 2.866e-4 90.000 6.982e-6 -90.00 6.982e-6 -90.00 1.661e-4 90.000
0.58000000 2.917e-4 90.000 7.104e-6 -90.00 7.104e-6 -90.00 1.690e-4 90.000
0.59000000 2.967e-4 90.000 7.227e-6 -90.00 7.227e-6 -90.00 1.719e-4 90.000
0.60000000 3.017e-4 90.000 7.349e-6 -90.00 7.349e-6 -90.00 1.748e-4 90.000
0.61000000 3.068e-4 90.000 7.472e-6 -90.00 7.472e-6 -90.00 1.778e-4 90.000
0.62000000 3.118e-4 90.000 7.594e-6 -90.00 7.594e-6 -90.00 1.807e-4 90.000
0.63000000 3.168e-4 90.000 7.717e-6 -90.00 7.717e-6 -90.00 1.836e-4 90.000
0.64000000 3.218e-4 90.000 7.840e-6 -90.00 7.840e-6 -90.00 1.865e-4 90.000
0.65000000 3.269e-4 90.000 7.962e-6 -90.00 7.962e-6 -90.00 1.894e-4 90.000
0.66000000 3.319e-4 90.000 8.085e-6 -90.00 8.085e-6 -90.00 1.923e-4 90.000
0.67000000 3.369e-4 90.000 8.207e-6 -90.00 8.207e-6 -90.00 1.952e-4 90.000
0.68000000 3.420e-4 90.000 8.330e-6 -90.00 8.330e-6 -90.00 1.982e-4 90.000
0.69000000 3.470e-4 90.000 8.452e-6 -90.00 8.452e-6 -90.00 2.011e-4 90.000
0.70000000 3.520e-4 90.000 8.575e-6 -90.00 8.575e-6 -90.00 2.040e-4 90.000
0.71000000 3.571e-4 90.000 8.697e-6 -90.00 8.697e-6 -90.00 2.069e-4 90.000
0.72000000 3.621e-4 90.000 8.820e-6 -90.00 8.820e-6 -90.00 2.098e-4 90.000
0.73000000 3.671e-4 90.000 8.942e-6 -90.00 8.942e-6 -90.00 2.127e-4 90.000
0.74000000 3.721e-4 90.000 9.065e-6 -90.00 9.065e-6 -90.00 2.156e-4 90.000
0.75000000 3.772e-4 90.000 9.188e-6 -90.00 9.188e-6 -90.00 2.185e-4 90.000
0.76000000 3.822e-4 90.000 9.310e-6 -90.00 9.310e-6 -90.00 2.215e-4 90.000
0.77000000 3.872e-4 90.000 9.433e-6 -90.00 9.433e-6 -90.00 2.244e-4 90.000
0.78000000 3.923e-4 90.000 9.555e-6 -90.00 9.555e-6 -90.00 2.273e-4 90.000
0.79000000 3.973e-4 90.000 9.678e-6 -90.00 9.678e-6 -90.00 2.302e-4 90.000
0.80000000 4.023e-4 90.000 9.800e-6 -90.00 9.800e-6 -90.00 2.331e-4 90.000
0.81000000 4.074e-4 90.000 9.923e-6 -90.00 9.923e-6 -90.00 2.360e-4 90.000
0.82000000 4.124e-4 90.000 1.005e-5 -90.00 1.005e-5 -90.00 2.389e-4 90.000
0.83000000 4.174e-4 90.000 1.017e-5 -90.00 1.017e-5 -90.00 2.419e-4 90.000
0.84000000 4.225e-4 90.000 1.029e-5 -90.00 1.029e-5 -90.00 2.448e-4 90.000
0.85000000 4.275e-4 90.000 1.041e-5 -90.00 1.041e-5 -90.00 2.477e-4 90.000
0.86000000 4.325e-4 90.000 1.054e-5 -90.00 1.054e-5 -90.00 2.506e-4 90.000
0.87000000 4.376e-4 90.000 1.066e-5 -90.00 1.066e-5 -90.00 2.535e-4 90.000
0.88000000 4.426e-4 90.000 1.078e-5 -90.00 1.078e-5 -90.00 2.564e-4 90.000
0.89000000 4.476e-4 90.000 1.090e-5 -90.00 1.090e-5 -90.00 2.594e-4 90.000
0.90000000 4.526e-4 90.000 1.103e-5 -90.00 1.103e-5 -90.00 2.623e-4 90.000
0.91000000 4.577e-4 90.000 1.115e-5 -90.00 1.115e-5 -90.00 2.652e-4 90.000
0.92000000 4.627e-4 90.000 1.127e-5 -90.00 1.127e-5 -90.00 2.681e-4 90.000
0.93000000 4.677e-4 90.000 1.139e-5 -90.00 1.139e-5 -90.00 2.710e-4 90.000
0.94000000 4.728e-4 90.000 1.152e-5 -90.00 1.152e-5 -90.00 2.739e-4 90.000
0.95000000 4.778e-4 90.000 1.164e-5 -90.00 1.164e-5 -90.00 2.768e-4 90.000
0.96000000 4.828e-4 90.000 1.176e-5 -90.00 1.176e-5 -90.00 2.798e-4 90.000
0.97000000 4.879e-4 90.000 1.188e-5 -90.00 1.188e-5 -90.00 2.827e-4 90.000
0.98000000 4.929e-4 90.000 1.201e-5 -90.00 1.201e-5 -90.00 2.856e-4 90.000
0.99000000 4.979e-4 90.000 1.213e-5 -90.00 1.213e-5 -90.00 2.885e-4 90.000
1.00000000 5.030e-4 90.000 1.225e-5 -90.00 1.225e-5 -90.00 2.914e-4 90.000
1.01000000 5.080e-4 90.000 1.238e-5 -90.00 1.238e-5 -90.00 2.943e-4 90.000
1.02000000 5.130e-4 90.000 1.250e-5 -90.00 1.250e-5 -90.00 2.972e-4 90.000
1.03000000 5.181e-4 90.000 1.262e-5 -90.00 1.262e-5 -90.00 3.002e-4 90.000
1.04000000 5.231e-4 90.000 1.274e-5 -90.00 1.274e-5 -90.00 3.031e-4 90.000
1.05000000 5.281e-4 90.000 1.287e-5 -90.00 1.287e-5 -90.00 3.060e-4 90.000
1.06000000 5.332e-4 90.000 1.299e-5 -90.00 1.299e-5 -90.00 3.089e-4 90.000
1.07000000 5.382e-4 90.000 1.311e-5 -90.00 1.311e-5 -90.00 3.118e-4 90.000
1.08000000 5.432e-4 90.000 1.323e-5 -90.00 1.323e-5 -90.00 3.147e-4 90.000
1.09000000 5.483e-4 90.000 1.336e-5 -90.00 1.336e-5 -90.00 3.176e-4 90.000
1.10000000 5.533e-4 90.000 1.348e-5 -90.00 1.348e-5 -90.00 3.206e-4 90.000
1.11000000 5.583e-4 90.000 1.360e-5 -90.00 1.360e-5 -90.00 3.235e-4 90.000
1.12000000 5.634e-4 90.000 1.372e-5 -90.00 1.372e-5 -90.00 3.264e-4 90.000
1.13000000 5.684e-4 90.000 1.385e-5 -90.00 1.385e-5 -90.00 3.293e-4 90.000
1.14000000 5.734e-4 90.000 1.397e-5 -90.00 1.397e-5 -90.00 3.322e-4 90.000
1.15000000 5.785e-4 90.000 1.409e-5 -90.00 1.409e-5 -90.00 3.351e-4 90.000
1.16000000 5.835e-4 90.000 1.421e-5 -90.00 1.421e-5 -90.00 3.380e-4 90.000
1.17000000 5.885e-4 90.000 1.434e-5 -90.00 1.434e-5 -90.00 3.410e-4 90.000
1.18000000 5.936e-4 90.000 1.446e-5 -90.00 1.446e-5 -90.00 3.439e-4 90.000
1.19000000 5.986e-4 90.000 1.458e-5 -90.00 1.458e-5 -90.00 3.468e-4 90.000
1.20000000 6.036e-4 90.000 1.471e-5 -90.00 1.471e-5 -90.00 3.497e-4 90.000
1.21000000 6.087e-4 90.000 1.483e-5 -90.00 1.483e-5 -90.00 3.526e-4 90.000
1.22000000 6.137e-4 90.000 1.495e-5 -90.00 1.495e-5 -90.00 3.555e-4 90.000
1.23000000 6.187e-4 90.000 1.507e-5 -90.00 1.507e-5 -90.00 3.584e-4 90.000
1.24000000 6.238e-4 90.000 1.520e-5 -90.00 1.520e-5 -90.00 3.614e-4 90.000
1.25000000 6.288e-4 90.000 1.532e-5 -90.00 1.532e-5 -90.00 3.643e-4 90.000
1.26000000 6.338e-4 90.000 1.544e-5 -90.00 1.544e-5 -90.00 3.672e-4 90.000
1.27000000 6.389e-4 90.000 1.556e-5 -90.00 1.556e-5 -90.00 3.701e-4 90.000
1.28000000 6.439e-4 90.000 1.569e-5 -90.00 1.569e-5 -90.00 3.730e-4 90.000
1.29000000 6.489e-4 90.000 1.581e-5 -90.00 1.581e-5 -90.00 3.759e-4 90.000
1.30000000 6.540e-4 90.000 1.593e-5 -90.00 1.593e-5 -90.00 3.788e-4 90.000
1.31000000 6.590e-4 90.000 1.606e-5 -90.00 1.606e-5 -90.00 3.818e-4 90.000
1.32000000 6.641e-4 90.000 1.618e-5 -90.00 1.618e-5 -90.00 3.847e-4 90.000
1.33000000 6.691e-4 90.000 1.630e-5 -90.00 1.630e-5 -90.00 3.876e-4 90.000
1.34000000 6.741e-4 90.000 1.642e-5 -90.00 1.642e-5 -90.00 3.905e-4 90.000
1.35000000 6.792e-4 90.000 1.655e-5 -90.00 1.655e-5 -90.00 3.934e-4 90.000
1.36000000 6.842e-4 90.000 1.667e-5 -90.00 1.667e-5 -90.00 3.963e-4 90.000
1.37000000 6.892e-4 90.000 1.679e-5 -90.00 1.679e-5 -90.00 3.993e-4 90.000
1.38000000 6.943e-4 90.000 1.691e-5 -90.00 1.691e-5 -90.00 4.022e-4 90.000
1.39000000 6.993e-4 90.000 1.704e-5 -90.00 1.704e-5 -90.00 4.051e-4 90.000
1.40000000 7.043e-4 90.000 1.716e-5 -90.00 1.716e-5 -90.00 4.080e-4 90.000
1.41000000 7.094e-4 90.000 1.728e-5 -90.00 1.728e-5 -90.00 4.109e-4 90.000
1.42000000 7.144e-4 90.000 1.741e-5 -90.00 1.741e-5 -90.00 4.138e-4 90.000
1.43000000 7.195e-4 90.000 1.753e-5 -90.00 1.753e-5 -90.00 4.167e-4 90.000
1.44000000 7.245e-4 90.000 1.765e-5 -90.00 1.765e-5 -90.00 4.197e-4 90.000
1.45000000 7.295e-4 90.000 1.777e-5 -90.00 1.777e-5 -90.00 4.226e-4 90.000
1.46000000 7.346e-4 90.000 1.790e-5 -90.00 1.790e-5 -90.00 4.255e-4 90.000
1.47000000 7.396e-4 90.000 1.802e-5 -90.00 1.802e-5 -90.00 4.284e-4 90.000
1.48000000 7.446e-4 90.000 1.814e-5 -90.00 1.814e-5 -90.00 4.313e-4 90.000
1.49000000 7.497e-4 90.000 1.827e-5 -90.00 1.827e-5 -90.00 4.342e-4 90.000
1.50000000 7.547e-4 90.000 1.839e-5 -90.00 1.839e-5 -90.00 4.372e-4 90.000
!< P1 F=1.5 Eeff=(6.02080276 -5.4062e-6) Z0=(155.253814 6.97292e-5) R=0.03350106 C=0.00299449 
!< P2 F=1.5 Eeff=(5.67102677 -5.1709e-6) Z0=(53.1548478 2.42578e-5) R=0.09666027 C=9.76209e-4 
1.51000000 7.598e-4 90.000 1.851e-5 -90.00 1.851e-5 -90.00 4.401e-4 90.000
1.52000000 7.648e-4 90.000 1.863e-5 -90.00 1.863e-5 -90.00 4.430e-4 90.000
1.53000000 7.698e-4 90.000 1.876e-5 -90.00 1.876e-5 -90.00 4.459e-4 90.000
1.54000000 7.749e-4 90.000 1.888e-5 -90.00 1.888e-5 -90.00 4.488e-4 90.000
1.55000000 7.799e-4 90.000 1.900e-5 -90.00 1.900e-5 -90.00 4.517e-4 90.000
1.56000000 7.849e-4 90.000 1.913e-5 -90.00 1.913e-5 -90.00 4.546e-4 90.000
1.57000000 7.900e-4 90.000 1.925e-5 -90.00 1.925e-5 -90.00 4.576e-4 90.000
1.58000000 7.950e-4 90.000 1.937e-5 -90.00 1.937e-5 -90.00 4.605e-4 90.000
1.59000000 8.001e-4 90.000 1.949e-5 -90.00 1.949e-5 -90.00 4.634e-4 90.000
1.60000000 8.051e-4 90.000 1.962e-5 -90.00 1.962e-5 -90.00 4.663e-4 90.000
1.61000000 8.101e-4 90.000 1.974e-5 -90.00 1.974e-5 -90.00 4.692e-4 90.000
1.62000000 8.152e-4 90.000 1.986e-5 -90.00 1.986e-5 -90.00 4.721e-4 90.000
1.63000000 8.202e-4 90.000 1.999e-5 -90.00 1.999e-5 -90.00 4.751e-4 90.000
1.64000000 8.253e-4 90.000 2.011e-5 -90.00 2.011e-5 -90.00 4.780e-4 90.000
1.65000000 8.303e-4 90.000 2.023e-5 -90.00 2.023e-5 -90.00 4.809e-4 90.000
1.66000000 8.353e-4 90.000 2.035e-5 -90.00 2.035e-5 -90.00 4.838e-4 90.000
1.67000000 8.404e-4 90.000 2.048e-5 -90.00 2.048e-5 -90.00 4.867e-4 90.000
1.68000000 8.454e-4 90.000 2.060e-5 -90.00 2.060e-5 -90.00 4.896e-4 90.000
1.69000000 8.505e-4 90.000 2.072e-5 -90.00 2.072e-5 -90.00 4.925e-4 90.000
1.70000000 8.555e-4 90.000 2.085e-5 -90.00 2.085e-5 -90.00 4.955e-4 90.000
1.71000000 8.605e-4 90.000 2.097e-5 -90.00 2.097e-5 -90.00 4.984e-4 90.000
1.72000000 8.656e-4 90.000 2.109e-5 -90.00 2.109e-5 -90.00 5.013e-4 90.000
1.73000000 8.706e-4 90.000 2.121e-5 -90.00 2.121e-5 -90.00 5.042e-4 90.000
1.74000000 8.757e-4 90.000 2.134e-5 -90.00 2.134e-5 -90.00 5.071e-4 90.000
1.75000000 8.807e-4 90.000 2.146e-5 -90.00 2.146e-5 -90.00 5.100e-4 90.000
1.76000000 8.857e-4 90.000 2.158e-5 -90.00 2.158e-5 -90.00 5.130e-4 90.000
1.77000000 8.908e-4 90.000 2.171e-5 -90.00 2.171e-5 -90.00 5.159e-4 90.000
1.78000000 8.958e-4 90.000 2.183e-5 -90.00 2.183e-5 -90.00 5.188e-4 90.000
1.79000000 9.009e-4 90.000 2.195e-5 -90.00 2.195e-5 -90.00 5.217e-4 90.000
1.80000000 9.059e-4 90.000 2.208e-5 -90.00 2.208e-5 -90.00 5.246e-4 90.000
1.81000000 9.110e-4 90.000 2.220e-5 -90.00 2.220e-5 -90.00 5.275e-4 90.000
1.82000000 9.160e-4 90.000 2.232e-5 -90.00 2.232e-5 -90.00 5.304e-4 90.000
1.83000000 9.210e-4 90.000 2.244e-5 -90.00 2.244e-5 -90.00 5.334e-4 90.000
1.84000000 9.261e-4 90.000 2.257e-5 -90.00 2.257e-5 -90.00 5.363e-4 90.000
1.85000000 9.311e-4 90.000 2.269e-5 -90.00 2.269e-5 -90.00 5.392e-4 90.000
1.86000000 9.362e-4 90.000 2.281e-5 -90.00 2.281e-5 -90.00 5.421e-4 90.000
1.87000000 9.412e-4 90.000 2.294e-5 -90.00 2.294e-5 -90.00 5.450e-4 90.000
1.88000000 9.462e-4 90.000 2.306e-5 -90.00 2.306e-5 -90.00 5.479e-4 90.000
1.89000000 9.513e-4 90.000 2.318e-5 -90.00 2.318e-5 -90.00 5.509e-4 90.000
1.90000000 9.563e-4 90.000 2.331e-5 -90.00 2.331e-5 -90.00 5.538e-4 90.000
1.91000000 9.614e-4 90.000 2.343e-5 -90.00 2.343e-5 -90.00 5.567e-4 90.000
1.92000000 9.664e-4 90.000 2.355e-5 -90.00 2.355e-5 -90.00 5.596e-4 90.000
1.93000000 9.715e-4 90.000 2.368e-5 -90.00 2.368e-5 -90.00 5.625e-4 90.000
1.94000000 9.765e-4 90.000 2.380e-5 -90.00 2.380e-5 -90.00 5.654e-4 90.000
1.95000000 9.816e-4 90.000 2.392e-5 -90.00 2.392e-5 -90.00 5.684e-4 90.000
1.96000000 9.866e-4 90.000 2.404e-5 -90.00 2.404e-5 -90.00 5.713e-4 90.000
1.97000000 9.916e-4 90.000 2.417e-5 -90.00 2.417e-5 -90.00 5.742e-4 90.000
1.98000000 9.967e-4 90.000 2.429e-5 -90.00 2.429e-5 -90.00 5.771e-4 90.000
1.99000000 0.001002 90.000 2.441e-5 -90.00 2.441e-5 -90.00 5.800e-4 90.000
2.00000000 0.001007 90.000 2.454e-5 -90.00 2.454e-5 -90.00 5.829e-4 90.000
2.01000000 0.001012 90.000 2.466e-5 -90.00 2.466e-5 -90.00 5.859e-4 90.000
2.02000000 0.001017 90.000 2.478e-5 -90.00 2.478e-5 -90.00 5.888e-4 90.000
2.03000000 0.001022 90.000 2.491e-5 -90.00 2.491e-5 -90.00 5.917e-4 90.000
2.04000000 0.001027 90.000 2.503e-5 -90.00 2.503e-5 -90.00 5.946e-4 90.000
2.05000000 0.001032 90.000 2.515e-5 -90.00 2.515e-5 -90.00 5.975e-4 90.000
2.06000000 0.001037 90.000 2.528e-5 -90.00 2.528e-5 -90.00 6.004e-4 90.000
2.07000000 0.001042 90.000 2.540e-5 -90.00 2.540e-5 -90.00 6.034e-4 90.000
2.08000000 0.001047 90.000 2.552e-5 -90.00 2.552e-5 -90.00 6.063e-4 90.000
2.09000000 0.001052 90.000 2.564e-5 -90.00 2.564e-5 -90.00 6.092e-4 90.000
2.10000000 0.001057 90.000 2.577e-5 -90.00 2.577e-5 -90.00 6.121e-4 90.000
2.11000000 0.001062 90.000 2.589e-5 -90.00 2.589e-5 -90.00 6.150e-4 90.000
2.12000000 0.001067 90.000 2.601e-5 -90.00 2.601e-5 -90.00 6.179e-4 90.000
2.13000000 0.001072 90.000 2.614e-5 -90.00 2.614e-5 -90.00 6.209e-4 90.000
2.14000000 0.001077 90.000 2.626e-5 -90.00 2.626e-5 -90.00 6.238e-4 90.000
2.15000000 0.001082 90.000 2.638e-5 -90.00 2.638e-5 -90.00 6.267e-4 90.000
2.16000000 0.001088 90.000 2.651e-5 -90.00 2.651e-5 -90.00 6.296e-4 90.000
2.17000000 0.001093 90.000 2.663e-5 -90.00 2.663e-5 -90.00 6.325e-4 90.000
2.18000000 0.001098 90.000 2.675e-5 -90.00 2.675e-5 -90.00 6.354e-4 90.000
2.19000000 0.001103 90.000 2.688e-5 -90.00 2.688e-5 -90.00 6.384e-4 90.000
2.20000000 0.001108 90.000 2.700e-5 -90.00 2.700e-5 -90.00 6.413e-4 90.000
2.21000000 0.001113 90.000 2.712e-5 -90.00 2.712e-5 -90.00 6.442e-4 90.000
2.22000000 0.001118 90.000 2.725e-5 -90.00 2.725e-5 -90.00 6.471e-4 90.000
2.23000000 0.001123 90.000 2.737e-5 -90.00 2.737e-5 -90.00 6.500e-4 90.000
2.24000000 0.001128 90.000 2.749e-5 -90.00 2.749e-5 -90.00 6.529e-4 90.000
2.25000000 0.001133 90.000 2.762e-5 -90.00 2.762e-5 -90.00 6.559e-4 90.000
2.26000000 0.001138 90.000 2.774e-5 -90.00 2.774e-5 -90.00 6.588e-4 90.000
2.27000000 0.001143 90.000 2.786e-5 -90.00 2.786e-5 -90.00 6.617e-4 90.000
2.28000000 0.001148 90.000 2.799e-5 -90.00 2.799e-5 -90.00 6.646e-4 90.000
2.29000000 0.001153 90.000 2.811e-5 -90.00 2.811e-5 -90.00 6.675e-4 90.000
2.30000000 0.001158 90.000 2.823e-5 -90.00 2.823e-5 -90.00 6.704e-4 90.000
2.31000000 0.001163 90.000 2.836e-5 -90.00 2.836e-5 -90.00 6.734e-4 90.000
2.32000000 0.001168 90.000 2.848e-5 -90.00 2.848e-5 -90.00 6.763e-4 90.000
2.33000000 0.001173 90.000 2.860e-5 -90.00 2.860e-5 -90.00 6.792e-4 90.000
2.34000000 0.001178 90.000 2.873e-5 -90.00 2.873e-5 -90.00 6.821e-4 90.000
2.35000000 0.001183 90.000 2.885e-5 -90.00 2.885e-5 -90.00 6.850e-4 90.000
2.36000000 0.001189 90.000 2.897e-5 -90.00 2.897e-5 -90.00 6.879e-4 90.000
2.37000000 0.001194 90.000 2.910e-5 -90.00 2.910e-5 -90.00 6.909e-4 90.000
!< P1 F=2.37 Eeff=(6.02094423 -5.4112e-6) Z0=(155.256442 6.98204e-5) R=0.02110249 C=0.00299458 
!< P2 F=2.37 Eeff=(5.67104962 -5.1691e-6) Z0=(53.1549486 2.42344e-5) R=0.06269707 C=9.76209e-4 
2.38000000 0.001199 90.000 2.922e-5 -90.00 2.922e-5 -90.00 6.938e-4 90.000
2.39000000 0.001204 90.000 2.934e-5 -90.00 2.934e-5 -90.00 6.967e-4 90.000
2.40000000 0.001209 90.000 2.947e-5 -90.00 2.947e-5 -90.00 6.996e-4 90.000
2.41000000 0.001214 90.000 2.959e-5 -90.00 2.959e-5 -90.00 7.025e-4 90.000
2.42000000 0.001219 90.000 2.971e-5 -90.00 2.971e-5 -90.00 7.054e-4 90.000
2.43000000 0.001224 90.000 2.984e-5 -90.00 2.984e-5 -90.00 7.084e-4 90.000
2.44000000 0.001229 90.000 2.996e-5 -90.00 2.996e-5 -90.00 7.113e-4 90.000
2.45000000 0.001234 90.000 3.008e-5 -90.00 3.008e-5 -90.00 7.142e-4 90.000
2.46000000 0.001239 90.000 3.021e-5 -90.00 3.021e-5 -90.00 7.171e-4 90.000
2.47000000 0.001244 90.000 3.033e-5 -90.00 3.033e-5 -90.00 7.200e-4 90.000
2.48000000 0.001249 90.000 3.045e-5 -90.00 3.045e-5 -90.00 7.230e-4 90.000
2.49000000 0.001254 90.000 3.058e-5 -90.00 3.058e-5 -90.00 7.259e-4 90.000
2.50000000 0.001259 90.000 3.070e-5 -90.00 3.070e-5 -90.00 7.288e-4 90.000
2.51000000 0.001264 90.000 3.082e-5 -90.00 3.082e-5 -90.00 7.317e-4 90.000
2.52000000 0.001269 90.000 3.095e-5 -90.00 3.095e-5 -90.00 7.346e-4 90.000
2.53000000 0.001274 90.000 3.107e-5 -90.00 3.107e-5 -90.00 7.375e-4 90.000
2.54000000 0.001279 90.000 3.119e-5 -90.00 3.119e-5 -90.00 7.405e-4 90.000
2.55000000 0.001285 90.000 3.132e-5 -90.00 3.132e-5 -90.00 7.434e-4 90.000
2.56000000 0.001290 90.000 3.144e-5 -90.00 3.144e-5 -90.00 7.463e-4 90.000
2.57000000 0.001295 90.000 3.157e-5 -90.00 3.157e-5 -90.00 7.492e-4 90.000
