! Sonnet Data File
! From: em Version : 14.52
! From Project: CC_q
! Data is De-embedded 
! Data File Written: 01/08/2019 05:50:04
!< HDATE 01/07/2019 21:45:56
!< MDATE 01/07/2019 21:45:56
# GHZ Y MA R 1.0
0.00100000 5.049e-7 89.998 1.499e-9 -90.14 1.521e-9 -91.23 5.048e-7 89.997
!< P1 F=0.001 Eeff=(undefined: sl) Z0=(undefined: sl) R=0.0 C=0.0 
!< P2 F=0.001 Eeff=(undefined: sl) Z0=(undefined: sl) R=0.0 C=0.0 
0.01000000 5.049e-6 90.000 1.511e-8 -90.23 1.511e-8 -90.23 5.049e-6 90.000
0.02000000 1.010e-5 90.000 3.020e-8 -90.17 3.020e-8 -90.17 1.010e-5 90.000
0.03000000 1.515e-5 90.000 4.529e-8 -90.15 4.529e-8 -90.15 1.515e-5 90.000
0.04000000 2.020e-5 90.000 6.039e-8 -90.14 6.039e-8 -90.14 2.019e-5 90.000
0.05000000 2.525e-5 90.000 7.548e-8 -90.13 7.548e-8 -90.13 2.524e-5 90.000
0.06000000 3.030e-5 90.000 9.057e-8 -90.13 9.057e-8 -90.13 3.029e-5 90.000
0.07000000 3.535e-5 90.000 1.057e-7 -90.12 1.057e-7 -90.12 3.534e-5 90.000
0.08000000 4.040e-5 90.000 1.208e-7 -90.12 1.208e-7 -90.12 4.039e-5 90.000
0.09000000 4.545e-5 90.000 1.358e-7 -90.11 1.358e-7 -90.11 4.544e-5 90.000
0.10000000 5.050e-5 90.000 1.509e-7 -90.11 1.509e-7 -90.11 5.049e-5 90.000
0.11000000 5.554e-5 90.000 1.660e-7 -90.11 1.660e-7 -90.11 5.553e-5 90.000
0.12000000 6.059e-5 90.000 1.811e-7 -90.10 1.811e-7 -90.10 6.058e-5 90.000
0.13000000 6.564e-5 90.000 1.962e-7 -90.10 1.962e-7 -90.10 6.563e-5 90.000
0.14000000 7.069e-5 90.000 2.113e-7 -90.10 2.113e-7 -90.10 7.068e-5 90.000
0.15000000 7.574e-5 90.000 2.264e-7 -90.10 2.264e-7 -90.10 7.573e-5 90.000
0.16000000 8.079e-5 90.000 2.414e-7 -90.09 2.414e-7 -90.09 8.078e-5 90.000
0.17000000 8.584e-5 90.000 2.565e-7 -90.09 2.565e-7 -90.09 8.583e-5 90.000
0.18000000 9.089e-5 90.000 2.716e-7 -90.09 2.716e-7 -90.09 9.088e-5 90.000
0.19000000 9.594e-5 90.000 2.867e-7 -90.09 2.867e-7 -90.09 9.592e-5 90.000
0.20000000 1.010e-4 90.000 3.018e-7 -90.08 3.018e-7 -90.08 1.010e-4 90.000
0.21000000 1.060e-4 90.000 3.168e-7 -90.08 3.168e-7 -90.08 1.060e-4 90.000
0.22000000 1.111e-4 90.000 3.319e-7 -90.08 3.319e-7 -90.08 1.111e-4 90.000
0.23000000 1.161e-4 90.000 3.470e-7 -90.08 3.470e-7 -90.08 1.161e-4 90.000
0.24000000 1.212e-4 90.000 3.620e-7 -90.08 3.620e-7 -90.08 1.212e-4 90.000
0.25000000 1.262e-4 90.000 3.771e-7 -90.07 3.771e-7 -90.07 1.262e-4 90.000
0.26000000 1.313e-4 90.000 3.922e-7 -90.07 3.922e-7 -90.07 1.313e-4 90.000
0.27000000 1.363e-4 90.000 4.072e-7 -90.07 4.072e-7 -90.07 1.363e-4 90.000
0.28000000 1.414e-4 90.000 4.223e-7 -90.07 4.223e-7 -90.07 1.414e-4 90.000
0.29000000 1.464e-4 90.000 4.374e-7 -90.07 4.374e-7 -90.07 1.464e-4 90.000
0.30000000 1.515e-4 90.000 4.524e-7 -90.06 4.524e-7 -90.06 1.515e-4 90.000
0.31000000 1.565e-4 90.000 4.675e-7 -90.06 4.675e-7 -90.06 1.565e-4 90.000
0.32000000 1.616e-4 90.000 4.825e-7 -90.06 4.825e-7 -90.06 1.616e-4 90.000
0.33000000 1.666e-4 90.000 4.976e-7 -90.06 4.976e-7 -90.06 1.666e-4 90.000
0.34000000 1.717e-4 90.000 5.126e-7 -90.06 5.126e-7 -90.06 1.717e-4 90.000
0.35000000 1.767e-4 90.000 5.277e-7 -90.06 5.277e-7 -90.06 1.767e-4 90.000
0.36000000 1.818e-4 90.000 5.427e-7 -90.05 5.427e-7 -90.05 1.818e-4 90.000
0.37000000 1.868e-4 90.000 5.578e-7 -90.05 5.578e-7 -90.05 1.868e-4 90.000
0.38000000 1.919e-4 90.000 5.728e-7 -90.05 5.728e-7 -90.05 1.919e-4 90.000
0.39000000 1.969e-4 90.000 5.879e-7 -90.05 5.879e-7 -90.05 1.969e-4 90.000
0.40000000 2.020e-4 90.000 6.029e-7 -90.05 6.029e-7 -90.05 2.020e-4 90.000
0.41000000 2.070e-4 90.000 6.179e-7 -90.05 6.179e-7 -90.05 2.070e-4 90.000
0.42000000 2.121e-4 90.000 6.329e-7 -90.04 6.329e-7 -90.04 2.121e-4 90.000
0.43000000 2.171e-4 90.000 6.480e-7 -90.04 6.480e-7 -90.04 2.171e-4 90.000
0.44000000 2.222e-4 90.000 6.630e-7 -90.04 6.630e-7 -90.04 2.222e-4 90.000
0.45000000 2.272e-4 90.000 6.780e-7 -90.04 6.780e-7 -90.04 2.272e-4 90.000
0.46000000 2.323e-4 90.000 6.930e-7 -90.04 6.930e-7 -90.04 2.323e-4 90.000
0.47000000 2.373e-4 90.000 7.080e-7 -90.04 7.080e-7 -90.04 2.373e-4 90.000
0.48000000 2.424e-4 90.000 7.231e-7 -90.04 7.231e-7 -90.04 2.424e-4 90.000
0.49000000 2.474e-4 90.000 7.381e-7 -90.04 7.381e-7 -90.04 2.474e-4 90.000
0.50000000 2.525e-4 90.000 7.531e-7 -90.03 7.531e-7 -90.03 2.525e-4 90.000
0.51000000 2.575e-4 90.000 7.681e-7 -90.03 7.681e-7 -90.03 2.575e-4 90.000
0.52000000 2.626e-4 90.000 7.831e-7 -90.03 7.831e-7 -90.03 2.626e-4 90.000
0.53000000 2.676e-4 90.000 7.981e-7 -90.03 7.981e-7 -90.03 2.676e-4 90.000
0.54000000 2.727e-4 90.000 8.131e-7 -90.03 8.131e-7 -90.03 2.727e-4 90.000
0.55000000 2.778e-4 90.000 8.280e-7 -90.03 8.280e-7 -90.03 2.777e-4 90.000
0.56000000 2.828e-4 90.000 8.430e-7 -90.03 8.430e-7 -90.03 2.828e-4 90.000
0.57000000 2.879e-4 90.000 8.580e-7 -90.03 8.580e-7 -90.03 2.878e-4 90.000
0.58000000 2.929e-4 90.000 8.730e-7 -90.03 8.730e-7 -90.03 2.929e-4 90.000
0.59000000 2.980e-4 90.000 8.880e-7 -90.02 8.880e-7 -90.02 2.979e-4 90.000
0.60000000 3.030e-4 90.000 9.029e-7 -90.02 9.029e-7 -90.02 3.030e-4 90.000
0.61000000 3.081e-4 90.000 9.179e-7 -90.02 9.179e-7 -90.02 3.080e-4 90.000
0.62000000 3.131e-4 90.000 9.328e-7 -90.02 9.328e-7 -90.02 3.131e-4 90.000
0.63000000 3.182e-4 90.000 9.478e-7 -90.02 9.478e-7 -90.02 3.181e-4 90.000
0.64000000 3.232e-4 90.000 9.627e-7 -90.02 9.627e-7 -90.02 3.232e-4 90.000
0.65000000 3.283e-4 90.000 9.777e-7 -90.02 9.777e-7 -90.02 3.282e-4 90.000
0.66000000 3.333e-4 90.000 9.926e-7 -90.02 9.926e-7 -90.02 3.333e-4 90.000
0.67000000 3.384e-4 90.000 1.008e-6 -90.02 1.008e-6 -90.02 3.383e-4 90.000
0.68000000 3.434e-4 90.000 1.023e-6 -90.02 1.023e-6 -90.02 3.434e-4 90.000
0.69000000 3.485e-4 90.000 1.037e-6 -90.02 1.037e-6 -90.02 3.484e-4 90.000
0.70000000 3.535e-4 90.000 1.052e-6 -90.01 1.052e-6 -90.01 3.535e-4 90.000
0.71000000 3.586e-4 90.000 1.067e-6 -90.01 1.067e-6 -90.01 3.585e-4 90.000
0.72000000 3.636e-4 90.000 1.082e-6 -90.01 1.082e-6 -90.01 3.636e-4 90.000
0.73000000 3.687e-4 90.000 1.097e-6 -90.01 1.097e-6 -90.01 3.686e-4 90.000
0.74000000 3.737e-4 90.000 1.112e-6 -90.01 1.112e-6 -90.01 3.737e-4 90.000
0.75000000 3.788e-4 90.000 1.127e-6 -90.01 1.127e-6 -90.01 3.787e-4 90.000
0.76000000 3.838e-4 90.000 1.142e-6 -90.01 1.142e-6 -90.01 3.838e-4 90.000
0.77000000 3.889e-4 90.000 1.157e-6 -90.01 1.157e-6 -90.01 3.888e-4 90.000
0.78000000 3.939e-4 90.000 1.172e-6 -90.01 1.172e-6 -90.01 3.939e-4 90.000
0.79000000 3.990e-4 90.000 1.186e-6 -90.01 1.186e-6 -90.01 3.989e-4 90.000
0.80000000 4.040e-4 90.000 1.201e-6 -90.01 1.201e-6 -90.01 4.040e-4 90.000
0.81000000 4.091e-4 90.000 1.216e-6 -90.01 1.216e-6 -90.01 4.090e-4 90.000
0.82000000 4.142e-4 90.000 1.231e-6 -90.01 1.231e-6 -90.01 4.141e-4 90.000
0.83000000 4.192e-4 90.000 1.246e-6 -90.01 1.246e-6 -90.01 4.191e-4 90.000
0.84000000 4.243e-4 90.000 1.261e-6 -90.01 1.261e-6 -90.01 4.242e-4 90.000
0.85000000 4.293e-4 90.000 1.276e-6 -90.01 1.276e-6 -90.01 4.292e-4 90.000
0.86000000 4.344e-4 90.000 1.290e-6 -90.01 1.290e-6 -90.01 4.343e-4 90.000
0.87000000 4.394e-4 90.000 1.305e-6 -90.00 1.305e-6 -90.00 4.393e-4 90.000
0.88000000 4.445e-4 90.000 1.320e-6 -90.00 1.320e-6 -90.00 4.444e-4 90.000
0.89000000 4.495e-4 90.000 1.335e-6 -90.00 1.335e-6 -90.00 4.494e-4 90.000
0.90000000 4.546e-4 90.000 1.350e-6 -90.00 1.350e-6 -90.00 4.545e-4 90.000
0.91000000 4.596e-4 90.000 1.365e-6 -90.00 1.365e-6 -90.00 4.595e-4 90.000
0.92000000 4.647e-4 90.000 1.379e-6 -90.00 1.379e-6 -90.00 4.646e-4 90.000
0.93000000 4.697e-4 90.000 1.394e-6 -90.00 1.394e-6 -90.00 4.697e-4 90.000
0.94000000 4.748e-4 90.000 1.409e-6 -90.00 1.409e-6 -90.00 4.747e-4 90.000
0.95000000 4.798e-4 90.000 1.424e-6 -90.00 1.424e-6 -90.00 4.798e-4 90.000
0.96000000 4.849e-4 90.000 1.439e-6 -90.00 1.439e-6 -90.00 4.848e-4 90.000
0.97000000 4.900e-4 90.000 1.453e-6 -90.00 1.453e-6 -90.00 4.899e-4 90.000
0.98000000 4.950e-4 90.000 1.468e-6 -90.00 1.468e-6 -90.00 4.949e-4 90.000
0.99000000 5.001e-4 90.000 1.483e-6 -90.00 1.483e-6 -90.00 5.000e-4 90.000
1.00000000 5.051e-4 90.000 1.498e-6 -90.00 1.498e-6 -90.00 5.050e-4 90.000
!< P1 F=1.0 Eeff=(6.16221427 -5.5187e-6) Z0=(157.44292 7.02878e-5) R=0.05065764 C=0.00301168 
!< P2 F=1.0 Eeff=(6.20165422 -5.5528e-6) Z0=(158.242755 7.10343e-5) R=0.04985549 C=0.00302489 
1.01000000 5.102e-4 90.000 1.512e-6 -90.00 1.512e-6 -90.00 5.101e-4 90.000
1.02000000 5.152e-4 90.000 1.527e-6 -90.00 1.527e-6 -90.00 5.151e-4 90.000
1.03000000 5.203e-4 90.000 1.542e-6 -90.00 1.542e-6 -90.00 5.202e-4 90.000
1.04000000 5.253e-4 90.000 1.557e-6 -90.00 1.557e-6 -90.00 5.252e-4 90.000
1.05000000 5.304e-4 90.000 1.571e-6 -90.00 1.571e-6 -90.00 5.303e-4 90.000
1.06000000 5.354e-4 90.000 1.586e-6 -90.00 1.586e-6 -90.00 5.354e-4 90.000
1.07000000 5.405e-4 90.000 1.601e-6 -90.00 1.601e-6 -90.00 5.404e-4 90.000
1.08000000 5.456e-4 90.000 1.615e-6 -90.00 1.615e-6 -90.00 5.455e-4 90.000
1.09000000 5.506e-4 90.000 1.630e-6 -90.00 1.630e-6 -90.00 5.505e-4 90.000
1.10000000 5.557e-4 90.000 1.645e-6 -90.00 1.645e-6 -90.00 5.556e-4 90.000
1.11000000 5.607e-4 90.000 1.659e-6 -90.00 1.659e-6 -90.00 5.606e-4 90.000
1.12000000 5.658e-4 90.000 1.674e-6 -90.00 1.674e-6 -90.00 5.657e-4 90.000
1.13000000 5.708e-4 90.000 1.689e-6 -90.00 1.689e-6 -90.00 5.707e-4 90.000
1.14000000 5.759e-4 90.000 1.703e-6 -90.00 1.703e-6 -90.00 5.758e-4 90.000
1.15000000 5.809e-4 90.000 1.718e-6 -90.00 1.718e-6 -90.00 5.808e-4 90.000
1.16000000 5.860e-4 90.000 1.733e-6 -90.00 1.733e-6 -90.00 5.859e-4 90.000
1.17000000 5.911e-4 90.000 1.747e-6 -90.00 1.747e-6 -90.00 5.910e-4 90.000
1.18000000 5.961e-4 90.000 1.762e-6 -90.00 1.762e-6 -90.00 5.960e-4 90.000
1.19000000 6.012e-4 90.000 1.777e-6 -90.00 1.777e-6 -90.00 6.011e-4 90.000
1.20000000 6.062e-4 90.000 1.791e-6 -90.00 1.791e-6 -90.00 6.061e-4 90.000
1.21000000 6.113e-4 90.000 1.806e-6 -90.00 1.806e-6 -90.00 6.112e-4 90.000
1.22000000 6.163e-4 90.000 1.820e-6 -90.00 1.820e-6 -90.00 6.162e-4 90.000
1.23000000 6.214e-4 90.000 1.835e-6 -90.00 1.835e-6 -90.00 6.213e-4 90.000
1.24000000 6.265e-4 90.000 1.850e-6 -90.00 1.850e-6 -90.00 6.263e-4 90.000
1.25000000 6.315e-4 90.000 1.864e-6 -90.00 1.864e-6 -90.00 6.314e-4 90.000
1.26000000 6.366e-4 90.000 1.879e-6 -90.00 1.879e-6 -90.00 6.365e-4 90.000
1.27000000 6.416e-4 90.000 1.893e-6 -90.00 1.893e-6 -90.00 6.415e-4 90.000
1.28000000 6.467e-4 90.000 1.908e-6 -90.00 1.908e-6 -90.00 6.466e-4 90.000
1.29000000 6.517e-4 90.000 1.922e-6 -90.00 1.922e-6 -90.00 6.516e-4 90.000
1.30000000 6.568e-4 90.000 1.937e-6 -90.00 1.937e-6 -90.00 6.567e-4 90.000
1.31000000 6.619e-4 90.000 1.951e-6 -90.00 1.951e-6 -90.00 6.617e-4 90.000
1.32000000 6.669e-4 90.000 1.966e-6 -90.00 1.966e-6 -90.00 6.668e-4 90.000
1.33000000 6.720e-4 90.000 1.980e-6 -90.00 1.980e-6 -90.00 6.719e-4 90.000
1.34000000 6.770e-4 90.000 1.995e-6 -90.00 1.995e-6 -90.00 6.769e-4 90.000
1.35000000 6.821e-4 90.000 2.009e-6 -90.00 2.009e-6 -90.00 6.820e-4 90.000
1.36000000 6.872e-4 90.000 2.024e-6 -90.00 2.024e-6 -90.00 6.870e-4 90.000
1.37000000 6.922e-4 90.000 2.038e-6 -90.00 2.038e-6 -90.00 6.921e-4 90.000
1.38000000 6.973e-4 90.000 2.053e-6 -90.00 2.053e-6 -90.00 6.972e-4 90.000
1.39000000 7.023e-4 90.000 2.067e-6 -90.00 2.067e-6 -90.00 7.022e-4 90.000
1.40000000 7.074e-4 90.000 2.082e-6 -90.00 2.082e-6 -90.00 7.073e-4 90.000
1.41000000 7.125e-4 90.000 2.096e-6 -90.00 2.096e-6 -90.00 7.123e-4 90.000
1.42000000 7.175e-4 90.000 2.110e-6 -90.00 2.110e-6 -90.00 7.174e-4 90.000
1.43000000 7.226e-4 90.000 2.125e-6 -90.00 2.125e-6 -90.00 7.224e-4 90.000
1.44000000 7.276e-4 90.000 2.139e-6 -90.00 2.139e-6 -90.00 7.275e-4 90.000
1.45000000 7.327e-4 90.000 2.154e-6 -90.00 2.154e-6 -90.00 7.326e-4 90.000
1.46000000 7.378e-4 90.000 2.168e-6 -90.00 2.168e-6 -90.00 7.376e-4 90.000
1.47000000 7.428e-4 90.000 2.182e-6 -90.00 2.182e-6 -90.00 7.427e-4 90.000
1.48000000 7.479e-4 90.000 2.197e-6 -90.00 2.197e-6 -90.00 7.477e-4 90.000
1.49000000 7.529e-4 90.000 2.211e-6 -90.00 2.211e-6 -90.00 7.528e-4 90.000
1.50000000 7.580e-4 90.000 2.225e-6 -90.00 2.225e-6 -90.00 7.579e-4 90.000
1.51000000 7.631e-4 90.000 2.240e-6 -90.00 2.240e-6 -90.00 7.629e-4 90.000
1.52000000 7.681e-4 90.000 2.254e-6 -90.00 2.254e-6 -90.00 7.680e-4 90.000
1.53000000 7.732e-4 90.000 2.268e-6 -90.00 2.268e-6 -90.00 7.730e-4 90.000
1.54000000 7.782e-4 90.000 2.283e-6 -90.00 2.283e-6 -90.00 7.781e-4 90.000
1.55000000 7.833e-4 90.000 2.297e-6 -90.00 2.297e-6 -90.00 7.832e-4 90.000
1.56000000 7.884e-4 90.000 2.311e-6 -90.00 2.311e-6 -90.00 7.882e-4 90.000
1.57000000 7.934e-4 90.000 2.325e-6 -90.00 2.325e-6 -90.00 7.933e-4 90.000
1.58000000 7.985e-4 90.000 2.340e-6 -90.00 2.340e-6 -90.00 7.983e-4 90.000
!< P1 F=1.58 Eeff=(6.16230791 -5.5185e-6) Z0=(157.445062 7.05848e-5) R=0.03167467 C=0.00301174 
!< P2 F=1.58 Eeff=(6.2017538 -5.5581e-6) Z0=(158.24513 7.0842e-5) R=0.03168248 C=0.00302496 
1.59000000 8.035e-4 90.000 2.354e-6 -90.00 2.354e-6 -90.00 8.034e-4 90.000
1.60000000 8.086e-4 90.000 2.368e-6 -90.00 2.368e-6 -90.00 8.085e-4 90.000
1.61000000 8.137e-4 90.000 2.382e-6 -90.00 2.382e-6 -90.00 8.135e-4 90.000
1.62000000 8.187e-4 90.000 2.396e-6 -90.00 2.396e-6 -90.00 8.186e-4 90.000
1.63000000 8.238e-4 90.000 2.411e-6 -90.00 2.411e-6 -90.00 8.237e-4 90.000
1.64000000 8.289e-4 90.000 2.425e-6 -90.00 2.425e-6 -90.00 8.287e-4 90.000
1.65000000 8.339e-4 90.000 2.439e-6 -90.00 2.439e-6 -90.00 8.338e-4 90.000
1.66000000 8.390e-4 90.000 2.453e-6 -90.00 2.453e-6 -90.00 8.388e-4 90.000
1.67000000 8.440e-4 90.000 2.467e-6 -90.00 2.467e-6 -90.00 8.439e-4 90.000
1.68000000 8.491e-4 90.000 2.481e-6 -90.00 2.481e-6 -90.00 8.490e-4 90.000
1.69000000 8.542e-4 90.000 2.496e-6 -90.00 2.496e-6 -90.00 8.540e-4 90.000
1.70000000 8.592e-4 90.000 2.510e-6 -90.00 2.510e-6 -90.00 8.591e-4 90.000
1.71000000 8.643e-4 90.000 2.524e-6 -90.00 2.524e-6 -90.00 8.642e-4 90.000
1.72000000 8.694e-4 90.000 2.538e-6 -90.00 2.538e-6 -90.00 8.692e-4 90.000
1.73000000 8.744e-4 90.000 2.552e-6 -90.00 2.552e-6 -90.00 8.743e-4 90.000
1.74000000 8.795e-4 90.000 2.566e-6 -90.00 2.566e-6 -90.00 8.793e-4 90.000
1.75000000 8.846e-4 90.000 2.580e-6 -90.00 2.580e-6 -90.00 8.844e-4 90.000
1.76000000 8.896e-4 90.000 2.594e-6 -90.00 2.594e-6 -90.00 8.895e-4 90.000
1.77000000 8.947e-4 90.000 2.608e-6 -90.00 2.608e-6 -90.00 8.945e-4 90.000
1.78000000 8.998e-4 90.000 2.622e-6 -90.00 2.622e-6 -90.00 8.996e-4 90.000
1.79000000 9.048e-4 90.000 2.636e-6 -90.00 2.636e-6 -90.00 9.047e-4 90.000
1.80000000 9.099e-4 90.000 2.650e-6 -90.00 2.650e-6 -90.00 9.097e-4 90.000
1.81000000 9.150e-4 90.000 2.664e-6 -90.00 2.664e-6 -90.00 9.148e-4 90.000
1.82000000 9.200e-4 90.000 2.678e-6 -90.00 2.678e-6 -90.00 9.199e-4 90.000
1.83000000 9.251e-4 90.000 2.692e-6 -90.00 2.692e-6 -90.00 9.249e-4 90.000
1.84000000 9.302e-4 90.000 2.706e-6 -90.00 2.706e-6 -90.00 9.300e-4 90.000
1.85000000 9.352e-4 90.000 2.720e-6 -90.00 2.720e-6 -90.00 9.351e-4 90.000
1.86000000 9.403e-4 90.000 2.734e-6 -90.00 2.734e-6 -90.00 9.401e-4 90.000
1.87000000 9.454e-4 90.000 2.748e-6 -90.00 2.748e-6 -90.00 9.452e-4 90.000
1.88000000 9.504e-4 90.000 2.762e-6 -90.00 2.762e-6 -90.00 9.503e-4 90.000
1.89000000 9.555e-4 90.000 2.776e-6 -90.00 2.776e-6 -90.00 9.553e-4 90.000
1.90000000 9.606e-4 90.000 2.790e-6 -90.00 2.790e-6 -90.00 9.604e-4 90.000
1.91000000 9.656e-4 90.000 2.803e-6 -90.00 2.803e-6 -90.00 9.655e-4 90.000
1.92000000 9.707e-4 90.000 2.817e-6 -90.00 2.817e-6 -90.00 9.705e-4 90.000
1.93000000 9.758e-4 90.000 2.831e-6 -90.00 2.831e-6 -90.00 9.756e-4 90.000
1.94000000 9.808e-4 90.000 2.845e-6 -90.00 2.845e-6 -90.00 9.807e-4 90.000
1.95000000 9.859e-4 90.000 2.859e-6 -90.00 2.859e-6 -90.00 9.857e-4 90.000
1.96000000 9.910e-4 90.000 2.872e-6 -90.00 2.872e-6 -90.00 9.908e-4 90.000
1.97000000 9.960e-4 90.000 2.886e-6 -90.00 2.886e-6 -90.00 9.959e-4 90.000
1.98000000 0.001001 90.000 2.900e-6 -90.00 2.900e-6 -90.00 0.001001 90.000
1.99000000 0.001006 90.000 2.914e-6 -90.00 2.914e-6 -90.00 0.001006 90.000
2.00000000 0.001011 90.000 2.928e-6 -90.00 2.928e-6 -90.00 0.001011 90.000
!< P1 F=2.0 Eeff=(6.16240488 -5.515e-6) Z0=(157.447253 7.07135e-5) R=0.02492017 C=0.00301181 
!< P2 F=2.0 Eeff=(6.20185684 -5.55e-6) Z0=(158.247556 7.09831e-5) R=0.02486125 C=0.00302503 
