! Sonnet Data File
! From: em Version : 14.52
! From Project: CC_q2
! Data is De-embedded 
! Data File Written: 01/08/2019 06:22:19
!< HDATE 01/07/2019 22:19:06
!< MDATE 01/07/2019 22:19:06
# GHZ Y MA R 1.0
0.00100000 5.175e-7 90.002 2.337e-9 -89.99 2.338e-9 -90.00 5.176e-7 89.994
!< P1 F=0.001 Eeff=(undefined: sl) Z0=(undefined: sl) R=0.0 C=0.0 
!< P2 F=0.001 Eeff=(undefined: sl) Z0=(undefined: sl) R=0.0 C=0.0 
0.01000000 5.175e-6 90.001 2.336e-8 -90.06 2.336e-8 -90.06 5.177e-6 90.000
0.02000000 1.035e-5 90.000 4.672e-8 -90.06 4.672e-8 -90.06 1.035e-5 90.000
0.03000000 1.552e-5 90.000 7.008e-8 -90.06 7.008e-8 -90.06 1.553e-5 90.000
0.04000000 2.070e-5 90.000 9.344e-8 -90.06 9.344e-8 -90.06 2.071e-5 90.000
0.05000000 2.587e-5 90.000 1.168e-7 -90.06 1.168e-7 -90.06 2.588e-5 90.000
0.06000000 3.105e-5 90.000 1.402e-7 -90.06 1.402e-7 -90.06 3.106e-5 90.000
0.07000000 3.622e-5 90.000 1.635e-7 -90.06 1.635e-7 -90.06 3.624e-5 90.000
0.08000000 4.140e-5 90.000 1.869e-7 -90.06 1.869e-7 -90.06 4.141e-5 90.000
0.09000000 4.657e-5 90.000 2.102e-7 -90.05 2.102e-7 -90.05 4.659e-5 90.000
0.10000000 5.175e-5 90.000 2.336e-7 -90.05 2.336e-7 -90.05 5.177e-5 90.000
0.11000000 5.692e-5 90.000 2.569e-7 -90.05 2.569e-7 -90.05 5.694e-5 90.000
0.12000000 6.210e-5 90.000 2.803e-7 -90.05 2.803e-7 -90.05 6.212e-5 90.000
0.13000000 6.727e-5 90.000 3.036e-7 -90.05 3.036e-7 -90.05 6.730e-5 90.000
0.14000000 7.245e-5 90.000 3.270e-7 -90.05 3.270e-7 -90.05 7.247e-5 90.000
0.15000000 7.762e-5 90.000 3.503e-7 -90.05 3.503e-7 -90.05 7.765e-5 90.000
0.16000000 8.280e-5 90.000 3.737e-7 -90.05 3.737e-7 -90.05 8.283e-5 90.000
0.17000000 8.797e-5 90.000 3.970e-7 -90.05 3.970e-7 -90.05 8.800e-5 90.000
0.18000000 9.315e-5 90.000 4.204e-7 -90.04 4.204e-7 -90.04 9.318e-5 90.000
0.19000000 9.832e-5 90.000 4.437e-7 -90.04 4.437e-7 -90.04 9.836e-5 90.000
0.20000000 1.035e-4 90.000 4.671e-7 -90.04 4.671e-7 -90.04 1.035e-4 90.000
0.21000000 1.087e-4 90.000 4.904e-7 -90.04 4.904e-7 -90.04 1.087e-4 90.000
0.22000000 1.138e-4 90.000 5.138e-7 -90.04 5.138e-7 -90.04 1.139e-4 90.000
0.23000000 1.190e-4 90.000 5.371e-7 -90.04 5.371e-7 -90.04 1.191e-4 90.000
0.24000000 1.242e-4 90.000 5.604e-7 -90.04 5.604e-7 -90.04 1.242e-4 90.000
0.25000000 1.294e-4 90.000 5.838e-7 -90.04 5.838e-7 -90.04 1.294e-4 90.000
0.26000000 1.345e-4 90.000 6.071e-7 -90.04 6.071e-7 -90.04 1.346e-4 90.000
0.27000000 1.397e-4 90.000 6.305e-7 -90.04 6.305e-7 -90.04 1.398e-4 90.000
0.28000000 1.449e-4 90.000 6.538e-7 -90.03 6.538e-7 -90.03 1.449e-4 90.000
0.29000000 1.501e-4 90.000 6.771e-7 -90.03 6.771e-7 -90.03 1.501e-4 90.000
0.30000000 1.552e-4 90.000 7.005e-7 -90.03 7.005e-7 -90.03 1.553e-4 90.000
0.31000000 1.604e-4 90.000 7.238e-7 -90.03 7.238e-7 -90.03 1.605e-4 90.000
0.32000000 1.656e-4 90.000 7.471e-7 -90.03 7.471e-7 -90.03 1.657e-4 90.000
0.33000000 1.708e-4 90.000 7.704e-7 -90.03 7.704e-7 -90.03 1.708e-4 90.000
0.34000000 1.759e-4 90.000 7.938e-7 -90.03 7.938e-7 -90.03 1.760e-4 90.000
0.35000000 1.811e-4 90.000 8.171e-7 -90.03 8.171e-7 -90.03 1.812e-4 90.000
0.36000000 1.863e-4 90.000 8.404e-7 -90.03 8.404e-7 -90.03 1.864e-4 90.000
0.37000000 1.915e-4 90.000 8.637e-7 -90.03 8.637e-7 -90.03 1.915e-4 90.000
0.38000000 1.966e-4 90.000 8.870e-7 -90.03 8.870e-7 -90.03 1.967e-4 90.000
0.39000000 2.018e-4 90.000 9.103e-7 -90.03 9.103e-7 -90.03 2.019e-4 90.000
0.40000000 2.070e-4 90.000 9.336e-7 -90.02 9.336e-7 -90.02 2.071e-4 90.000
0.41000000 2.122e-4 90.000 9.569e-7 -90.02 9.569e-7 -90.02 2.123e-4 90.000
0.42000000 2.174e-4 90.000 9.802e-7 -90.02 9.802e-7 -90.02 2.174e-4 90.000
0.43000000 2.225e-4 90.000 1.004e-6 -90.02 1.004e-6 -90.02 2.226e-4 90.000
0.44000000 2.277e-4 90.000 1.027e-6 -90.02 1.027e-6 -90.02 2.278e-4 90.000
0.45000000 2.329e-4 90.000 1.050e-6 -90.02 1.050e-6 -90.02 2.330e-4 90.000
0.46000000 2.381e-4 90.000 1.073e-6 -90.02 1.073e-6 -90.02 2.381e-4 90.000
0.47000000 2.432e-4 90.000 1.097e-6 -90.02 1.097e-6 -90.02 2.433e-4 90.000
0.48000000 2.484e-4 90.000 1.120e-6 -90.02 1.120e-6 -90.02 2.485e-4 90.000
0.49000000 2.536e-4 90.000 1.143e-6 -90.02 1.143e-6 -90.02 2.537e-4 90.000
0.50000000 2.588e-4 90.000 1.167e-6 -90.02 1.167e-6 -90.02 2.588e-4 90.000
0.51000000 2.639e-4 90.000 1.190e-6 -90.02 1.190e-6 -90.02 2.640e-4 90.000
0.52000000 2.691e-4 90.000 1.213e-6 -90.02 1.213e-6 -90.02 2.692e-4 90.000
0.53000000 2.743e-4 90.000 1.236e-6 -90.02 1.236e-6 -90.02 2.744e-4 90.000
0.54000000 2.795e-4 90.000 1.260e-6 -90.02 1.260e-6 -90.02 2.796e-4 90.000
0.55000000 2.846e-4 90.000 1.283e-6 -90.01 1.283e-6 -90.01 2.847e-4 90.000
0.56000000 2.898e-4 90.000 1.306e-6 -90.01 1.306e-6 -90.01 2.899e-4 90.000
0.57000000 2.950e-4 90.000 1.329e-6 -90.01 1.329e-6 -90.01 2.951e-4 90.000
0.58000000 3.002e-4 90.000 1.353e-6 -90.01 1.353e-6 -90.01 3.003e-4 90.000
0.59000000 3.053e-4 90.000 1.376e-6 -90.01 1.376e-6 -90.01 3.055e-4 90.000
0.60000000 3.105e-4 90.000 1.399e-6 -90.01 1.399e-6 -90.01 3.106e-4 90.000
0.61000000 3.157e-4 90.000 1.422e-6 -90.01 1.422e-6 -90.01 3.158e-4 90.000
0.62000000 3.209e-4 90.000 1.446e-6 -90.01 1.446e-6 -90.01 3.210e-4 90.000
0.63000000 3.261e-4 90.000 1.469e-6 -90.01 1.469e-6 -90.01 3.262e-4 90.000
0.64000000 3.312e-4 90.000 1.492e-6 -90.01 1.492e-6 -90.01 3.313e-4 90.000
0.65000000 3.364e-4 90.000 1.515e-6 -90.01 1.515e-6 -90.01 3.365e-4 90.000
0.66000000 3.416e-4 90.000 1.539e-6 -90.01 1.539e-6 -90.01 3.417e-4 90.000
0.67000000 3.468e-4 90.000 1.562e-6 -90.01 1.562e-6 -90.01 3.469e-4 90.000
0.68000000 3.519e-4 90.000 1.585e-6 -90.01 1.585e-6 -90.01 3.521e-4 90.000
0.69000000 3.571e-4 90.000 1.608e-6 -90.01 1.608e-6 -90.01 3.572e-4 90.000
0.70000000 3.623e-4 90.000 1.631e-6 -90.01 1.631e-6 -90.01 3.624e-4 90.000
0.71000000 3.675e-4 90.000 1.655e-6 -90.01 1.655e-6 -90.01 3.676e-4 90.000
0.72000000 3.726e-4 90.000 1.678e-6 -90.01 1.678e-6 -90.01 3.728e-4 90.000
0.73000000 3.778e-4 90.000 1.701e-6 -90.01 1.701e-6 -90.01 3.780e-4 90.000
0.74000000 3.830e-4 90.000 1.724e-6 -90.01 1.724e-6 -90.01 3.831e-4 90.000
0.75000000 3.882e-4 90.000 1.747e-6 -90.01 1.747e-6 -90.01 3.883e-4 90.000
0.76000000 3.934e-4 90.000 1.771e-6 -90.01 1.771e-6 -90.01 3.935e-4 90.000
0.77000000 3.985e-4 90.000 1.794e-6 -90.01 1.794e-6 -90.01 3.987e-4 90.000
0.78000000 4.037e-4 90.000 1.817e-6 -90.00 1.817e-6 -90.00 4.039e-4 90.000
0.79000000 4.089e-4 90.000 1.840e-6 -90.00 1.840e-6 -90.00 4.090e-4 90.000
0.80000000 4.141e-4 90.000 1.863e-6 -90.00 1.863e-6 -90.00 4.142e-4 90.000
0.81000000 4.192e-4 90.000 1.886e-6 -90.00 1.886e-6 -90.00 4.194e-4 90.000
0.82000000 4.244e-4 90.000 1.910e-6 -90.00 1.910e-6 -90.00 4.246e-4 90.000
0.83000000 4.296e-4 90.000 1.933e-6 -90.00 1.933e-6 -90.00 4.298e-4 90.000
0.84000000 4.348e-4 90.000 1.956e-6 -90.00 1.956e-6 -90.00 4.349e-4 90.000
0.85000000 4.400e-4 90.000 1.979e-6 -90.00 1.979e-6 -90.00 4.401e-4 90.000
0.86000000 4.451e-4 90.000 2.002e-6 -90.00 2.002e-6 -90.00 4.453e-4 90.000
0.87000000 4.503e-4 90.000 2.025e-6 -90.00 2.025e-6 -90.00 4.505e-4 90.000
0.88000000 4.555e-4 90.000 2.048e-6 -90.00 2.048e-6 -90.00 4.557e-4 90.000
0.89000000 4.607e-4 90.000 2.071e-6 -90.00 2.071e-6 -90.00 4.608e-4 90.000
0.90000000 4.659e-4 90.000 2.095e-6 -90.00 2.095e-6 -90.00 4.660e-4 90.000
0.91000000 4.710e-4 90.000 2.118e-6 -90.00 2.118e-6 -90.00 4.712e-4 90.000
0.92000000 4.762e-4 90.000 2.141e-6 -90.00 2.141e-6 -90.00 4.764e-4 90.000
0.93000000 4.814e-4 90.000 2.164e-6 -90.00 2.164e-6 -90.00 4.816e-4 90.000
0.94000000 4.866e-4 90.000 2.187e-6 -90.00 2.187e-6 -90.00 4.867e-4 90.000
0.95000000 4.918e-4 90.000 2.210e-6 -90.00 2.210e-6 -90.00 4.919e-4 90.000
0.96000000 4.969e-4 90.000 2.233e-6 -90.00 2.233e-6 -90.00 4.971e-4 90.000
0.97000000 5.021e-4 90.000 2.256e-6 -90.00 2.256e-6 -90.00 5.023e-4 90.000
0.98000000 5.073e-4 90.000 2.279e-6 -90.00 2.279e-6 -90.00 5.075e-4 90.000
0.99000000 5.125e-4 90.000 2.302e-6 -90.00 2.302e-6 -90.00 5.126e-4 90.000
1.00000000 5.177e-4 90.000 2.325e-6 -90.00 2.325e-6 -90.00 5.178e-4 90.000
!< P1 F=1.0 Eeff=(6.21606525 -5.5665e-6) Z0=(158.516392 7.09831e-5) R=0.04985368 C=0.0030289 
!< P2 F=1.0 Eeff=(6.14315885 -5.5338e-6) Z0=(157.026578 7.02101e-5) R=0.05082662 C=0.00300399 
1.01000000 5.228e-4 90.000 2.348e-6 -90.00 2.348e-6 -90.00 5.230e-4 90.000
1.02000000 5.280e-4 90.000 2.371e-6 -90.00 2.371e-6 -90.00 5.282e-4 90.000
1.03000000 5.332e-4 90.000 2.394e-6 -90.00 2.394e-6 -90.00 5.334e-4 90.000
1.04000000 5.384e-4 90.000 2.417e-6 -90.00 2.417e-6 -90.00 5.386e-4 90.000
1.05000000 5.436e-4 90.000 2.440e-6 -90.00 2.440e-6 -90.00 5.437e-4 90.000
1.06000000 5.487e-4 90.000 2.463e-6 -90.00 2.463e-6 -90.00 5.489e-4 90.000
1.07000000 5.539e-4 90.000 2.486e-6 -90.00 2.486e-6 -90.00 5.541e-4 90.000
1.08000000 5.591e-4 90.000 2.509e-6 -90.00 2.509e-6 -90.00 5.593e-4 90.000
1.09000000 5.643e-4 90.000 2.532e-6 -90.00 2.532e-6 -90.00 5.645e-4 90.000
1.10000000 5.695e-4 90.000 2.555e-6 -90.00 2.555e-6 -90.00 5.697e-4 90.000
1.11000000 5.746e-4 90.000 2.578e-6 -90.00 2.578e-6 -90.00 5.748e-4 90.000
1.12000000 5.798e-4 90.000 2.601e-6 -90.00 2.601e-6 -90.00 5.800e-4 90.000
1.13000000 5.850e-4 90.000 2.624e-6 -90.00 2.624e-6 -90.00 5.852e-4 90.000
1.14000000 5.902e-4 90.000 2.647e-6 -90.00 2.647e-6 -90.00 5.904e-4 90.000
1.15000000 5.954e-4 90.000 2.670e-6 -90.00 2.670e-6 -90.00 5.956e-4 90.000
1.16000000 6.005e-4 90.000 2.693e-6 -90.00 2.693e-6 -90.00 6.008e-4 90.000
1.17000000 6.057e-4 90.000 2.716e-6 -90.00 2.716e-6 -90.00 6.059e-4 90.000
1.18000000 6.109e-4 90.000 2.739e-6 -90.00 2.739e-6 -90.00 6.111e-4 90.000
1.19000000 6.161e-4 90.000 2.762e-6 -90.00 2.762e-6 -90.00 6.163e-4 90.000
1.20000000 6.213e-4 90.000 2.785e-6 -90.00 2.785e-6 -90.00 6.215e-4 90.000
1.21000000 6.265e-4 90.000 2.808e-6 -90.00 2.808e-6 -90.00 6.267e-4 90.000
1.22000000 6.316e-4 90.000 2.831e-6 -90.00 2.831e-6 -90.00 6.319e-4 90.000
1.23000000 6.368e-4 90.000 2.853e-6 -90.00 2.853e-6 -90.00 6.370e-4 90.000
1.24000000 6.420e-4 90.000 2.876e-6 -90.00 2.876e-6 -90.00 6.422e-4 90.000
1.25000000 6.472e-4 90.000 2.899e-6 -90.00 2.899e-6 -90.00 6.474e-4 90.000
1.26000000 6.524e-4 90.000 2.922e-6 -90.00 2.922e-6 -90.00 6.526e-4 90.000
1.27000000 6.576e-4 90.000 2.945e-6 -90.00 2.945e-6 -90.00 6.578e-4 90.000
1.28000000 6.627e-4 90.000 2.968e-6 -90.00 2.968e-6 -90.00 6.630e-4 90.000
1.29000000 6.679e-4 90.000 2.991e-6 -90.00 2.991e-6 -90.00 6.682e-4 90.000
1.30000000 6.731e-4 90.000 3.013e-6 -90.00 3.013e-6 -90.00 6.733e-4 90.000
1.31000000 6.783e-4 90.000 3.036e-6 -90.00 3.036e-6 -90.00 6.785e-4 90.000
1.32000000 6.835e-4 90.000 3.059e-6 -90.00 3.059e-6 -90.00 6.837e-4 90.000
1.33000000 6.887e-4 90.000 3.082e-6 -90.00 3.082e-6 -90.00 6.889e-4 90.000
1.34000000 6.938e-4 90.000 3.105e-6 -90.00 3.105e-6 -90.00 6.941e-4 90.000
1.35000000 6.990e-4 90.000 3.127e-6 -90.00 3.127e-6 -90.00 6.993e-4 90.000
1.36000000 7.042e-4 90.000 3.150e-6 -90.00 3.150e-6 -90.00 7.045e-4 90.000
1.37000000 7.094e-4 90.000 3.173e-6 -90.00 3.173e-6 -90.00 7.096e-4 90.000
1.38000000 7.146e-4 90.000 3.196e-6 -90.00 3.196e-6 -90.00 7.148e-4 90.000
1.39000000 7.198e-4 90.000 3.218e-6 -90.00 3.218e-6 -90.00 7.200e-4 90.000
1.40000000 7.250e-4 90.000 3.241e-6 -90.00 3.241e-6 -90.00 7.252e-4 90.000
1.41000000 7.301e-4 90.000 3.264e-6 -90.00 3.264e-6 -90.00 7.304e-4 90.000
1.42000000 7.353e-4 90.000 3.287e-6 -90.00 3.287e-6 -90.00 7.356e-4 90.000
1.43000000 7.405e-4 90.000 3.309e-6 -90.00 3.309e-6 -90.00 7.408e-4 90.000
1.44000000 7.457e-4 90.000 3.332e-6 -90.00 3.332e-6 -90.00 7.459e-4 90.000
1.45000000 7.509e-4 90.000 3.355e-6 -90.00 3.355e-6 -90.00 7.511e-4 90.000
1.46000000 7.561e-4 90.000 3.377e-6 -90.00 3.377e-6 -90.00 7.563e-4 90.000
1.47000000 7.613e-4 90.000 3.400e-6 -90.00 3.400e-6 -90.00 7.615e-4 90.000
1.48000000 7.664e-4 90.000 3.423e-6 -90.00 3.423e-6 -90.00 7.667e-4 90.000
1.49000000 7.716e-4 90.000 3.445e-6 -90.00 3.445e-6 -90.00 7.719e-4 90.000
1.50000000 7.768e-4 90.000 3.468e-6 -90.00 3.468e-6 -90.00 7.771e-4 90.000
1.51000000 7.820e-4 90.000 3.491e-6 -90.00 3.491e-6 -90.00 7.823e-4 90.000
1.52000000 7.872e-4 90.000 3.513e-6 -90.00 3.513e-6 -90.00 7.875e-4 90.000
1.53000000 7.924e-4 90.000 3.536e-6 -90.00 3.536e-6 -90.00 7.926e-4 90.000
1.54000000 7.976e-4 90.000 3.559e-6 -90.00 3.559e-6 -90.00 7.978e-4 90.000
1.55000000 8.027e-4 90.000 3.581e-6 -90.00 3.581e-6 -90.00 8.030e-4 90.000
1.56000000 8.079e-4 90.000 3.604e-6 -90.00 3.604e-6 -90.00 8.082e-4 90.000
1.57000000 8.131e-4 90.000 3.626e-6 -90.00 3.626e-6 -90.00 8.134e-4 90.000
1.58000000 8.183e-4 90.000 3.649e-6 -90.00 3.649e-6 -90.00 8.186e-4 90.000
!< P1 F=1.58 Eeff=(6.21616703 -5.5689e-6) Z0=(158.518854 7.10471e-5) R=0.03147334 C=0.00302897 
!< P2 F=1.58 Eeff=(6.14324964 -5.4953e-6) Z0=(157.02861 7.05332e-5) R=0.03155306 C=0.00300405 
1.59000000 8.235e-4 90.000 3.672e-6 -90.00 3.672e-6 -90.00 8.238e-4 90.000
1.60000000 8.287e-4 90.000 3.694e-6 -90.00 3.694e-6 -90.00 8.290e-4 90.000
1.61000000 8.339e-4 90.000 3.717e-6 -90.00 3.717e-6 -90.00 8.342e-4 90.000
1.62000000 8.391e-4 90.000 3.739e-6 -90.00 3.739e-6 -90.00 8.393e-4 90.000
1.63000000 8.443e-4 90.000 3.762e-6 -90.00 3.762e-6 -90.00 8.445e-4 90.000
1.64000000 8.494e-4 90.000 3.784e-6 -90.00 3.784e-6 -90.00 8.497e-4 90.000
1.65000000 8.546e-4 90.000 3.807e-6 -90.00 3.807e-6 -90.00 8.549e-4 90.000
1.66000000 8.598e-4 90.000 3.829e-6 -90.00 3.829e-6 -90.00 8.601e-4 90.000
1.67000000 8.650e-4 90.000 3.852e-6 -90.00 3.852e-6 -90.00 8.653e-4 90.000
1.68000000 8.702e-4 90.000 3.874e-6 -90.00 3.874e-6 -90.00 8.705e-4 90.000
1.69000000 8.754e-4 90.000 3.897e-6 -90.00 3.897e-6 -90.00 8.757e-4 90.000
1.70000000 8.806e-4 90.000 3.919e-6 -90.00 3.919e-6 -90.00 8.809e-4 90.000
1.71000000 8.858e-4 90.000 3.942e-6 -90.00 3.942e-6 -90.00 8.861e-4 90.000
1.72000000 8.910e-4 90.000 3.964e-6 -90.00 3.964e-6 -90.00 8.913e-4 90.000
1.73000000 8.962e-4 90.000 3.986e-6 -90.00 3.986e-6 -90.00 8.965e-4 90.000
1.74000000 9.013e-4 90.000 4.009e-6 -90.00 4.009e-6 -90.00 9.016e-4 90.000
1.75000000 9.065e-4 90.000 4.031e-6 -90.00 4.031e-6 -90.00 9.068e-4 90.000
1.76000000 9.117e-4 90.000 4.054e-6 -90.00 4.054e-6 -90.00 9.120e-4 90.000
1.77000000 9.169e-4 90.000 4.076e-6 -90.00 4.076e-6 -90.00 9.172e-4 90.000
1.78000000 9.221e-4 90.000 4.098e-6 -90.00 4.098e-6 -90.00 9.224e-4 90.000
1.79000000 9.273e-4 90.000 4.121e-6 -90.00 4.121e-6 -90.00 9.276e-4 90.000
1.80000000 9.325e-4 90.000 4.143e-6 -90.00 4.143e-6 -90.00 9.328e-4 90.000
1.81000000 9.377e-4 90.000 4.165e-6 -90.00 4.165e-6 -90.00 9.380e-4 90.000
1.82000000 9.429e-4 90.000 4.188e-6 -90.00 4.188e-6 -90.00 9.432e-4 90.000
1.83000000 9.481e-4 90.000 4.210e-6 -90.00 4.210e-6 -90.00 9.484e-4 90.000
1.84000000 9.533e-4 90.000 4.232e-6 -90.00 4.232e-6 -90.00 9.536e-4 90.000
1.85000000 9.585e-4 90.000 4.254e-6 -90.00 4.254e-6 -90.00 9.588e-4 90.000
1.86000000 9.636e-4 90.000 4.277e-6 -90.00 4.277e-6 -90.00 9.640e-4 90.000
1.87000000 9.688e-4 90.000 4.299e-6 -90.00 4.299e-6 -90.00 9.692e-4 90.000
1.88000000 9.740e-4 90.000 4.321e-6 -90.00 4.321e-6 -90.00 9.744e-4 90.000
1.89000000 9.792e-4 90.000 4.343e-6 -90.00 4.343e-6 -90.00 9.796e-4 90.000
1.90000000 9.844e-4 90.000 4.366e-6 -90.00 4.366e-6 -90.00 9.848e-4 90.000
1.91000000 9.896e-4 90.000 4.388e-6 -90.00 4.388e-6 -90.00 9.899e-4 90.000
1.92000000 9.948e-4 90.000 4.410e-6 -90.00 4.410e-6 -90.00 9.951e-4 90.000
1.93000000 0.001000 90.000 4.432e-6 -90.00 4.432e-6 -90.00 0.001000 90.000
1.94000000 0.001005 90.000 4.454e-6 -90.00 4.454e-6 -90.00 0.001006 90.000
1.95000000 0.001010 90.000 4.477e-6 -90.00 4.477e-6 -90.00 0.001011 90.000
1.96000000 0.001016 90.000 4.499e-6 -90.00 4.499e-6 -90.00 0.001016 90.000
1.97000000 0.001021 90.000 4.521e-6 -90.00 4.521e-6 -90.00 0.001021 90.000
1.98000000 0.001026 90.000 4.543e-6 -90.00 4.543e-6 -90.00 0.001026 90.000
1.99000000 0.001031 90.000 4.565e-6 -90.00 4.565e-6 -90.00 0.001032 90.000
2.00000000 0.001036 90.000 4.587e-6 -90.00 4.587e-6 -90.00 0.001037 90.000
!< P1 F=2.0 Eeff=(6.21627232 -5.5674e-6) Z0=(158.521367 7.10983e-5) R=0.02480983 C=0.00302904 
!< P2 F=2.0 Eeff=(6.14334376 -5.5028e-6) Z0=(157.03069 7.0559e-5) R=0.02494534 C=0.00300411 
