! Sonnet Data File
! From: em Version : 14.52
! From Project: Cc_Q3
! Data is De-embedded 
! Data File Written: 01/08/2019 06:40:54
!< HDATE 01/07/2019 22:37:40
!< MDATE 01/07/2019 22:37:40
# GHZ Y MA R 1.0
0.00100000 5.206e-7 90.000 2.699e-9 -90.00 2.718e-9 -89.69 5.206e-7 89.995
!< P1 F=0.001 Eeff=(undefined: sl) Z0=(undefined: sl) R=0.0 C=0.0 
!< P2 F=0.001 Eeff=(undefined: sl) Z0=(undefined: sl) R=0.0 C=0.0 
0.01000000 5.206e-6 90.000 2.700e-8 -90.01 2.700e-8 -90.01 5.206e-6 90.000
0.02000000 1.041e-5 90.000 5.398e-8 -90.03 5.398e-8 -90.03 1.041e-5 90.000
0.03000000 1.562e-5 90.000 8.097e-8 -90.03 8.097e-8 -90.03 1.562e-5 90.000
0.04000000 2.082e-5 90.000 1.079e-7 -90.04 1.079e-7 -90.04 2.082e-5 90.000
0.05000000 2.603e-5 90.000 1.349e-7 -90.04 1.349e-7 -90.04 2.603e-5 90.000
0.06000000 3.124e-5 90.000 1.619e-7 -90.04 1.619e-7 -90.04 3.124e-5 90.000
0.07000000 3.644e-5 90.000 1.889e-7 -90.04 1.889e-7 -90.04 3.644e-5 90.000
0.08000000 4.165e-5 90.000 2.159e-7 -90.04 2.159e-7 -90.04 4.165e-5 90.000
0.09000000 4.685e-5 90.000 2.429e-7 -90.04 2.429e-7 -90.04 4.686e-5 90.000
0.10000000 5.206e-5 90.000 2.698e-7 -90.04 2.698e-7 -90.04 5.206e-5 90.000
0.11000000 5.727e-5 90.000 2.968e-7 -90.04 2.968e-7 -90.04 5.727e-5 90.000
0.12000000 6.247e-5 90.000 3.238e-7 -90.03 3.238e-7 -90.03 6.247e-5 90.000
0.13000000 6.768e-5 90.000 3.508e-7 -90.03 3.508e-7 -90.03 6.768e-5 90.000
0.14000000 7.289e-5 90.000 3.777e-7 -90.03 3.777e-7 -90.03 7.289e-5 90.000
0.15000000 7.809e-5 90.000 4.047e-7 -90.03 4.047e-7 -90.03 7.809e-5 90.000
0.16000000 8.330e-5 90.000 4.317e-7 -90.03 4.317e-7 -90.03 8.330e-5 90.000
0.17000000 8.850e-5 90.000 4.587e-7 -90.03 4.587e-7 -90.03 8.851e-5 90.000
0.18000000 9.371e-5 90.000 4.856e-7 -90.03 4.856e-7 -90.03 9.371e-5 90.000
0.19000000 9.892e-5 90.000 5.126e-7 -90.03 5.126e-7 -90.03 9.892e-5 90.000
0.20000000 1.041e-4 90.000 5.396e-7 -90.03 5.396e-7 -90.03 1.041e-4 90.000
0.21000000 1.093e-4 90.000 5.666e-7 -90.03 5.666e-7 -90.03 1.093e-4 90.000
0.22000000 1.145e-4 90.000 5.935e-7 -90.03 5.935e-7 -90.03 1.145e-4 90.000
0.23000000 1.197e-4 90.000 6.205e-7 -90.03 6.205e-7 -90.03 1.197e-4 90.000
0.24000000 1.249e-4 90.000 6.475e-7 -90.03 6.475e-7 -90.03 1.250e-4 90.000
0.25000000 1.302e-4 90.000 6.744e-7 -90.03 6.744e-7 -90.03 1.302e-4 90.000
0.26000000 1.354e-4 90.000 7.014e-7 -90.03 7.014e-7 -90.03 1.354e-4 90.000
0.27000000 1.406e-4 90.000 7.283e-7 -90.02 7.283e-7 -90.02 1.406e-4 90.000
0.28000000 1.458e-4 90.000 7.553e-7 -90.02 7.553e-7 -90.02 1.458e-4 90.000
0.29000000 1.510e-4 90.000 7.823e-7 -90.02 7.823e-7 -90.02 1.510e-4 90.000
0.30000000 1.562e-4 90.000 8.092e-7 -90.02 8.092e-7 -90.02 1.562e-4 90.000
0.31000000 1.614e-4 90.000 8.362e-7 -90.02 8.362e-7 -90.02 1.614e-4 90.000
0.32000000 1.666e-4 90.000 8.631e-7 -90.02 8.631e-7 -90.02 1.666e-4 90.000
0.33000000 1.718e-4 90.000 8.901e-7 -90.02 8.901e-7 -90.02 1.718e-4 90.000
0.34000000 1.770e-4 90.000 9.170e-7 -90.02 9.170e-7 -90.02 1.770e-4 90.000
0.35000000 1.822e-4 90.000 9.440e-7 -90.02 9.440e-7 -90.02 1.822e-4 90.000
0.36000000 1.874e-4 90.000 9.709e-7 -90.02 9.709e-7 -90.02 1.874e-4 90.000
0.37000000 1.926e-4 90.000 9.979e-7 -90.02 9.979e-7 -90.02 1.926e-4 90.000
0.38000000 1.978e-4 90.000 1.025e-6 -90.02 1.025e-6 -90.02 1.978e-4 90.000
0.39000000 2.030e-4 90.000 1.052e-6 -90.02 1.052e-6 -90.02 2.031e-4 90.000
0.40000000 2.083e-4 90.000 1.079e-6 -90.02 1.079e-6 -90.02 2.083e-4 90.000
0.41000000 2.135e-4 90.000 1.106e-6 -90.02 1.106e-6 -90.02 2.135e-4 90.000
0.42000000 2.187e-4 90.000 1.133e-6 -90.02 1.133e-6 -90.02 2.187e-4 90.000
0.43000000 2.239e-4 90.000 1.160e-6 -90.02 1.160e-6 -90.02 2.239e-4 90.000
0.44000000 2.291e-4 90.000 1.186e-6 -90.02 1.186e-6 -90.02 2.291e-4 90.000
0.45000000 2.343e-4 90.000 1.213e-6 -90.01 1.213e-6 -90.01 2.343e-4 90.000
0.46000000 2.395e-4 90.000 1.240e-6 -90.01 1.240e-6 -90.01 2.395e-4 90.000
0.47000000 2.447e-4 90.000 1.267e-6 -90.01 1.267e-6 -90.01 2.447e-4 90.000
0.48000000 2.499e-4 90.000 1.294e-6 -90.01 1.294e-6 -90.01 2.499e-4 90.000
0.49000000 2.551e-4 90.000 1.321e-6 -90.01 1.321e-6 -90.01 2.551e-4 90.000
0.50000000 2.603e-4 90.000 1.348e-6 -90.01 1.348e-6 -90.01 2.603e-4 90.000
0.51000000 2.655e-4 90.000 1.375e-6 -90.01 1.375e-6 -90.01 2.655e-4 90.000
0.52000000 2.707e-4 90.000 1.402e-6 -90.01 1.402e-6 -90.01 2.707e-4 90.000
0.53000000 2.759e-4 90.000 1.429e-6 -90.01 1.429e-6 -90.01 2.760e-4 90.000
0.54000000 2.812e-4 90.000 1.456e-6 -90.01 1.456e-6 -90.01 2.812e-4 90.000
0.55000000 2.864e-4 90.000 1.482e-6 -90.01 1.482e-6 -90.01 2.864e-4 90.000
0.56000000 2.916e-4 90.000 1.509e-6 -90.01 1.509e-6 -90.01 2.916e-4 90.000
0.57000000 2.968e-4 90.000 1.536e-6 -90.01 1.536e-6 -90.01 2.968e-4 90.000
0.58000000 3.020e-4 90.000 1.563e-6 -90.01 1.563e-6 -90.01 3.020e-4 90.000
0.59000000 3.072e-4 90.000 1.590e-6 -90.01 1.590e-6 -90.01 3.072e-4 90.000
0.60000000 3.124e-4 90.000 1.617e-6 -90.01 1.617e-6 -90.01 3.124e-4 90.000
0.61000000 3.176e-4 90.000 1.644e-6 -90.01 1.644e-6 -90.01 3.176e-4 90.000
0.62000000 3.228e-4 90.000 1.671e-6 -90.01 1.671e-6 -90.01 3.228e-4 90.000
0.63000000 3.280e-4 90.000 1.698e-6 -90.01 1.698e-6 -90.01 3.280e-4 90.000
0.64000000 3.332e-4 90.000 1.724e-6 -90.01 1.724e-6 -90.01 3.332e-4 90.000
0.65000000 3.384e-4 90.000 1.751e-6 -90.01 1.751e-6 -90.01 3.385e-4 90.000
0.66000000 3.437e-4 90.000 1.778e-6 -90.01 1.778e-6 -90.01 3.437e-4 90.000
0.67000000 3.489e-4 90.000 1.805e-6 -90.01 1.805e-6 -90.01 3.489e-4 90.000
0.68000000 3.541e-4 90.000 1.832e-6 -90.01 1.832e-6 -90.01 3.541e-4 90.000
0.69000000 3.593e-4 90.000 1.859e-6 -90.01 1.859e-6 -90.01 3.593e-4 90.000
0.70000000 3.645e-4 90.000 1.886e-6 -90.01 1.886e-6 -90.01 3.645e-4 90.000
0.71000000 3.697e-4 90.000 1.912e-6 -90.01 1.912e-6 -90.01 3.697e-4 90.000
0.72000000 3.749e-4 90.000 1.939e-6 -90.00 1.939e-6 -90.00 3.749e-4 90.000
0.73000000 3.801e-4 90.000 1.966e-6 -90.00 1.966e-6 -90.00 3.801e-4 90.000
0.74000000 3.853e-4 90.000 1.993e-6 -90.00 1.993e-6 -90.00 3.853e-4 90.000
0.75000000 3.905e-4 90.000 2.020e-6 -90.00 2.020e-6 -90.00 3.905e-4 90.000
0.76000000 3.957e-4 90.000 2.047e-6 -90.00 2.047e-6 -90.00 3.957e-4 90.000
0.77000000 4.009e-4 90.000 2.073e-6 -90.00 2.073e-6 -90.00 4.010e-4 90.000
0.78000000 4.062e-4 90.000 2.100e-6 -90.00 2.100e-6 -90.00 4.062e-4 90.000
0.79000000 4.114e-4 90.000 2.127e-6 -90.00 2.127e-6 -90.00 4.114e-4 90.000
0.80000000 4.166e-4 90.000 2.154e-6 -90.00 2.154e-6 -90.00 4.166e-4 90.000
0.81000000 4.218e-4 90.000 2.181e-6 -90.00 2.181e-6 -90.00 4.218e-4 90.000
0.82000000 4.270e-4 90.000 2.207e-6 -90.00 2.207e-6 -90.00 4.270e-4 90.000
0.83000000 4.322e-4 90.000 2.234e-6 -90.00 2.234e-6 -90.00 4.322e-4 90.000
0.84000000 4.374e-4 90.000 2.261e-6 -90.00 2.261e-6 -90.00 4.374e-4 90.000
0.85000000 4.426e-4 90.000 2.288e-6 -90.00 2.288e-6 -90.00 4.426e-4 90.000
0.86000000 4.478e-4 90.000 2.315e-6 -90.00 2.315e-6 -90.00 4.478e-4 90.000
0.87000000 4.530e-4 90.000 2.341e-6 -90.00 2.341e-6 -90.00 4.531e-4 90.000
0.88000000 4.583e-4 90.000 2.368e-6 -90.00 2.368e-6 -90.00 4.583e-4 90.000
0.89000000 4.635e-4 90.000 2.395e-6 -90.00 2.395e-6 -90.00 4.635e-4 90.000
0.90000000 4.687e-4 90.000 2.422e-6 -90.00 2.422e-6 -90.00 4.687e-4 90.000
0.91000000 4.739e-4 90.000 2.448e-6 -90.00 2.448e-6 -90.00 4.739e-4 90.000
0.92000000 4.791e-4 90.000 2.475e-6 -90.00 2.475e-6 -90.00 4.791e-4 90.000
0.93000000 4.843e-4 90.000 2.502e-6 -90.00 2.502e-6 -90.00 4.843e-4 90.000
0.94000000 4.895e-4 90.000 2.529e-6 -90.00 2.529e-6 -90.00 4.895e-4 90.000
0.95000000 4.947e-4 90.000 2.555e-6 -90.00 2.555e-6 -90.00 4.947e-4 90.000
0.96000000 4.999e-4 90.000 2.582e-6 -90.00 2.582e-6 -90.00 5.000e-4 90.000
0.97000000 5.051e-4 90.000 2.609e-6 -90.00 2.609e-6 -90.00 5.052e-4 90.000
0.98000000 5.104e-4 90.000 2.636e-6 -90.00 2.636e-6 -90.00 5.104e-4 90.000
0.99000000 5.156e-4 90.000 2.662e-6 -90.00 2.662e-6 -90.00 5.156e-4 90.000
1.00000000 5.208e-4 90.000 2.689e-6 -90.00 2.689e-6 -90.00 5.208e-4 90.000
!< P1 F=1.0 Eeff=(6.18586302 -5.5485e-6) Z0=(157.931882 7.08163e-5) R=0.04944198 C=0.00302001 
!< P2 F=1.0 Eeff=(6.17988738 -5.5639e-6) Z0=(157.811068 7.07649e-5) R=0.04982797 C=0.00301803 
1.01000000 5.260e-4 90.000 2.716e-6 -90.00 2.716e-6 -90.00 5.260e-4 90.000
1.02000000 5.312e-4 90.000 2.742e-6 -90.00 2.742e-6 -90.00 5.312e-4 90.000
1.03000000 5.364e-4 90.000 2.769e-6 -90.00 2.769e-6 -90.00 5.364e-4 90.000
1.04000000 5.416e-4 90.000 2.796e-6 -90.00 2.796e-6 -90.00 5.416e-4 90.000
1.05000000 5.468e-4 90.000 2.822e-6 -90.00 2.822e-6 -90.00 5.469e-4 90.000
1.06000000 5.521e-4 90.000 2.849e-6 -90.00 2.849e-6 -90.00 5.521e-4 90.000
1.07000000 5.573e-4 90.000 2.876e-6 -90.00 2.876e-6 -90.00 5.573e-4 90.000
1.08000000 5.625e-4 90.000 2.902e-6 -90.00 2.902e-6 -90.00 5.625e-4 90.000
1.09000000 5.677e-4 90.000 2.929e-6 -90.00 2.929e-6 -90.00 5.677e-4 90.000
1.10000000 5.729e-4 90.000 2.956e-6 -90.00 2.956e-6 -90.00 5.729e-4 90.000
1.11000000 5.781e-4 90.000 2.982e-6 -90.00 2.982e-6 -90.00 5.781e-4 90.000
1.12000000 5.833e-4 90.000 3.009e-6 -90.00 3.009e-6 -90.00 5.833e-4 90.000
1.13000000 5.885e-4 90.000 3.036e-6 -90.00 3.036e-6 -90.00 5.886e-4 90.000
1.14000000 5.938e-4 90.000 3.062e-6 -90.00 3.062e-6 -90.00 5.938e-4 90.000
1.15000000 5.990e-4 90.000 3.089e-6 -90.00 3.089e-6 -90.00 5.990e-4 90.000
1.16000000 6.042e-4 90.000 3.115e-6 -90.00 3.115e-6 -90.00 6.042e-4 90.000
1.17000000 6.094e-4 90.000 3.142e-6 -90.00 3.142e-6 -90.00 6.094e-4 90.000
1.18000000 6.146e-4 90.000 3.169e-6 -90.00 3.169e-6 -90.00 6.146e-4 90.000
1.19000000 6.198e-4 90.000 3.195e-6 -90.00 3.195e-6 -90.00 6.198e-4 90.000
1.20000000 6.250e-4 90.000 3.222e-6 -90.00 3.222e-6 -90.00 6.251e-4 90.000
1.21000000 6.302e-4 90.000 3.248e-6 -90.00 3.248e-6 -90.00 6.303e-4 90.000
1.22000000 6.355e-4 90.000 3.275e-6 -90.00 3.275e-6 -90.00 6.355e-4 90.000
1.23000000 6.407e-4 90.000 3.302e-6 -90.00 3.302e-6 -90.00 6.407e-4 90.000
1.24000000 6.459e-4 90.000 3.328e-6 -90.00 3.328e-6 -90.00 6.459e-4 90.000
1.25000000 6.511e-4 90.000 3.355e-6 -90.00 3.355e-6 -90.00 6.511e-4 90.000
1.26000000 6.563e-4 90.000 3.381e-6 -90.00 3.381e-6 -90.00 6.563e-4 90.000
1.27000000 6.615e-4 90.000 3.408e-6 -90.00 3.408e-6 -90.00 6.616e-4 90.000
1.28000000 6.667e-4 90.000 3.434e-6 -90.00 3.434e-6 -90.00 6.668e-4 90.000
1.29000000 6.720e-4 90.000 3.461e-6 -90.00 3.461e-6 -90.00 6.720e-4 90.000
1.30000000 6.772e-4 90.000 3.487e-6 -90.00 3.487e-6 -90.00 6.772e-4 90.000
1.31000000 6.824e-4 90.000 3.514e-6 -90.00 3.514e-6 -90.00 6.824e-4 90.000
1.32000000 6.876e-4 90.000 3.540e-6 -90.00 3.540e-6 -90.00 6.876e-4 90.000
1.33000000 6.928e-4 90.000 3.567e-6 -90.00 3.567e-6 -90.00 6.928e-4 90.000
1.34000000 6.980e-4 90.000 3.593e-6 -90.00 3.593e-6 -90.00 6.981e-4 90.000
1.35000000 7.033e-4 90.000 3.620e-6 -90.00 3.620e-6 -90.00 7.033e-4 90.000
1.36000000 7.085e-4 90.000 3.646e-6 -90.00 3.646e-6 -90.00 7.085e-4 90.000
1.37000000 7.137e-4 90.000 3.673e-6 -90.00 3.673e-6 -90.00 7.137e-4 90.000
1.38000000 7.189e-4 90.000 3.699e-6 -90.00 3.699e-6 -90.00 7.189e-4 90.000
1.39000000 7.241e-4 90.000 3.726e-6 -90.00 3.726e-6 -90.00 7.241e-4 90.000
1.40000000 7.293e-4 90.000 3.752e-6 -90.00 3.752e-6 -90.00 7.294e-4 90.000
1.41000000 7.346e-4 90.000 3.778e-6 -90.00 3.778e-6 -90.00 7.346e-4 90.000
1.42000000 7.398e-4 90.000 3.805e-6 -90.00 3.805e-6 -90.00 7.398e-4 90.000
1.43000000 7.450e-4 90.000 3.831e-6 -90.00 3.831e-6 -90.00 7.450e-4 90.000
1.44000000 7.502e-4 90.000 3.858e-6 -90.00 3.858e-6 -90.00 7.502e-4 90.000
1.45000000 7.554e-4 90.000 3.884e-6 -90.00 3.884e-6 -90.00 7.554e-4 90.000
1.46000000 7.606e-4 90.000 3.910e-6 -90.00 3.910e-6 -90.00 7.607e-4 90.000
1.47000000 7.659e-4 90.000 3.937e-6 -90.00 3.937e-6 -90.00 7.659e-4 90.000
1.48000000 7.711e-4 90.000 3.963e-6 -90.00 3.963e-6 -90.00 7.711e-4 90.000
1.49000000 7.763e-4 90.000 3.990e-6 -90.00 3.990e-6 -90.00 7.763e-4 90.000
1.50000000 7.815e-4 90.000 4.016e-6 -90.00 4.016e-6 -90.00 7.815e-4 90.000
1.51000000 7.867e-4 90.000 4.042e-6 -90.00 4.042e-6 -90.00 7.867e-4 90.000
1.52000000 7.919e-4 90.000 4.069e-6 -90.00 4.069e-6 -90.00 7.920e-4 90.000
1.53000000 7.972e-4 90.000 4.095e-6 -90.00 4.095e-6 -90.00 7.972e-4 90.000
1.54000000 8.024e-4 90.000 4.121e-6 -90.00 4.121e-6 -90.00 8.024e-4 90.000
1.55000000 8.076e-4 90.000 4.148e-6 -90.00 4.148e-6 -90.00 8.076e-4 90.000
1.56000000 8.128e-4 90.000 4.174e-6 -90.00 4.174e-6 -90.00 8.128e-4 90.000
1.57000000 8.180e-4 90.000 4.200e-6 -90.00 4.200e-6 -90.00 8.181e-4 90.000
1.58000000 8.233e-4 90.000 4.227e-6 -90.00 4.227e-6 -90.00 8.233e-4 90.000
!< P1 F=1.58 Eeff=(6.18596014 -5.5583e-6) Z0=(157.934163 7.08549e-5) R=0.03156851 C=0.00302008 
!< P2 F=1.58 Eeff=(6.17998361 -5.5161e-6) Z0=(157.813314 7.08805e-5) R=0.03128707 C=0.00301809 
1.59000000 8.285e-4 90.000 4.253e-6 -90.00 4.253e-6 -90.00 8.285e-4 90.000
1.60000000 8.337e-4 90.000 4.279e-6 -90.00 4.279e-6 -90.00 8.337e-4 90.000
1.61000000 8.389e-4 90.000 4.305e-6 -90.00 4.305e-6 -90.00 8.389e-4 90.000
1.62000000 8.441e-4 90.000 4.332e-6 -90.00 4.332e-6 -90.00 8.442e-4 90.000
1.63000000 8.494e-4 90.000 4.358e-6 -90.00 4.358e-6 -90.00 8.494e-4 90.000
1.64000000 8.546e-4 90.000 4.384e-6 -90.00 4.384e-6 -90.00 8.546e-4 90.000
1.65000000 8.598e-4 90.000 4.410e-6 -90.00 4.410e-6 -90.00 8.598e-4 90.000
1.66000000 8.650e-4 90.000 4.437e-6 -90.00 4.437e-6 -90.00 8.650e-4 90.000
1.67000000 8.702e-4 90.000 4.463e-6 -90.00 4.463e-6 -90.00 8.703e-4 90.000
1.68000000 8.755e-4 90.000 4.489e-6 -90.00 4.489e-6 -90.00 8.755e-4 90.000
1.69000000 8.807e-4 90.000 4.515e-6 -90.00 4.515e-6 -90.00 8.807e-4 90.000
1.70000000 8.859e-4 90.000 4.541e-6 -90.00 4.541e-6 -90.00 8.859e-4 90.000
1.71000000 8.911e-4 90.000 4.567e-6 -90.00 4.567e-6 -90.00 8.911e-4 90.000
1.72000000 8.963e-4 90.000 4.594e-6 -90.00 4.594e-6 -90.00 8.964e-4 90.000
1.73000000 9.016e-4 90.000 4.620e-6 -90.00 4.620e-6 -90.00 9.016e-4 90.000
1.74000000 9.068e-4 90.000 4.646e-6 -90.00 4.646e-6 -90.00 9.068e-4 90.000
1.75000000 9.120e-4 90.000 4.672e-6 -90.00 4.672e-6 -90.00 9.120e-4 90.000
1.76000000 9.172e-4 90.000 4.698e-6 -90.00 4.698e-6 -90.00 9.173e-4 90.000
1.77000000 9.225e-4 90.000 4.724e-6 -90.00 4.724e-6 -90.00 9.225e-4 90.000
1.78000000 9.277e-4 90.000 4.750e-6 -90.00 4.750e-6 -90.00 9.277e-4 90.000
1.79000000 9.329e-4 90.000 4.776e-6 -90.00 4.776e-6 -90.00 9.329e-4 90.000
1.80000000 9.381e-4 90.000 4.803e-6 -90.00 4.803e-6 -90.00 9.382e-4 90.000
1.81000000 9.433e-4 90.000 4.829e-6 -90.00 4.829e-6 -90.00 9.434e-4 90.000
1.82000000 9.486e-4 90.000 4.855e-6 -90.00 4.855e-6 -90.00 9.486e-4 90.000
1.83000000 9.538e-4 90.000 4.881e-6 -90.00 4.881e-6 -90.00 9.538e-4 90.000
1.84000000 9.590e-4 90.000 4.907e-6 -90.00 4.907e-6 -90.00 9.590e-4 90.000
1.85000000 9.642e-4 90.000 4.933e-6 -90.00 4.933e-6 -90.00 9.643e-4 90.000
1.86000000 9.695e-4 90.000 4.959e-6 -90.00 4.959e-6 -90.00 9.695e-4 90.000
1.87000000 9.747e-4 90.000 4.985e-6 -90.00 4.985e-6 -90.00 9.747e-4 90.000
1.88000000 9.799e-4 90.000 5.011e-6 -90.00 5.011e-6 -90.00 9.799e-4 90.000
1.89000000 9.851e-4 90.000 5.037e-6 -90.00 5.037e-6 -90.00 9.852e-4 90.000
1.90000000 9.904e-4 90.000 5.063e-6 -90.00 5.063e-6 -90.00 9.904e-4 90.000
1.91000000 9.956e-4 90.000 5.089e-6 -90.00 5.089e-6 -90.00 9.956e-4 90.000
1.92000000 0.001001 90.000 5.115e-6 -90.00 5.115e-6 -90.00 0.001001 90.000
1.93000000 0.001006 90.000 5.141e-6 -90.00 5.141e-6 -90.00 0.001006 90.000
1.94000000 0.001011 90.000 5.167e-6 -90.00 5.167e-6 -90.00 0.001011 90.000
1.95000000 0.001016 90.000 5.193e-6 -90.00 5.193e-6 -90.00 0.001017 90.000
1.96000000 0.001022 90.000 5.218e-6 -90.00 5.218e-6 -90.00 0.001022 90.000
1.97000000 0.001027 90.000 5.244e-6 -90.00 5.244e-6 -90.00 0.001027 90.000
1.98000000 0.001032 90.000 5.270e-6 -90.00 5.270e-6 -90.00 0.001032 90.000
1.99000000 0.001037 90.000 5.296e-6 -90.00 5.296e-6 -90.00 0.001037 90.000
2.00000000 0.001043 90.000 5.322e-6 -90.00 5.322e-6 -90.00 0.001043 90.000
!< P1 F=2.0 Eeff=(6.18606072 -5.5439e-6) Z0=(157.936494 7.08035e-5) R=0.0249765 C=0.00302014 
!< P2 F=2.0 Eeff=(6.18008328 -5.5412e-6) Z0=(157.815609 7.06363e-5) R=0.02512043 C=0.00301816 
