! Sonnet Data File
! From: em Version : 14.52
! From Project: CC_q1
! Data is De-embedded 
! Data File Written: 01/08/2019 06:10:34
!< HDATE 01/07/2019 22:01:17
!< MDATE 01/07/2019 22:01:17
# GHZ Y MA R 1.0
0.00100000 5.050e-7 89.996 2.792e-9 -90.05 2.794e-9 -89.94 6.234e-7 89.997
!< P1 F=0.001 Eeff=(undefined: sl) Z0=(undefined: sl) R=0.0 C=0.0 
!< P2 F=0.001 Eeff=(undefined: sl) Z0=(undefined: sl) R=0.0 C=0.0 
0.01000000 5.049e-6 90.000 2.792e-8 -90.06 2.792e-8 -90.06 6.235e-6 90.000
0.02000000 1.010e-5 90.000 5.583e-8 -90.07 5.583e-8 -90.07 1.247e-5 90.000
0.03000000 1.515e-5 90.000 8.375e-8 -90.07 8.375e-8 -90.07 1.870e-5 90.000
0.04000000 2.020e-5 90.000 1.117e-7 -90.07 1.117e-7 -90.07 2.494e-5 90.000
0.05000000 2.525e-5 90.000 1.396e-7 -90.06 1.396e-7 -90.06 3.117e-5 90.000
0.06000000 3.030e-5 90.000 1.675e-7 -90.06 1.675e-7 -90.06 3.741e-5 90.000
0.07000000 3.534e-5 90.000 1.954e-7 -90.06 1.954e-7 -90.06 4.364e-5 90.000
0.08000000 4.039e-5 90.000 2.233e-7 -90.06 2.233e-7 -90.06 4.988e-5 90.000
0.09000000 4.544e-5 90.000 2.512e-7 -90.06 2.512e-7 -90.06 5.611e-5 90.000
0.10000000 5.049e-5 90.000 2.791e-7 -90.06 2.791e-7 -90.06 6.235e-5 90.000
0.11000000 5.554e-5 90.000 3.071e-7 -90.06 3.071e-7 -90.06 6.859e-5 90.000
0.12000000 6.059e-5 90.000 3.350e-7 -90.06 3.350e-7 -90.06 7.482e-5 90.000
0.13000000 6.564e-5 90.000 3.629e-7 -90.06 3.629e-7 -90.06 8.106e-5 90.000
0.14000000 7.069e-5 90.000 3.908e-7 -90.05 3.908e-7 -90.05 8.729e-5 90.000
0.15000000 7.574e-5 90.000 4.187e-7 -90.05 4.187e-7 -90.05 9.353e-5 90.000
0.16000000 8.079e-5 90.000 4.466e-7 -90.05 4.466e-7 -90.05 9.976e-5 90.000
0.17000000 8.584e-5 90.000 4.745e-7 -90.05 4.745e-7 -90.05 1.060e-4 90.000
0.18000000 9.089e-5 90.000 5.024e-7 -90.05 5.024e-7 -90.05 1.122e-4 90.000
0.19000000 9.594e-5 90.000 5.303e-7 -90.05 5.303e-7 -90.05 1.185e-4 90.000
0.20000000 1.010e-4 90.000 5.582e-7 -90.05 5.582e-7 -90.05 1.247e-4 90.000
0.21000000 1.060e-4 90.000 5.861e-7 -90.05 5.861e-7 -90.05 1.309e-4 90.000
0.22000000 1.111e-4 90.000 6.140e-7 -90.04 6.140e-7 -90.04 1.372e-4 90.000
0.23000000 1.161e-4 90.000 6.419e-7 -90.04 6.419e-7 -90.04 1.434e-4 90.000
0.24000000 1.212e-4 90.000 6.698e-7 -90.04 6.698e-7 -90.04 1.496e-4 90.000
0.25000000 1.262e-4 90.000 6.977e-7 -90.04 6.977e-7 -90.04 1.559e-4 90.000
0.26000000 1.313e-4 90.000 7.255e-7 -90.04 7.255e-7 -90.04 1.621e-4 90.000
0.27000000 1.363e-4 90.000 7.534e-7 -90.04 7.534e-7 -90.04 1.683e-4 90.000
0.28000000 1.414e-4 90.000 7.813e-7 -90.04 7.813e-7 -90.04 1.746e-4 90.000
0.29000000 1.464e-4 90.000 8.092e-7 -90.04 8.092e-7 -90.04 1.808e-4 90.000
0.30000000 1.515e-4 90.000 8.371e-7 -90.04 8.371e-7 -90.04 1.871e-4 90.000
0.31000000 1.565e-4 90.000 8.650e-7 -90.04 8.650e-7 -90.04 1.933e-4 90.000
0.32000000 1.616e-4 90.000 8.928e-7 -90.03 8.928e-7 -90.03 1.995e-4 90.000
0.33000000 1.666e-4 90.000 9.207e-7 -90.03 9.207e-7 -90.03 2.058e-4 90.000
0.34000000 1.717e-4 90.000 9.486e-7 -90.03 9.486e-7 -90.03 2.120e-4 90.000
0.35000000 1.767e-4 90.000 9.764e-7 -90.03 9.764e-7 -90.03 2.182e-4 90.000
0.36000000 1.818e-4 90.000 1.004e-6 -90.03 1.004e-6 -90.03 2.245e-4 90.000
0.37000000 1.868e-4 90.000 1.032e-6 -90.03 1.032e-6 -90.03 2.307e-4 90.000
0.38000000 1.919e-4 90.000 1.060e-6 -90.03 1.060e-6 -90.03 2.369e-4 90.000
0.39000000 1.969e-4 90.000 1.088e-6 -90.03 1.088e-6 -90.03 2.432e-4 90.000
0.40000000 2.020e-4 90.000 1.116e-6 -90.03 1.116e-6 -90.03 2.494e-4 90.000
0.41000000 2.070e-4 90.000 1.144e-6 -90.03 1.144e-6 -90.03 2.557e-4 90.000
0.42000000 2.121e-4 90.000 1.171e-6 -90.03 1.171e-6 -90.03 2.619e-4 90.000
0.43000000 2.171e-4 90.000 1.199e-6 -90.02 1.199e-6 -90.02 2.681e-4 90.000
0.44000000 2.222e-4 90.000 1.227e-6 -90.02 1.227e-6 -90.02 2.744e-4 90.000
0.45000000 2.272e-4 90.000 1.255e-6 -90.02 1.255e-6 -90.02 2.806e-4 90.000
0.46000000 2.323e-4 90.000 1.283e-6 -90.02 1.283e-6 -90.02 2.868e-4 90.000
0.47000000 2.373e-4 90.000 1.311e-6 -90.02 1.311e-6 -90.02 2.931e-4 90.000
0.48000000 2.424e-4 90.000 1.338e-6 -90.02 1.338e-6 -90.02 2.993e-4 90.000
0.49000000 2.474e-4 90.000 1.366e-6 -90.02 1.366e-6 -90.02 3.055e-4 90.000
0.50000000 2.525e-4 90.000 1.394e-6 -90.02 1.394e-6 -90.02 3.118e-4 90.000
0.51000000 2.575e-4 90.000 1.422e-6 -90.02 1.422e-6 -90.02 3.180e-4 90.000
0.52000000 2.626e-4 90.000 1.450e-6 -90.02 1.450e-6 -90.02 3.243e-4 90.000
0.53000000 2.676e-4 90.000 1.477e-6 -90.02 1.477e-6 -90.02 3.305e-4 90.000
0.54000000 2.727e-4 90.000 1.505e-6 -90.02 1.505e-6 -90.02 3.367e-4 90.000
0.55000000 2.777e-4 90.000 1.533e-6 -90.02 1.533e-6 -90.02 3.430e-4 90.000
0.56000000 2.828e-4 90.000 1.561e-6 -90.02 1.561e-6 -90.02 3.492e-4 90.000
0.57000000 2.878e-4 90.000 1.589e-6 -90.02 1.589e-6 -90.02 3.554e-4 90.000
0.58000000 2.929e-4 90.000 1.616e-6 -90.01 1.616e-6 -90.01 3.617e-4 90.000
0.59000000 2.979e-4 90.000 1.644e-6 -90.01 1.644e-6 -90.01 3.679e-4 90.000
0.60000000 3.030e-4 90.000 1.672e-6 -90.01 1.672e-6 -90.01 3.742e-4 90.000
0.61000000 3.080e-4 90.000 1.700e-6 -90.01 1.700e-6 -90.01 3.804e-4 90.000
0.62000000 3.131e-4 90.000 1.728e-6 -90.01 1.728e-6 -90.01 3.866e-4 90.000
0.63000000 3.181e-4 90.000 1.755e-6 -90.01 1.755e-6 -90.01 3.929e-4 90.000
0.64000000 3.232e-4 90.000 1.783e-6 -90.01 1.783e-6 -90.01 3.991e-4 90.000
0.65000000 3.282e-4 90.000 1.811e-6 -90.01 1.811e-6 -90.01 4.053e-4 90.000
0.66000000 3.333e-4 90.000 1.839e-6 -90.01 1.839e-6 -90.01 4.116e-4 90.000
0.67000000 3.383e-4 90.000 1.866e-6 -90.01 1.866e-6 -90.01 4.178e-4 90.000
0.68000000 3.434e-4 90.000 1.894e-6 -90.01 1.894e-6 -90.01 4.241e-4 90.000
0.69000000 3.484e-4 90.000 1.922e-6 -90.01 1.922e-6 -90.01 4.303e-4 90.000
0.70000000 3.535e-4 90.000 1.949e-6 -90.01 1.949e-6 -90.01 4.365e-4 90.000
0.71000000 3.586e-4 90.000 1.977e-6 -90.01 1.977e-6 -90.01 4.428e-4 90.000
0.72000000 3.636e-4 90.000 2.005e-6 -90.01 2.005e-6 -90.01 4.490e-4 90.000
0.73000000 3.687e-4 90.000 2.033e-6 -90.01 2.033e-6 -90.01 4.553e-4 90.000
0.74000000 3.737e-4 90.000 2.060e-6 -90.01 2.060e-6 -90.01 4.615e-4 90.000
0.75000000 3.788e-4 90.000 2.088e-6 -90.01 2.088e-6 -90.01 4.677e-4 90.000
0.76000000 3.838e-4 90.000 2.116e-6 -90.01 2.116e-6 -90.01 4.740e-4 90.000
0.77000000 3.889e-4 90.000 2.143e-6 -90.01 2.143e-6 -90.01 4.802e-4 90.000
0.78000000 3.939e-4 90.000 2.171e-6 -90.01 2.171e-6 -90.01 4.865e-4 90.000
0.79000000 3.990e-4 90.000 2.199e-6 -90.00 2.199e-6 -90.00 4.927e-4 90.000
0.80000000 4.040e-4 90.000 2.226e-6 -90.00 2.226e-6 -90.00 4.989e-4 90.000
0.81000000 4.091e-4 90.000 2.254e-6 -90.00 2.254e-6 -90.00 5.052e-4 90.000
0.82000000 4.141e-4 90.000 2.282e-6 -90.00 2.282e-6 -90.00 5.114e-4 90.000
0.83000000 4.192e-4 90.000 2.309e-6 -90.00 2.309e-6 -90.00 5.177e-4 90.000
0.84000000 4.242e-4 90.000 2.337e-6 -90.00 2.337e-6 -90.00 5.239e-4 90.000
0.85000000 4.293e-4 90.000 2.365e-6 -90.00 2.365e-6 -90.00 5.301e-4 90.000
0.86000000 4.343e-4 90.000 2.392e-6 -90.00 2.392e-6 -90.00 5.364e-4 90.000
0.87000000 4.394e-4 90.000 2.420e-6 -90.00 2.420e-6 -90.00 5.426e-4 90.000
0.88000000 4.444e-4 90.000 2.447e-6 -90.00 2.447e-6 -90.00 5.489e-4 90.000
0.89000000 4.495e-4 90.000 2.475e-6 -90.00 2.475e-6 -90.00 5.551e-4 90.000
0.90000000 4.546e-4 90.000 2.503e-6 -90.00 2.503e-6 -90.00 5.613e-4 90.000
0.91000000 4.596e-4 90.000 2.530e-6 -90.00 2.530e-6 -90.00 5.676e-4 90.000
0.92000000 4.647e-4 90.000 2.558e-6 -90.00 2.558e-6 -90.00 5.738e-4 90.000
0.93000000 4.697e-4 90.000 2.585e-6 -90.00 2.585e-6 -90.00 5.801e-4 90.000
0.94000000 4.748e-4 90.000 2.613e-6 -90.00 2.613e-6 -90.00 5.863e-4 90.000
0.95000000 4.798e-4 90.000 2.640e-6 -90.00 2.640e-6 -90.00 5.926e-4 90.000
0.96000000 4.849e-4 90.000 2.668e-6 -90.00 2.668e-6 -90.00 5.988e-4 90.000
0.97000000 4.899e-4 90.000 2.696e-6 -90.00 2.696e-6 -90.00 6.050e-4 90.000
0.98000000 4.950e-4 90.000 2.723e-6 -90.00 2.723e-6 -90.00 6.113e-4 90.000
0.99000000 5.000e-4 90.000 2.751e-6 -90.00 2.751e-6 -90.00 6.175e-4 90.000
1.00000000 5.051e-4 90.000 2.778e-6 -90.00 2.778e-6 -90.00 6.238e-4 90.000
!< P1 F=1.0 Eeff=(6.17988736 -5.4937e-6) Z0=(157.811068 7.10599e-5) R=0.04910432 C=0.00301803 
!< P2 F=1.0 Eeff=(6.18586298 -5.5485e-6) Z0=(157.931882 7.07521e-5) R=0.050148 C=0.00302001 
1.01000000 5.101e-4 90.000 2.806e-6 -90.00 2.806e-6 -90.00 6.300e-4 90.000
1.02000000 5.152e-4 90.000 2.833e-6 -90.00 2.833e-6 -90.00 6.363e-4 90.000
1.03000000 5.203e-4 90.000 2.861e-6 -90.00 2.861e-6 -90.00 6.425e-4 90.000
1.04000000 5.253e-4 90.000 2.888e-6 -90.00 2.888e-6 -90.00 6.487e-4 90.000
1.05000000 5.304e-4 90.000 2.916e-6 -90.00 2.916e-6 -90.00 6.550e-4 90.000
1.06000000 5.354e-4 90.000 2.943e-6 -90.00 2.943e-6 -90.00 6.612e-4 90.000
1.07000000 5.405e-4 90.000 2.971e-6 -90.00 2.971e-6 -90.00 6.675e-4 90.000
1.08000000 5.455e-4 90.000 2.998e-6 -90.00 2.998e-6 -90.00 6.737e-4 90.000
1.09000000 5.506e-4 90.000 3.025e-6 -90.00 3.025e-6 -90.00 6.800e-4 90.000
1.10000000 5.556e-4 90.000 3.053e-6 -90.00 3.053e-6 -90.00 6.862e-4 90.000
1.11000000 5.607e-4 90.000 3.080e-6 -90.00 3.080e-6 -90.00 6.925e-4 90.000
1.12000000 5.657e-4 90.000 3.108e-6 -90.00 3.108e-6 -90.00 6.987e-4 90.000
1.13000000 5.708e-4 90.000 3.135e-6 -90.00 3.135e-6 -90.00 7.049e-4 90.000
1.14000000 5.759e-4 90.000 3.163e-6 -90.00 3.163e-6 -90.00 7.112e-4 90.000
1.15000000 5.809e-4 90.000 3.190e-6 -90.00 3.190e-6 -90.00 7.174e-4 90.000
1.16000000 5.860e-4 90.000 3.217e-6 -90.00 3.217e-6 -90.00 7.237e-4 90.000
1.17000000 5.910e-4 90.000 3.245e-6 -90.00 3.245e-6 -90.00 7.299e-4 90.000
1.18000000 5.961e-4 90.000 3.272e-6 -90.00 3.272e-6 -90.00 7.362e-4 90.000
1.19000000 6.011e-4 90.000 3.299e-6 -90.00 3.299e-6 -90.00 7.424e-4 90.000
1.20000000 6.062e-4 90.000 3.327e-6 -90.00 3.327e-6 -90.00 7.487e-4 90.000
1.21000000 6.113e-4 90.000 3.354e-6 -90.00 3.354e-6 -90.00 7.549e-4 90.000
1.22000000 6.163e-4 90.000 3.381e-6 -90.00 3.381e-6 -90.00 7.612e-4 90.000
1.23000000 6.214e-4 90.000 3.409e-6 -90.00 3.409e-6 -90.00 7.674e-4 90.000
1.24000000 6.264e-4 90.000 3.436e-6 -90.00 3.436e-6 -90.00 7.737e-4 90.000
1.25000000 6.315e-4 90.000 3.463e-6 -90.00 3.463e-6 -90.00 7.799e-4 90.000
1.26000000 6.365e-4 90.000 3.491e-6 -90.00 3.491e-6 -90.00 7.861e-4 90.000
1.27000000 6.416e-4 90.000 3.518e-6 -90.00 3.518e-6 -90.00 7.924e-4 90.000
1.28000000 6.467e-4 90.000 3.545e-6 -90.00 3.545e-6 -90.00 7.986e-4 90.000
1.29000000 6.517e-4 90.000 3.572e-6 -90.00 3.572e-6 -90.00 8.049e-4 90.000
1.30000000 6.568e-4 90.000 3.600e-6 -90.00 3.600e-6 -90.00 8.111e-4 90.000
1.31000000 6.618e-4 90.000 3.627e-6 -90.00 3.627e-6 -90.00 8.174e-4 90.000
1.32000000 6.669e-4 90.000 3.654e-6 -90.00 3.654e-6 -90.00 8.236e-4 90.000
1.33000000 6.719e-4 90.000 3.681e-6 -90.00 3.681e-6 -90.00 8.299e-4 90.000
1.34000000 6.770e-4 90.000 3.708e-6 -90.00 3.708e-6 -90.00 8.361e-4 90.000
1.35000000 6.821e-4 90.000 3.736e-6 -90.00 3.736e-6 -90.00 8.424e-4 90.000
1.36000000 6.871e-4 90.000 3.763e-6 -90.00 3.763e-6 -90.00 8.486e-4 90.000
1.37000000 6.922e-4 90.000 3.790e-6 -90.00 3.790e-6 -90.00 8.549e-4 90.000
1.38000000 6.972e-4 90.000 3.817e-6 -90.00 3.817e-6 -90.00 8.611e-4 90.000
1.39000000 7.023e-4 90.000 3.844e-6 -90.00 3.844e-6 -90.00 8.674e-4 90.000
1.40000000 7.074e-4 90.000 3.871e-6 -90.00 3.871e-6 -90.00 8.736e-4 90.000
1.41000000 7.124e-4 90.000 3.899e-6 -90.00 3.899e-6 -90.00 8.799e-4 90.000
1.42000000 7.175e-4 90.000 3.926e-6 -90.00 3.926e-6 -90.00 8.861e-4 90.000
1.43000000 7.225e-4 90.000 3.953e-6 -90.00 3.953e-6 -90.00 8.924e-4 90.000
1.44000000 7.276e-4 90.000 3.980e-6 -90.00 3.980e-6 -90.00 8.986e-4 90.000
1.45000000 7.326e-4 90.000 4.007e-6 -90.00 4.007e-6 -90.00 9.049e-4 90.000
1.46000000 7.377e-4 90.000 4.034e-6 -90.00 4.034e-6 -90.00 9.111e-4 90.000
1.47000000 7.428e-4 90.000 4.061e-6 -90.00 4.061e-6 -90.00 9.174e-4 90.000
1.48000000 7.478e-4 90.000 4.088e-6 -90.00 4.088e-6 -90.00 9.237e-4 90.000
1.49000000 7.529e-4 90.000 4.115e-6 -90.00 4.115e-6 -90.00 9.299e-4 90.000
1.50000000 7.579e-4 90.000 4.142e-6 -90.00 4.142e-6 -90.00 9.362e-4 90.000
1.51000000 7.630e-4 90.000 4.169e-6 -90.00 4.169e-6 -90.00 9.424e-4 90.000
1.52000000 7.681e-4 90.000 4.196e-6 -90.00 4.196e-6 -90.00 9.487e-4 90.000
1.53000000 7.731e-4 90.000 4.223e-6 -90.00 4.223e-6 -90.00 9.549e-4 90.000
1.54000000 7.782e-4 90.000 4.250e-6 -90.00 4.250e-6 -90.00 9.612e-4 90.000
1.55000000 7.833e-4 90.000 4.277e-6 -90.00 4.277e-6 -90.00 9.674e-4 90.000
1.56000000 7.883e-4 90.000 4.304e-6 -90.00 4.304e-6 -90.00 9.737e-4 90.000
1.57000000 7.934e-4 90.000 4.331e-6 -90.00 4.331e-6 -90.00 9.799e-4 90.000
1.58000000 7.984e-4 90.000 4.358e-6 -90.00 4.358e-6 -90.00 9.862e-4 90.000
!< P1 F=1.58 Eeff=(6.17998362 -5.5132e-6) Z0=(157.813313 7.07135e-5) R=0.03164515 C=0.00301809 
!< P2 F=1.58 Eeff=(6.18596015 -5.5583e-6) Z0=(157.934163 7.08292e-5) R=0.03156245 C=0.00302008 
1.59000000 8.035e-4 90.000 4.385e-6 -90.00 4.385e-6 -90.00 9.924e-4 90.000
1.60000000 8.086e-4 90.000 4.412e-6 -90.00 4.412e-6 -90.00 9.987e-4 90.000
1.61000000 8.136e-4 90.000 4.439e-6 -90.00 4.439e-6 -90.00 0.001005 90.000
1.62000000 8.187e-4 90.000 4.465e-6 -90.00 4.465e-6 -90.00 0.001011 90.000
1.63000000 8.238e-4 90.000 4.492e-6 -90.00 4.492e-6 -90.00 0.001017 90.000
1.64000000 8.288e-4 90.000 4.519e-6 -90.00 4.519e-6 -90.00 0.001024 90.000
1.65000000 8.339e-4 90.000 4.546e-6 -90.00 4.546e-6 -90.00 0.001030 90.000
1.66000000 8.389e-4 90.000 4.573e-6 -90.00 4.573e-6 -90.00 0.001036 90.000
1.67000000 8.440e-4 90.000 4.600e-6 -90.00 4.600e-6 -90.00 0.001043 90.000
1.68000000 8.491e-4 90.000 4.626e-6 -90.00 4.626e-6 -90.00 0.001049 90.000
1.69000000 8.541e-4 90.000 4.653e-6 -90.00 4.653e-6 -90.00 0.001055 90.000
1.70000000 8.592e-4 90.000 4.680e-6 -90.00 4.680e-6 -90.00 0.001061 90.000
1.71000000 8.643e-4 90.000 4.707e-6 -90.00 4.707e-6 -90.00 0.001068 90.000
1.72000000 8.693e-4 90.000 4.733e-6 -90.00 4.733e-6 -90.00 0.001074 90.000
1.73000000 8.744e-4 90.000 4.760e-6 -90.00 4.760e-6 -90.00 0.001080 90.000
1.74000000 8.795e-4 90.000 4.787e-6 -90.00 4.787e-6 -90.00 0.001086 90.000
1.75000000 8.845e-4 90.000 4.814e-6 -90.00 4.814e-6 -90.00 0.001093 90.000
1.76000000 8.896e-4 90.000 4.840e-6 -90.00 4.840e-6 -90.00 0.001099 90.000
1.77000000 8.946e-4 90.000 4.867e-6 -90.00 4.867e-6 -90.00 0.001105 90.000
1.78000000 8.997e-4 90.000 4.894e-6 -90.00 4.894e-6 -90.00 0.001111 90.000
1.79000000 9.048e-4 90.000 4.920e-6 -90.00 4.920e-6 -90.00 0.001118 90.000
1.80000000 9.098e-4 90.000 4.947e-6 -90.00 4.947e-6 -90.00 0.001124 90.000
1.81000000 9.149e-4 90.000 4.973e-6 -90.00 4.973e-6 -90.00 0.001130 90.000
1.82000000 9.200e-4 90.000 5.000e-6 -90.00 5.000e-6 -90.00 0.001136 90.000
1.83000000 9.250e-4 90.000 5.027e-6 -90.00 5.027e-6 -90.00 0.001143 90.000
1.84000000 9.301e-4 90.000 5.053e-6 -90.00 5.053e-6 -90.00 0.001149 90.000
1.85000000 9.352e-4 90.000 5.080e-6 -90.00 5.080e-6 -90.00 0.001155 90.000
1.86000000 9.402e-4 90.000 5.106e-6 -90.00 5.106e-6 -90.00 0.001161 90.000
1.87000000 9.453e-4 90.000 5.133e-6 -90.00 5.133e-6 -90.00 0.001168 90.000
1.88000000 9.504e-4 90.000 5.159e-6 -90.00 5.159e-6 -90.00 0.001174 90.000
1.89000000 9.554e-4 90.000 5.186e-6 -90.00 5.186e-6 -90.00 0.001180 90.000
1.90000000 9.605e-4 90.000 5.212e-6 -90.00 5.212e-6 -90.00 0.001187 90.000
1.91000000 9.656e-4 90.000 5.239e-6 -90.00 5.239e-6 -90.00 0.001193 90.000
1.92000000 9.706e-4 90.000 5.265e-6 -90.00 5.265e-6 -90.00 0.001199 90.000
1.93000000 9.757e-4 90.000 5.292e-6 -90.00 5.292e-6 -90.00 0.001205 90.000
1.94000000 9.808e-4 90.000 5.318e-6 -90.00 5.318e-6 -90.00 0.001212 90.000
1.95000000 9.858e-4 90.000 5.344e-6 -90.00 5.344e-6 -90.00 0.001218 90.000
1.96000000 9.909e-4 90.000 5.371e-6 -90.00 5.371e-6 -90.00 0.001224 90.000
1.97000000 9.960e-4 90.000 5.397e-6 -90.00 5.397e-6 -90.00 0.001230 90.000
1.98000000 0.001001 90.000 5.423e-6 -90.00 5.423e-6 -90.00 0.001237 90.000
1.99000000 0.001006 90.000 5.450e-6 -90.00 5.450e-6 -90.00 0.001243 90.000
2.00000000 0.001011 90.000 5.476e-6 -90.00 5.476e-6 -90.00 0.001249 90.000
!< P1 F=2.0 Eeff=(6.18008329 -5.5357e-6) Z0=(157.815609 7.07649e-5) R=0.02496639 C=0.00301816 
!< P2 F=2.0 Eeff=(6.18606072 -5.5503e-6) Z0=(157.936494 7.08035e-5) R=0.02497949 C=0.00302014 
