! Sonnet Data File
! From: em Version : 14.52
! From Project: q-q1
! Data is De-embedded 
! Data File Written: 04/01/2019 23:46:24
!< HDATE 04/01/2019 17:21:20
!< MDATE 04/01/2019 17:21:20
# GHZ Y MA R 1.0
0.00100000 6.626e-7 92.512 2.970e-9 -90.05 2.970e-9 -90.00 6.519e-7 90.042
!< P1 F=0.001 Eeff=(undefined: nd) Z0=(undefined: nd) R=0.0 C=0.0 
!< P2 F=0.001 Eeff=(undefined: nd) Z0=(undefined: nd) R=0.0 C=0.0 
0.01000000 6.257e-6 90.260 2.973e-8 -90.00 2.973e-8 -90.00 6.275e-6 90.005
0.02000000 1.247e-5 90.127 5.946e-8 -90.00 5.946e-8 -90.00 1.252e-5 90.003
0.03000000 1.869e-5 90.083 8.918e-8 -90.00 8.918e-8 -90.00 1.877e-5 90.002
0.04000000 2.491e-5 90.061 1.189e-7 -90.00 1.189e-7 -90.00 2.502e-5 90.002
0.05000000 3.112e-5 90.047 1.486e-7 -90.00 1.486e-7 -90.00 3.127e-5 90.002
0.06000000 3.734e-5 90.038 1.783e-7 -90.00 1.783e-7 -90.00 3.752e-5 90.002
0.07000000 4.356e-5 90.032 2.080e-7 -90.00 2.080e-7 -90.00 4.376e-5 90.001
0.08000000 4.978e-5 90.027 2.376e-7 -90.00 2.376e-7 -90.00 5.001e-5 90.001
0.09000000 5.599e-5 90.024 2.673e-7 -90.00 2.673e-7 -90.00 5.626e-5 90.001
0.10000000 6.221e-5 90.021 2.969e-7 -90.00 2.969e-7 -90.00 6.251e-5 90.001
0.11000000 6.843e-5 90.018 3.265e-7 -90.00 3.265e-7 -90.00 6.876e-5 90.001
0.12000000 7.464e-5 90.016 3.561e-7 -90.00 3.561e-7 -90.00 7.500e-5 90.001
0.13000000 8.086e-5 90.015 3.856e-7 -90.00 3.856e-7 -90.00 8.125e-5 90.001
0.14000000 8.708e-5 90.013 4.152e-7 -90.00 4.152e-7 -90.00 8.750e-5 90.001
0.15000000 9.330e-5 90.012 4.447e-7 -90.00 4.447e-7 -90.00 9.375e-5 90.001
0.16000000 9.951e-5 90.011 4.741e-7 -90.00 4.741e-7 -90.00 10.00e-5 90.001
0.17000000 1.057e-4 90.010 5.035e-7 -90.00 5.035e-7 -90.00 1.062e-4 90.001
0.18000000 1.119e-4 90.009 5.329e-7 -90.00 5.329e-7 -90.00 1.125e-4 90.001
0.19000000 1.182e-4 90.008 5.623e-7 -90.00 5.623e-7 -90.00 1.187e-4 90.001
0.20000000 1.244e-4 90.008 5.916e-7 -90.00 5.916e-7 -90.00 1.250e-4 90.001
0.21000000 1.306e-4 90.007 6.208e-7 -90.00 6.208e-7 -90.00 1.312e-4 90.001
0.22000000 1.368e-4 90.006 6.500e-7 -90.00 6.500e-7 -90.00 1.375e-4 90.001
0.23000000 1.430e-4 90.006 6.792e-7 -90.00 6.792e-7 -90.00 1.437e-4 90.001
0.24000000 1.493e-4 90.006 7.083e-7 -90.00 7.083e-7 -90.00 1.500e-4 90.001
0.25000000 1.555e-4 90.005 7.374e-7 -90.00 7.374e-7 -90.00 1.562e-4 90.001
0.26000000 1.617e-4 90.005 7.664e-7 -90.00 7.664e-7 -90.00 1.625e-4 90.001
0.27000000 1.679e-4 90.004 7.953e-7 -90.00 7.953e-7 -90.00 1.687e-4 90.001
0.28000000 1.741e-4 90.004 8.242e-7 -90.00 8.242e-7 -90.00 1.750e-4 90.000
0.29000000 1.803e-4 90.004 8.530e-7 -90.00 8.530e-7 -90.00 1.812e-4 90.000
0.30000000 1.866e-4 90.004 8.818e-7 -90.00 8.818e-7 -90.00 1.875e-4 90.000
0.31000000 1.928e-4 90.003 9.105e-7 -90.00 9.105e-7 -90.00 1.937e-4 90.000
0.32000000 1.990e-4 90.003 9.391e-7 -90.00 9.391e-7 -90.00 2.000e-4 90.000
0.33000000 2.052e-4 90.003 9.677e-7 -90.00 9.677e-7 -90.00 2.062e-4 90.000
0.34000000 2.114e-4 90.003 9.962e-7 -90.00 9.962e-7 -90.00 2.125e-4 90.000
0.35000000 2.177e-4 90.002 1.025e-6 -90.00 1.025e-6 -90.00 2.187e-4 90.000
0.36000000 2.239e-4 90.002 1.053e-6 -90.00 1.053e-6 -90.00 2.250e-4 90.000
0.37000000 2.301e-4 90.002 1.081e-6 -90.00 1.081e-6 -90.00 2.312e-4 90.000
0.38000000 2.363e-4 90.002 1.109e-6 -90.00 1.109e-6 -90.00 2.375e-4 90.000
0.39000000 2.425e-4 90.002 1.137e-6 -90.00 1.137e-6 -90.00 2.437e-4 90.000
0.40000000 2.488e-4 90.002 1.165e-6 -90.00 1.165e-6 -90.00 2.500e-4 90.000
0.41000000 2.550e-4 90.002 1.193e-6 -90.00 1.193e-6 -90.00 2.562e-4 90.000
0.42000000 2.612e-4 90.001 1.221e-6 -90.00 1.221e-6 -90.00 2.625e-4 90.000
0.43000000 2.674e-4 90.001 1.249e-6 -90.00 1.249e-6 -90.00 2.687e-4 90.000
0.44000000 2.736e-4 90.001 1.277e-6 -90.00 1.277e-6 -90.00 2.750e-4 90.000
0.45000000 2.799e-4 90.001 1.304e-6 -90.00 1.304e-6 -90.00 2.812e-4 90.000
0.46000000 2.861e-4 90.001 1.332e-6 -90.00 1.332e-6 -90.00 2.875e-4 90.000
0.47000000 2.923e-4 90.001 1.359e-6 -90.00 1.359e-6 -90.00 2.937e-4 90.000
0.48000000 2.985e-4 90.001 1.386e-6 -90.00 1.386e-6 -90.00 3.000e-4 90.000
0.49000000 3.047e-4 90.001 1.413e-6 -90.00 1.413e-6 -90.00 3.062e-4 90.000
0.50000000 3.110e-4 90.001 1.440e-6 -90.00 1.440e-6 -90.00 3.125e-4 90.000
0.51000000 3.172e-4 90.001 1.467e-6 -90.00 1.467e-6 -90.00 3.188e-4 90.000
0.52000000 3.234e-4 90.001 1.494e-6 -90.00 1.494e-6 -90.00 3.250e-4 90.000
0.53000000 3.296e-4 90.001 1.521e-6 -90.00 1.521e-6 -90.00 3.313e-4 90.000
0.54000000 3.358e-4 90.001 1.547e-6 -90.00 1.547e-6 -90.00 3.375e-4 90.000
0.55000000 3.421e-4 90.000 1.574e-6 -90.00 1.574e-6 -90.00 3.438e-4 90.000
0.56000000 3.483e-4 90.000 1.600e-6 -90.00 1.600e-6 -90.00 3.500e-4 90.000
0.57000000 3.545e-4 90.000 1.626e-6 -90.00 1.626e-6 -90.00 3.563e-4 90.000
0.58000000 3.607e-4 90.000 1.652e-6 -90.00 1.652e-6 -90.00 3.625e-4 90.000
0.59000000 3.670e-4 90.000 1.678e-6 -90.00 1.678e-6 -90.00 3.688e-4 90.000
0.60000000 3.732e-4 90.000 1.704e-6 -90.00 1.704e-6 -90.00 3.750e-4 90.000
0.61000000 3.794e-4 90.000 1.730e-6 -90.00 1.730e-6 -90.00 3.813e-4 90.000
0.62000000 3.856e-4 90.000 1.755e-6 -90.00 1.755e-6 -90.00 3.875e-4 90.000
0.63000000 3.918e-4 90.000 1.781e-6 -90.00 1.781e-6 -90.00 3.938e-4 90.000
0.64000000 3.981e-4 90.000 1.806e-6 -90.00 1.806e-6 -90.00 4.000e-4 90.000
0.65000000 4.043e-4 90.000 1.831e-6 -90.00 1.831e-6 -90.00 4.063e-4 90.000
0.66000000 4.105e-4 90.000 1.856e-6 -90.00 1.856e-6 -90.00 4.126e-4 90.000
0.67000000 4.167e-4 90.000 1.881e-6 -90.00 1.881e-6 -90.00 4.188e-4 90.000
0.68000000 4.230e-4 90.000 1.906e-6 -90.00 1.906e-6 -90.00 4.251e-4 90.000
0.69000000 4.292e-4 90.000 1.930e-6 -90.00 1.930e-6 -90.00 4.313e-4 90.000
0.70000000 4.354e-4 90.000 1.955e-6 -90.00 1.955e-6 -90.00 4.376e-4 90.000
0.71000000 4.416e-4 90.000 1.979e-6 -90.00 1.979e-6 -90.00 4.438e-4 90.000
0.72000000 4.479e-4 90.000 2.003e-6 -90.00 2.003e-6 -90.00 4.501e-4 90.000
0.73000000 4.541e-4 90.000 2.027e-6 -90.00 2.027e-6 -90.00 4.563e-4 90.000
0.74000000 4.603e-4 90.000 2.051e-6 -90.00 2.051e-6 -90.00 4.626e-4 90.000
0.75000000 4.665e-4 90.000 2.074e-6 -90.00 2.074e-6 -90.00 4.689e-4 90.000
0.76000000 4.728e-4 90.000 2.098e-6 -90.00 2.098e-6 -90.00 4.751e-4 90.000
!< P1 F=0.76 Eeff=(undefined: nd) Z0=(undefined: nd) R=0.0 C=0.0 
!< P2 F=0.76 Eeff=(undefined: nd) Z0=(undefined: nd) R=0.0 C=0.0 
0.77000000 4.790e-4 90.000 2.121e-6 -90.00 2.121e-6 -90.00 4.814e-4 90.000
0.78000000 4.852e-4 90.000 2.144e-6 -90.00 2.144e-6 -90.00 4.876e-4 90.000
0.79000000 4.914e-4 90.000 2.167e-6 -90.00 2.167e-6 -90.00 4.939e-4 90.000
0.80000000 4.977e-4 90.000 2.190e-6 -90.00 2.190e-6 -90.00 5.001e-4 90.000
0.81000000 5.039e-4 90.000 2.213e-6 -90.00 2.213e-6 -90.00 5.064e-4 90.000
0.82000000 5.101e-4 90.000 2.235e-6 -90.00 2.235e-6 -90.00 5.127e-4 90.000
0.83000000 5.164e-4 90.000 2.257e-6 -90.00 2.257e-6 -90.00 5.189e-4 90.000
0.84000000 5.226e-4 90.000 2.279e-6 -90.00 2.279e-6 -90.00 5.252e-4 90.000
0.85000000 5.288e-4 90.000 2.301e-6 -90.00 2.301e-6 -90.00 5.314e-4 90.000
0.86000000 5.350e-4 90.000 2.323e-6 -90.00 2.323e-6 -90.00 5.377e-4 90.000
0.87000000 5.413e-4 90.000 2.344e-6 -90.00 2.344e-6 -90.00 5.439e-4 90.000
0.88000000 5.475e-4 90.000 2.366e-6 -90.00 2.366e-6 -90.00 5.502e-4 90.000
0.89000000 5.537e-4 90.000 2.387e-6 -90.00 2.387e-6 -90.00 5.565e-4 90.000
0.90000000 5.600e-4 90.000 2.408e-6 -90.00 2.408e-6 -90.00 5.627e-4 90.000
0.91000000 5.662e-4 90.000 2.428e-6 -90.00 2.428e-6 -90.00 5.690e-4 90.000
0.92000000 5.724e-4 90.000 2.449e-6 -90.00 2.449e-6 -90.00 5.752e-4 90.000
0.93000000 5.786e-4 90.000 2.469e-6 -90.00 2.469e-6 -90.00 5.815e-4 90.000
0.94000000 5.849e-4 90.000 2.489e-6 -90.00 2.489e-6 -90.00 5.878e-4 90.000
0.95000000 5.911e-4 90.000 2.509e-6 -90.00 2.509e-6 -90.00 5.940e-4 90.000
0.96000000 5.973e-4 90.000 2.529e-6 -90.00 2.529e-6 -90.00 6.003e-4 90.000
0.97000000 6.036e-4 90.000 2.548e-6 -90.00 2.548e-6 -90.00 6.065e-4 90.000
0.98000000 6.098e-4 90.000 2.568e-6 -90.00 2.568e-6 -90.00 6.128e-4 90.000
0.99000000 6.160e-4 90.000 2.587e-6 -90.00 2.587e-6 -90.00 6.191e-4 90.000
1.00000000 6.223e-4 90.000 2.605e-6 -90.00 2.605e-6 -90.00 6.253e-4 90.000
!< P1 F=1.0 Eeff=(undefined: nd) Z0=(undefined: nd) R=0.0 C=0.0 
!< P2 F=1.0 Eeff=(undefined: nd) Z0=(undefined: nd) R=0.0 C=0.0 
1.01000000 6.285e-4 90.000 2.624e-6 -90.00 2.624e-6 -90.00 6.316e-4 90.000
1.02000000 6.347e-4 90.000 2.642e-6 -90.00 2.642e-6 -90.00 6.379e-4 90.000
1.03000000 6.410e-4 90.000 2.661e-6 -90.00 2.661e-6 -90.00 6.441e-4 90.000
1.04000000 6.472e-4 90.000 2.678e-6 -90.00 2.678e-6 -90.00 6.504e-4 90.000
1.05000000 6.534e-4 90.000 2.696e-6 -90.00 2.696e-6 -90.00 6.567e-4 90.000
1.06000000 6.597e-4 90.000 2.714e-6 -90.00 2.714e-6 -90.00 6.629e-4 90.000
1.07000000 6.659e-4 90.000 2.731e-6 -90.00 2.731e-6 -90.00 6.692e-4 90.000
1.08000000 6.721e-4 90.000 2.748e-6 -90.00 2.748e-6 -90.00 6.754e-4 90.000
1.09000000 6.784e-4 90.000 2.765e-6 -90.00 2.765e-6 -90.00 6.817e-4 90.000
1.10000000 6.846e-4 90.000 2.781e-6 -90.00 2.781e-6 -90.00 6.880e-4 90.000
1.11000000 6.908e-4 90.000 2.797e-6 -90.00 2.797e-6 -90.00 6.942e-4 90.000
1.12000000 6.971e-4 90.000 2.813e-6 -90.00 2.813e-6 -90.00 7.005e-4 90.000
1.13000000 7.033e-4 90.000 2.829e-6 -90.00 2.829e-6 -90.00 7.068e-4 90.000
1.14000000 7.095e-4 90.000 2.845e-6 -90.00 2.845e-6 -90.00 7.130e-4 90.000
1.15000000 7.158e-4 90.000 2.860e-6 -90.00 2.860e-6 -90.00 7.193e-4 90.000
1.16000000 7.220e-4 90.000 2.875e-6 -90.00 2.875e-6 -90.00 7.256e-4 90.000
1.17000000 7.283e-4 90.000 2.890e-6 -90.00 2.890e-6 -90.00 7.318e-4 90.000
1.18000000 7.345e-4 90.000 2.904e-6 -90.00 2.904e-6 -90.00 7.381e-4 90.000
1.19000000 7.407e-4 90.000 2.919e-6 -90.00 2.919e-6 -90.00 7.444e-4 90.000
1.20000000 7.470e-4 90.000 2.932e-6 -90.00 2.932e-6 -90.00 7.506e-4 90.000
1.21000000 7.532e-4 90.000 2.946e-6 -90.00 2.946e-6 -90.00 7.569e-4 90.000
1.22000000 7.594e-4 90.000 2.960e-6 -90.00 2.960e-6 -90.00 7.632e-4 90.000
1.23000000 7.657e-4 90.000 2.973e-6 -90.00 2.973e-6 -90.00 7.695e-4 90.000
1.24000000 7.719e-4 90.000 2.986e-6 -90.00 2.986e-6 -90.00 7.757e-4 90.000
1.25000000 7.782e-4 90.000 2.998e-6 -90.00 2.998e-6 -90.00 7.820e-4 90.000
1.26000000 7.844e-4 90.000 3.011e-6 -90.00 3.011e-6 -90.00 7.883e-4 90.000
1.27000000 7.907e-4 90.000 3.023e-6 -90.00 3.023e-6 -90.00 7.945e-4 90.000
1.28000000 7.969e-4 90.000 3.035e-6 -90.00 3.035e-6 -90.00 8.008e-4 90.000
1.29000000 8.031e-4 90.000 3.046e-6 -90.00 3.046e-6 -90.00 8.071e-4 90.000
1.30000000 8.094e-4 90.000 3.057e-6 -90.00 3.057e-6 -90.00 8.134e-4 90.000
1.31000000 8.156e-4 90.000 3.068e-6 -90.00 3.068e-6 -90.00 8.196e-4 90.000
1.32000000 8.219e-4 90.000 3.079e-6 -90.00 3.079e-6 -90.00 8.259e-4 90.000
1.33000000 8.281e-4 90.000 3.089e-6 -90.00 3.089e-6 -90.00 8.322e-4 90.000
1.34000000 8.343e-4 90.000 3.099e-6 -90.00 3.099e-6 -90.00 8.384e-4 90.000
1.35000000 8.406e-4 90.000 3.109e-6 -90.00 3.109e-6 -90.00 8.447e-4 90.000
1.36000000 8.468e-4 90.000 3.118e-6 -90.00 3.118e-6 -90.00 8.510e-4 90.000
1.37000000 8.531e-4 90.000 3.128e-6 -90.00 3.128e-6 -90.00 8.573e-4 90.000
1.38000000 8.593e-4 90.000 3.136e-6 -90.00 3.136e-6 -90.00 8.635e-4 90.000
1.39000000 8.656e-4 90.000 3.145e-6 -90.00 3.145e-6 -90.00 8.698e-4 90.000
1.40000000 8.718e-4 90.000 3.153e-6 -90.00 3.153e-6 -90.00 8.761e-4 90.000
1.41000000 8.781e-4 90.000 3.161e-6 -90.00 3.161e-6 -90.00 8.824e-4 90.000
1.42000000 8.843e-4 90.000 3.169e-6 -90.00 3.169e-6 -90.00 8.886e-4 90.000
1.43000000 8.906e-4 90.000 3.176e-6 -90.00 3.176e-6 -90.00 8.949e-4 90.000
1.44000000 8.968e-4 90.000 3.183e-6 -90.00 3.183e-6 -90.00 9.012e-4 90.000
1.45000000 9.031e-4 90.000 3.190e-6 -90.00 3.190e-6 -90.00 9.075e-4 90.000
1.46000000 9.093e-4 90.000 3.196e-6 -90.00 3.196e-6 -90.00 9.138e-4 90.000
1.47000000 9.155e-4 90.000 3.202e-6 -90.00 3.202e-6 -90.00 9.200e-4 90.000
1.48000000 9.218e-4 90.000 3.208e-6 -90.00 3.208e-6 -90.00 9.263e-4 90.000
1.49000000 9.280e-4 90.000 3.213e-6 -90.00 3.213e-6 -90.00 9.326e-4 90.000
1.50000000 9.343e-4 90.000 3.218e-6 -90.00 3.218e-6 -90.00 9.389e-4 90.000
1.51000000 9.405e-4 90.000 3.223e-6 -90.00 3.223e-6 -90.00 9.452e-4 90.000
1.52000000 9.468e-4 90.000 3.227e-6 -90.00 3.227e-6 -90.00 9.514e-4 90.000
1.53000000 9.530e-4 90.000 3.231e-6 -90.00 3.231e-6 -90.00 9.577e-4 90.000
1.54000000 9.593e-4 90.000 3.235e-6 -90.00 3.235e-6 -90.00 9.640e-4 90.000
1.55000000 9.656e-4 90.000 3.238e-6 -90.00 3.238e-6 -90.00 9.703e-4 90.000
1.56000000 9.718e-4 90.000 3.241e-6 -90.00 3.241e-6 -90.00 9.766e-4 90.000
1.57000000 9.781e-4 90.000 3.244e-6 -90.00 3.244e-6 -90.00 9.828e-4 90.000
1.58000000 9.843e-4 90.000 3.246e-6 -90.00 3.246e-6 -90.00 9.891e-4 90.000
1.59000000 9.906e-4 90.000 3.248e-6 -90.00 3.248e-6 -90.00 9.954e-4 90.000
1.60000000 9.968e-4 90.000 3.249e-6 -90.00 3.249e-6 -90.00 0.001002 90.000
1.61000000 0.001003 90.000 3.251e-6 -90.00 3.251e-6 -90.00 0.001008 90.000
1.62000000 0.001009 90.000 3.251e-6 -90.00 3.251e-6 -90.00 0.001014 90.000
1.63000000 0.001016 90.000 3.252e-6 -90.00 3.252e-6 -90.00 0.001021 90.000
1.64000000 0.001022 90.000 3.252e-6 -90.00 3.252e-6 -90.00 0.001027 90.000
1.65000000 0.001028 90.000 3.252e-6 -90.00 3.252e-6 -90.00 0.001033 90.000
1.66000000 0.001034 90.000 3.251e-6 -90.00 3.251e-6 -90.00 0.001039 90.000
1.67000000 0.001041 90.000 3.250e-6 -90.00 3.250e-6 -90.00 0.001046 90.000
1.68000000 0.001047 90.000 3.249e-6 -90.00 3.249e-6 -90.00 0.001052 90.000
1.69000000 0.001053 90.000 3.247e-6 -90.00 3.247e-6 -90.00 0.001058 90.000
1.70000000 0.001059 90.000 3.245e-6 -90.00 3.245e-6 -90.00 0.001065 90.000
1.71000000 0.001066 90.000 3.243e-6 -90.00 3.243e-6 -90.00 0.001071 90.000
1.72000000 0.001072 90.000 3.240e-6 -90.00 3.240e-6 -90.00 0.001077 90.000
!< P1 F=1.72 Eeff=(undefined: nd) Z0=(undefined: nd) R=0.0 C=0.0 
!< P2 F=1.72 Eeff=(undefined: nd) Z0=(undefined: nd) R=0.0 C=0.0 
1.73000000 0.001078 90.000 3.236e-6 -90.00 3.236e-6 -90.00 0.001083 90.000
1.74000000 0.001084 90.000 3.233e-6 -90.00 3.233e-6 -90.00 0.001090 90.000
1.75000000 0.001091 90.000 3.229e-6 -90.00 3.229e-6 -90.00 0.001096 90.000
1.76000000 0.001097 90.000 3.224e-6 -90.00 3.224e-6 -90.00 0.001102 90.000
1.77000000 0.001103 90.000 3.219e-6 -90.00 3.219e-6 -90.00 0.001109 90.000
1.78000000 0.001109 90.000 3.214e-6 -90.00 3.214e-6 -90.00 0.001115 90.000
1.79000000 0.001116 90.000 3.209e-6 -90.00 3.209e-6 -90.00 0.001121 90.000
1.80000000 0.001122 90.000 3.203e-6 -90.00 3.203e-6 -90.00 0.001127 90.000
1.81000000 0.001128 90.000 3.196e-6 -90.00 3.196e-6 -90.00 0.001134 90.000
1.82000000 0.001135 90.000 3.189e-6 -90.00 3.189e-6 -90.00 0.001140 90.000
1.83000000 0.001141 90.000 3.182e-6 -90.00 3.182e-6 -90.00 0.001146 90.000
1.84000000 0.001147 90.000 3.175e-6 -90.00 3.175e-6 -90.00 0.001153 90.000
1.85000000 0.001153 90.000 3.166e-6 -90.00 3.166e-6 -90.00 0.001159 90.000
1.86000000 0.001160 90.000 3.158e-6 -90.00 3.158e-6 -90.00 0.001165 90.000
1.87000000 0.001166 90.000 3.149e-6 -90.00 3.149e-6 -90.00 0.001172 90.000
1.88000000 0.001172 90.000 3.140e-6 -90.00 3.140e-6 -90.00 0.001178 90.000
1.89000000 0.001178 90.000 3.130e-6 -90.00 3.130e-6 -90.00 0.001184 90.000
1.90000000 0.001185 90.000 3.120e-6 -90.00 3.120e-6 -90.00 0.001190 90.000
1.91000000 0.001191 90.000 3.109e-6 -90.00 3.109e-6 -90.00 0.001197 90.000
1.92000000 0.001197 90.000 3.098e-6 -90.00 3.098e-6 -90.00 0.001203 90.000
1.93000000 0.001203 90.000 3.087e-6 -90.00 3.087e-6 -90.00 0.001209 90.000
1.94000000 0.001210 90.000 3.075e-6 -90.00 3.075e-6 -90.00 0.001216 90.000
1.95000000 0.001216 90.000 3.063e-6 -90.00 3.063e-6 -90.00 0.001222 90.000
1.96000000 0.001222 90.000 3.050e-6 -90.00 3.050e-6 -90.00 0.001228 90.000
1.97000000 0.001229 90.000 3.037e-6 -90.00 3.037e-6 -90.00 0.001235 90.000
1.98000000 0.001235 90.000 3.023e-6 -90.00 3.023e-6 -90.00 0.001241 90.000
1.99000000 0.001241 90.000 3.009e-6 -90.00 3.009e-6 -90.00 0.001247 90.000
2.00000000 0.001247 90.000 2.995e-6 -90.00 2.995e-6 -90.00 0.001253 90.000
!< P1 F=2.0 Eeff=(undefined: nd) Z0=(undefined: nd) R=0.0 C=0.0 
!< P2 F=2.0 Eeff=(undefined: nd) Z0=(undefined: nd) R=0.0 C=0.0 
