! Sonnet Data File
! From: em Version : 14.52
! From Project: q-q2
! Data is De-embedded 
! Data File Written: 04/01/2019 07:21:47
!< HDATE 04/01/2019 00:25:40
!< MDATE 04/01/2019 00:25:40
# GHZ Y MA R 1.0
0.00100000 6.709e-7 89.998 3.072e-9 -89.46 3.149e-9 -91.06 6.709e-7 89.998
!< P1 F=0.001 Eeff=(undefined: sl) Z0=(undefined: sl) R=0.0 C=0.0 
!< P2 F=0.001 Eeff=(undefined: sl) Z0=(undefined: sl) R=0.0 C=0.0 
0.01000000 6.709e-6 90.001 3.121e-8 -89.84 3.121e-8 -89.84 6.709e-6 90.001
0.02000000 1.342e-5 90.001 6.239e-8 -89.78 6.239e-8 -89.78 1.342e-5 90.001
0.03000000 2.013e-5 90.001 9.356e-8 -89.76 9.356e-8 -89.76 2.013e-5 90.002
0.04000000 2.684e-5 90.001 1.247e-7 -89.75 1.247e-7 -89.75 2.684e-5 90.002
0.05000000 3.355e-5 90.001 1.559e-7 -89.75 1.559e-7 -89.75 3.355e-5 90.001
0.06000000 4.026e-5 90.001 1.870e-7 -89.75 1.870e-7 -89.75 4.025e-5 90.001
0.07000000 4.696e-5 90.001 2.182e-7 -89.76 2.182e-7 -89.76 4.696e-5 90.001
0.08000000 5.367e-5 90.001 2.493e-7 -89.76 2.493e-7 -89.76 5.367e-5 90.001
0.09000000 6.038e-5 90.001 2.805e-7 -89.76 2.805e-7 -89.76 6.038e-5 90.001
0.10000000 6.709e-5 90.001 3.116e-7 -89.77 3.116e-7 -89.77 6.709e-5 90.001
0.11000000 7.380e-5 90.001 3.427e-7 -89.77 3.427e-7 -89.77 7.380e-5 90.001
0.12000000 8.051e-5 90.001 3.738e-7 -89.78 3.738e-7 -89.78 8.051e-5 90.001
0.13000000 8.722e-5 90.001 4.049e-7 -89.78 4.049e-7 -89.78 8.722e-5 90.001
0.14000000 9.393e-5 90.001 4.360e-7 -89.79 4.360e-7 -89.79 9.393e-5 90.001
0.15000000 1.006e-4 90.001 4.671e-7 -89.79 4.671e-7 -89.79 1.006e-4 90.001
0.16000000 1.073e-4 90.001 4.982e-7 -89.79 4.982e-7 -89.79 1.073e-4 90.001
0.17000000 1.141e-4 90.001 5.292e-7 -89.80 5.292e-7 -89.80 1.141e-4 90.001
0.18000000 1.208e-4 90.001 5.603e-7 -89.80 5.603e-7 -89.80 1.208e-4 90.001
0.19000000 1.275e-4 90.001 5.913e-7 -89.81 5.913e-7 -89.81 1.275e-4 90.001
0.20000000 1.342e-4 90.001 6.223e-7 -89.81 6.223e-7 -89.81 1.342e-4 90.001
0.21000000 1.409e-4 90.001 6.533e-7 -89.82 6.533e-7 -89.82 1.409e-4 90.001
0.22000000 1.476e-4 90.001 6.843e-7 -89.82 6.843e-7 -89.82 1.476e-4 90.001
0.23000000 1.543e-4 90.001 7.153e-7 -89.82 7.153e-7 -89.82 1.543e-4 90.001
0.24000000 1.610e-4 90.001 7.463e-7 -89.83 7.463e-7 -89.83 1.610e-4 90.001
0.25000000 1.677e-4 90.001 7.772e-7 -89.83 7.772e-7 -89.83 1.677e-4 90.001
0.26000000 1.744e-4 90.001 8.081e-7 -89.84 8.081e-7 -89.84 1.744e-4 90.001
0.27000000 1.812e-4 90.001 8.390e-7 -89.84 8.390e-7 -89.84 1.812e-4 90.001
0.28000000 1.879e-4 90.001 8.699e-7 -89.85 8.699e-7 -89.85 1.879e-4 90.001
0.29000000 1.946e-4 90.001 9.008e-7 -89.85 9.008e-7 -89.85 1.946e-4 90.001
0.30000000 2.013e-4 90.001 9.317e-7 -89.85 9.317e-7 -89.85 2.013e-4 90.001
0.31000000 2.080e-4 90.001 9.625e-7 -89.86 9.625e-7 -89.86 2.080e-4 90.001
0.32000000 2.147e-4 90.001 9.933e-7 -89.86 9.933e-7 -89.86 2.147e-4 90.001
0.33000000 2.214e-4 90.001 1.024e-6 -89.87 1.024e-6 -89.87 2.214e-4 90.001
0.34000000 2.281e-4 90.001 1.055e-6 -89.87 1.055e-6 -89.87 2.281e-4 90.001
0.35000000 2.348e-4 90.001 1.086e-6 -89.87 1.086e-6 -89.87 2.348e-4 90.001
0.36000000 2.416e-4 90.001 1.116e-6 -89.88 1.116e-6 -89.88 2.415e-4 90.001
0.37000000 2.483e-4 90.001 1.147e-6 -89.88 1.147e-6 -89.88 2.483e-4 90.001
0.38000000 2.550e-4 90.001 1.178e-6 -89.88 1.178e-6 -89.88 2.550e-4 90.001
0.39000000 2.617e-4 90.001 1.209e-6 -89.89 1.209e-6 -89.89 2.617e-4 90.001
0.40000000 2.684e-4 90.001 1.239e-6 -89.89 1.239e-6 -89.89 2.684e-4 90.001
0.41000000 2.751e-4 90.001 1.270e-6 -89.89 1.270e-6 -89.89 2.751e-4 90.001
0.42000000 2.818e-4 90.001 1.300e-6 -89.90 1.300e-6 -89.90 2.818e-4 90.001
0.43000000 2.885e-4 90.001 1.331e-6 -89.90 1.331e-6 -89.90 2.885e-4 90.001
0.44000000 2.952e-4 90.000 1.362e-6 -89.90 1.362e-6 -89.90 2.952e-4 90.001
0.45000000 3.020e-4 90.000 1.392e-6 -89.91 1.392e-6 -89.91 3.019e-4 90.000
0.46000000 3.087e-4 90.000 1.423e-6 -89.91 1.423e-6 -89.91 3.087e-4 90.000
0.47000000 3.154e-4 90.000 1.453e-6 -89.91 1.453e-6 -89.91 3.154e-4 90.000
0.48000000 3.221e-4 90.000 1.484e-6 -89.91 1.484e-6 -89.91 3.221e-4 90.000
0.49000000 3.288e-4 90.000 1.514e-6 -89.92 1.514e-6 -89.92 3.288e-4 90.000
0.50000000 3.355e-4 90.000 1.544e-6 -89.92 1.544e-6 -89.92 3.355e-4 90.000
0.51000000 3.422e-4 90.000 1.575e-6 -89.92 1.575e-6 -89.92 3.422e-4 90.000
0.52000000 3.489e-4 90.000 1.605e-6 -89.93 1.605e-6 -89.93 3.489e-4 90.000
0.53000000 3.557e-4 90.000 1.635e-6 -89.93 1.635e-6 -89.93 3.556e-4 90.000
0.54000000 3.624e-4 90.000 1.666e-6 -89.93 1.666e-6 -89.93 3.624e-4 90.000
0.55000000 3.691e-4 90.000 1.696e-6 -89.93 1.696e-6 -89.93 3.691e-4 90.000
0.56000000 3.758e-4 90.000 1.726e-6 -89.94 1.726e-6 -89.94 3.758e-4 90.000
0.57000000 3.825e-4 90.000 1.756e-6 -89.94 1.756e-6 -89.94 3.825e-4 90.000
0.58000000 3.892e-4 90.000 1.786e-6 -89.94 1.786e-6 -89.94 3.892e-4 90.000
0.59000000 3.959e-4 90.000 1.816e-6 -89.94 1.816e-6 -89.94 3.959e-4 90.000
0.60000000 4.026e-4 90.000 1.847e-6 -89.95 1.847e-6 -89.95 4.026e-4 90.000
0.61000000 4.094e-4 90.000 1.877e-6 -89.95 1.877e-6 -89.95 4.094e-4 90.000
0.62000000 4.161e-4 90.000 1.907e-6 -89.95 1.907e-6 -89.95 4.161e-4 90.000
0.63000000 4.228e-4 90.000 1.937e-6 -89.95 1.937e-6 -89.95 4.228e-4 90.000
0.64000000 4.295e-4 90.000 1.967e-6 -89.95 1.967e-6 -89.95 4.295e-4 90.000
0.65000000 4.362e-4 90.000 1.996e-6 -89.96 1.996e-6 -89.96 4.362e-4 90.000
0.66000000 4.429e-4 90.000 2.026e-6 -89.96 2.026e-6 -89.96 4.429e-4 90.000
0.67000000 4.496e-4 90.000 2.056e-6 -89.96 2.056e-6 -89.96 4.496e-4 90.000
0.68000000 4.564e-4 90.000 2.086e-6 -89.96 2.086e-6 -89.96 4.564e-4 90.000
0.69000000 4.631e-4 90.000 2.116e-6 -89.96 2.116e-6 -89.96 4.631e-4 90.000
0.70000000 4.698e-4 90.000 2.145e-6 -89.97 2.145e-6 -89.97 4.698e-4 90.000
0.71000000 4.765e-4 90.000 2.175e-6 -89.97 2.175e-6 -89.97 4.765e-4 90.000
0.72000000 4.832e-4 90.000 2.205e-6 -89.97 2.205e-6 -89.97 4.832e-4 90.000
0.73000000 4.899e-4 90.000 2.234e-6 -89.97 2.234e-6 -89.97 4.899e-4 90.000
0.74000000 4.967e-4 90.000 2.264e-6 -89.97 2.264e-6 -89.97 4.966e-4 90.000
0.75000000 5.034e-4 90.000 2.293e-6 -89.97 2.293e-6 -89.97 5.034e-4 90.000
0.76000000 5.101e-4 90.000 2.323e-6 -89.98 2.323e-6 -89.98 5.101e-4 90.000
0.77000000 5.168e-4 90.000 2.352e-6 -89.98 2.352e-6 -89.98 5.168e-4 90.000
0.78000000 5.235e-4 90.000 2.382e-6 -89.98 2.382e-6 -89.98 5.235e-4 90.000
0.79000000 5.302e-4 90.000 2.411e-6 -89.98 2.411e-6 -89.98 5.302e-4 90.000
0.80000000 5.370e-4 90.000 2.440e-6 -89.98 2.440e-6 -89.98 5.370e-4 90.000
0.81000000 5.437e-4 90.000 2.469e-6 -89.98 2.469e-6 -89.98 5.437e-4 90.000
0.82000000 5.504e-4 90.000 2.499e-6 -89.98 2.499e-6 -89.98 5.504e-4 90.000
0.83000000 5.571e-4 90.000 2.528e-6 -89.99 2.528e-6 -89.99 5.571e-4 90.000
0.84000000 5.638e-4 90.000 2.557e-6 -89.99 2.557e-6 -89.99 5.638e-4 90.000
0.85000000 5.706e-4 90.000 2.586e-6 -89.99 2.586e-6 -89.99 5.705e-4 90.000
0.86000000 5.773e-4 90.000 2.615e-6 -89.99 2.615e-6 -89.99 5.773e-4 90.000
0.87000000 5.840e-4 90.000 2.644e-6 -89.99 2.644e-6 -89.99 5.840e-4 90.000
0.88000000 5.907e-4 90.000 2.673e-6 -89.99 2.673e-6 -89.99 5.907e-4 90.000
0.89000000 5.974e-4 90.000 2.702e-6 -89.99 2.702e-6 -89.99 5.974e-4 90.000
0.90000000 6.042e-4 90.000 2.730e-6 -89.99 2.730e-6 -89.99 6.041e-4 90.000
0.91000000 6.109e-4 90.000 2.759e-6 -89.99 2.759e-6 -89.99 6.109e-4 90.000
0.92000000 6.176e-4 90.000 2.788e-6 -89.99 2.788e-6 -89.99 6.176e-4 90.000
0.93000000 6.243e-4 90.000 2.817e-6 -90.00 2.817e-6 -90.00 6.243e-4 90.000
0.94000000 6.310e-4 90.000 2.845e-6 -90.00 2.845e-6 -90.00 6.310e-4 90.000
0.95000000 6.378e-4 90.000 2.874e-6 -90.00 2.874e-6 -90.00 6.377e-4 90.000
0.96000000 6.445e-4 90.000 2.902e-6 -90.00 2.902e-6 -90.00 6.445e-4 90.000
0.97000000 6.512e-4 90.000 2.931e-6 -90.00 2.931e-6 -90.00 6.512e-4 90.000
0.98000000 6.579e-4 90.000 2.959e-6 -90.00 2.959e-6 -90.00 6.579e-4 90.000
0.99000000 6.646e-4 90.000 2.987e-6 -90.00 2.987e-6 -90.00 6.646e-4 90.000
!< P1 F=0.99 Eeff=(6.06025279 -4.7764e-6) Z0=(162.842077 6.41022e-5) R=0.04113165 C=0.00500624 
!< P2 F=0.99 Eeff=(6.07163664 -4.7797e-6) Z0=(163.020266 6.40313e-5) R=0.04134341 C=0.00500903 
1.00000000 6.714e-4 90.000 3.016e-6 -90.00 3.016e-6 -90.00 6.714e-4 90.000
1.01000000 6.781e-4 90.000 3.044e-6 -90.00 3.044e-6 -90.00 6.781e-4 90.000
1.02000000 6.848e-4 90.000 3.072e-6 -90.00 3.072e-6 -90.00 6.848e-4 90.000
1.03000000 6.915e-4 90.000 3.100e-6 -90.00 3.100e-6 -90.00 6.915e-4 90.000
1.04000000 6.983e-4 90.000 3.128e-6 -90.00 3.128e-6 -90.00 6.982e-4 90.000
1.05000000 7.050e-4 90.000 3.156e-6 -90.00 3.156e-6 -90.00 7.050e-4 90.000
1.06000000 7.117e-4 90.000 3.184e-6 -90.00 3.184e-6 -90.00 7.117e-4 90.000
1.07000000 7.184e-4 90.000 3.212e-6 -90.00 3.212e-6 -90.00 7.184e-4 90.000
1.08000000 7.252e-4 90.000 3.240e-6 -90.00 3.240e-6 -90.00 7.251e-4 90.000
1.09000000 7.319e-4 90.000 3.268e-6 -90.00 3.268e-6 -90.00 7.319e-4 90.000
1.10000000 7.386e-4 90.000 3.295e-6 -90.01 3.295e-6 -90.01 7.386e-4 90.000
1.11000000 7.453e-4 90.000 3.323e-6 -90.01 3.323e-6 -90.01 7.453e-4 90.000
1.12000000 7.521e-4 90.000 3.350e-6 -90.01 3.350e-6 -90.01 7.520e-4 90.000
1.13000000 7.588e-4 90.000 3.378e-6 -90.01 3.378e-6 -90.01 7.588e-4 90.000
1.14000000 7.655e-4 90.000 3.405e-6 -90.01 3.405e-6 -90.01 7.655e-4 90.000
1.15000000 7.722e-4 90.000 3.433e-6 -90.01 3.433e-6 -90.01 7.722e-4 90.000
1.16000000 7.790e-4 90.000 3.460e-6 -90.01 3.460e-6 -90.01 7.789e-4 90.000
1.17000000 7.857e-4 90.000 3.487e-6 -90.01 3.487e-6 -90.01 7.857e-4 90.000
1.18000000 7.924e-4 90.000 3.514e-6 -90.01 3.514e-6 -90.01 7.924e-4 90.000
1.19000000 7.991e-4 90.000 3.541e-6 -90.01 3.541e-6 -90.01 7.991e-4 90.000
1.20000000 8.059e-4 90.000 3.569e-6 -90.01 3.569e-6 -90.01 8.059e-4 90.000
1.21000000 8.126e-4 90.000 3.595e-6 -90.01 3.595e-6 -90.01 8.126e-4 90.000
1.22000000 8.193e-4 90.000 3.622e-6 -90.01 3.622e-6 -90.01 8.193e-4 90.000
1.23000000 8.261e-4 90.000 3.649e-6 -90.01 3.649e-6 -90.01 8.260e-4 90.000
1.24000000 8.328e-4 90.000 3.676e-6 -90.01 3.676e-6 -90.01 8.328e-4 90.000
1.25000000 8.395e-4 90.000 3.703e-6 -90.01 3.703e-6 -90.01 8.395e-4 90.000
1.26000000 8.463e-4 90.000 3.729e-6 -90.01 3.729e-6 -90.01 8.462e-4 90.000
1.27000000 8.530e-4 90.000 3.756e-6 -90.01 3.756e-6 -90.01 8.530e-4 90.000
1.28000000 8.597e-4 90.000 3.782e-6 -90.01 3.782e-6 -90.01 8.597e-4 90.000
1.29000000 8.664e-4 90.000 3.809e-6 -90.01 3.809e-6 -90.01 8.664e-4 90.000
1.30000000 8.732e-4 90.000 3.835e-6 -90.01 3.835e-6 -90.01 8.732e-4 90.000
1.31000000 8.799e-4 90.000 3.861e-6 -90.01 3.861e-6 -90.01 8.799e-4 90.000
1.32000000 8.866e-4 90.000 3.887e-6 -90.01 3.887e-6 -90.01 8.866e-4 90.000
1.33000000 8.934e-4 90.000 3.914e-6 -90.01 3.914e-6 -90.01 8.934e-4 90.000
1.34000000 9.001e-4 90.000 3.940e-6 -90.01 3.940e-6 -90.01 9.001e-4 90.000
1.35000000 9.068e-4 90.000 3.965e-6 -90.01 3.965e-6 -90.01 9.068e-4 90.000
1.36000000 9.136e-4 90.000 3.991e-6 -90.01 3.991e-6 -90.01 9.136e-4 90.000
1.37000000 9.203e-4 90.000 4.017e-6 -90.01 4.017e-6 -90.01 9.203e-4 90.000
1.38000000 9.270e-4 90.000 4.043e-6 -90.01 4.043e-6 -90.01 9.270e-4 90.000
1.39000000 9.338e-4 90.000 4.068e-6 -90.01 4.068e-6 -90.01 9.338e-4 90.000
1.40000000 9.405e-4 90.000 4.094e-6 -90.00 4.094e-6 -90.00 9.405e-4 90.000
1.41000000 9.472e-4 90.000 4.120e-6 -90.00 4.120e-6 -90.00 9.472e-4 90.000
1.42000000 9.540e-4 90.000 4.145e-6 -90.00 4.145e-6 -90.00 9.540e-4 90.000
1.43000000 9.607e-4 90.000 4.170e-6 -90.00 4.170e-6 -90.00 9.607e-4 90.000
1.44000000 9.675e-4 90.000 4.195e-6 -90.00 4.195e-6 -90.00 9.674e-4 90.000
1.45000000 9.742e-4 90.000 4.221e-6 -90.00 4.221e-6 -90.00 9.742e-4 90.000
1.46000000 9.809e-4 90.000 4.246e-6 -90.00 4.246e-6 -90.00 9.809e-4 90.000
1.47000000 9.877e-4 90.000 4.271e-6 -90.00 4.271e-6 -90.00 9.877e-4 90.000
1.48000000 9.944e-4 90.000 4.296e-6 -90.00 4.296e-6 -90.00 9.944e-4 90.000
1.49000000 0.001001 90.000 4.320e-6 -90.00 4.320e-6 -90.00 0.001001 90.000
1.50000000 0.001008 90.000 4.345e-6 -90.00 4.345e-6 -90.00 0.001008 90.000
1.51000000 0.001015 90.000 4.370e-6 -90.00 4.370e-6 -90.00 0.001015 90.000
1.52000000 0.001021 90.000 4.394e-6 -90.00 4.394e-6 -90.00 0.001021 90.000
1.53000000 0.001028 90.000 4.419e-6 -90.00 4.419e-6 -90.00 0.001028 90.000
1.54000000 0.001035 90.000 4.443e-6 -90.00 4.443e-6 -90.00 0.001035 90.000
1.55000000 0.001042 90.000 4.467e-6 -90.00 4.467e-6 -90.00 0.001042 90.000
1.56000000 0.001048 90.000 4.492e-6 -90.00 4.492e-6 -90.00 0.001048 90.000
1.57000000 0.001055 90.000 4.516e-6 -90.00 4.516e-6 -90.00 0.001055 90.000
!< P1 F=1.57 Eeff=(6.06068228 -4.7579e-6) Z0=(162.843331 6.39318e-5) R=0.02613482 C=0.00500594 
!< P2 F=1.57 Eeff=(6.07207096 -4.7715e-6) Z0=(163.021698 6.40313e-5) R=0.02603471 C=0.00500874 
1.58000000 0.001062 90.000 4.540e-6 -90.00 4.540e-6 -90.00 0.001062 90.000
1.59000000 0.001069 90.000 4.564e-6 -90.00 4.564e-6 -90.00 0.001069 90.000
1.60000000 0.001075 90.000 4.587e-6 -90.00 4.587e-6 -90.00 0.001075 90.000
1.61000000 0.001082 90.000 4.611e-6 -90.00 4.611e-6 -90.00 0.001082 90.000
1.62000000 0.001089 90.000 4.635e-6 -90.00 4.635e-6 -90.00 0.001089 90.000
1.63000000 0.001096 90.000 4.658e-6 -90.00 4.658e-6 -90.00 0.001096 90.000
1.64000000 0.001102 90.000 4.682e-6 -90.00 4.682e-6 -90.00 0.001102 90.000
1.65000000 0.001109 90.000 4.705e-6 -90.00 4.705e-6 -90.00 0.001109 90.000
1.66000000 0.001116 90.000 4.728e-6 -90.00 4.728e-6 -90.00 0.001116 90.000
1.67000000 0.001123 90.000 4.752e-6 -90.00 4.752e-6 -90.00 0.001123 90.000
1.68000000 0.001129 90.000 4.775e-6 -90.00 4.775e-6 -90.00 0.001129 90.000
1.69000000 0.001136 90.000 4.798e-6 -90.00 4.798e-6 -90.00 0.001136 90.000
1.70000000 0.001143 90.000 4.820e-6 -90.00 4.820e-6 -90.00 0.001143 90.000
1.71000000 0.001150 90.000 4.843e-6 -90.00 4.843e-6 -90.00 0.001150 90.000
1.72000000 0.001156 90.000 4.866e-6 -90.00 4.866e-6 -90.00 0.001156 90.000
1.73000000 0.001163 90.000 4.888e-6 -90.00 4.888e-6 -90.00 0.001163 90.000
1.74000000 0.001170 90.000 4.911e-6 -90.00 4.911e-6 -90.00 0.001170 90.000
1.75000000 0.001177 90.000 4.933e-6 -90.00 4.933e-6 -90.00 0.001176 90.000
1.76000000 0.001183 90.000 4.956e-6 -90.00 4.956e-6 -90.00 0.001183 90.000
1.77000000 0.001190 90.000 4.978e-6 -90.00 4.978e-6 -90.00 0.001190 90.000
1.78000000 0.001197 90.000 5.000e-6 -90.00 5.000e-6 -90.00 0.001197 90.000
1.79000000 0.001204 90.000 5.022e-6 -90.00 5.022e-6 -90.00 0.001204 90.000
1.80000000 0.001210 90.000 5.044e-6 -90.00 5.044e-6 -90.00 0.001210 90.000
1.81000000 0.001217 90.000 5.065e-6 -90.00 5.065e-6 -90.00 0.001217 90.000
1.82000000 0.001224 90.000 5.087e-6 -90.00 5.087e-6 -90.00 0.001224 90.000
1.83000000 0.001231 90.000 5.109e-6 -90.00 5.109e-6 -90.00 0.001231 90.000
1.84000000 0.001237 90.000 5.130e-6 -90.00 5.130e-6 -90.00 0.001237 90.000
1.85000000 0.001244 90.000 5.151e-6 -90.00 5.151e-6 -90.00 0.001244 90.000
1.86000000 0.001251 90.000 5.173e-6 -90.00 5.173e-6 -90.00 0.001251 90.000
1.87000000 0.001258 90.000 5.194e-6 -90.00 5.194e-6 -90.00 0.001258 90.000
1.88000000 0.001264 90.000 5.215e-6 -90.00 5.215e-6 -90.00 0.001264 90.000
1.89000000 0.001271 90.000 5.235e-6 -90.00 5.235e-6 -90.00 0.001271 90.000
1.90000000 0.001278 90.000 5.256e-6 -90.00 5.256e-6 -90.00 0.001278 90.000
1.91000000 0.001285 90.000 5.277e-6 -90.00 5.277e-6 -90.00 0.001285 90.000
1.92000000 0.001291 90.000 5.297e-6 -90.00 5.297e-6 -90.00 0.001291 90.000
1.93000000 0.001298 90.000 5.318e-6 -90.00 5.318e-6 -90.00 0.001298 90.000
1.94000000 0.001305 90.000 5.338e-6 -90.00 5.338e-6 -90.00 0.001305 90.000
1.95000000 0.001312 90.000 5.358e-6 -90.00 5.358e-6 -90.00 0.001312 90.000
1.96000000 0.001318 90.000 5.379e-6 -90.00 5.379e-6 -90.00 0.001318 90.000
1.97000000 0.001325 90.000 5.398e-6 -90.00 5.398e-6 -90.00 0.001325 90.000
1.98000000 0.001332 90.000 5.418e-6 -90.00 5.418e-6 -90.00 0.001332 90.000
1.99000000 0.001339 90.000 5.438e-6 -90.00 5.438e-6 -90.00 0.001339 90.000
2.00000000 0.001345 90.000 5.458e-6 -90.00 5.458e-6 -90.00 0.001345 90.000
!< P1 F=2.0 Eeff=(6.06106582 -4.7622e-6) Z0=(162.843819 6.39886e-5) R=0.02043419 C=0.00500563 
!< P2 F=2.0 Eeff=(6.07245949 -4.7746e-6) Z0=(163.022372 6.40313e-5) R=0.02044229 C=0.00500844 
