! Sonnet Data File
! From: em Version : 14.52
! From Project: q-q3
! Data is De-embedded 
! Data File Written: 04/02/2019 01:17:23
!< HDATE 04/01/2019 17:21:02
!< MDATE 04/01/2019 17:21:02
# GHZ Y MA R 1.0
0.00100000 6.358e-7 90.002 3.132e-9 -90.00 3.132e-9 -89.97 6.705e-7 90.002
!< P1 F=0.001 Eeff=(undefined: sl) Z0=(undefined: sl) R=0.0 C=0.0 
!< P2 F=0.001 Eeff=(undefined: sl) Z0=(undefined: sl) R=0.0 C=0.0 
0.01000000 6.358e-6 90.000 3.135e-8 -90.00 3.135e-8 -90.00 6.705e-6 90.000
0.02000000 1.272e-5 90.000 6.270e-8 -90.00 6.270e-8 -90.00 1.341e-5 90.000
0.03000000 1.908e-5 90.000 9.405e-8 -90.00 9.405e-8 -90.00 2.011e-5 90.000
0.04000000 2.543e-5 90.000 1.254e-7 -90.00 1.254e-7 -90.00 2.682e-5 90.000
0.05000000 3.179e-5 90.000 1.568e-7 -90.00 1.568e-7 -90.00 3.352e-5 90.000
0.06000000 3.815e-5 90.000 1.881e-7 -90.00 1.881e-7 -90.00 4.023e-5 90.000
0.07000000 4.451e-5 90.000 2.194e-7 -90.00 2.194e-7 -90.00 4.693e-5 90.000
0.08000000 5.087e-5 90.000 2.508e-7 -90.00 2.508e-7 -90.00 5.364e-5 90.000
0.09000000 5.723e-5 90.000 2.821e-7 -90.00 2.821e-7 -90.00 6.034e-5 90.000
0.10000000 6.359e-5 90.000 3.134e-7 -90.00 3.134e-7 -90.00 6.705e-5 90.000
0.11000000 6.994e-5 90.000 3.448e-7 -90.00 3.448e-7 -90.00 7.375e-5 90.000
0.12000000 7.630e-5 90.000 3.761e-7 -90.00 3.761e-7 -90.00 8.046e-5 90.000
0.13000000 8.266e-5 90.000 4.074e-7 -90.00 4.074e-7 -90.00 8.716e-5 90.000
0.14000000 8.902e-5 90.000 4.387e-7 -90.00 4.387e-7 -90.00 9.387e-5 90.000
0.15000000 9.538e-5 90.000 4.700e-7 -90.00 4.700e-7 -90.00 1.006e-4 90.000
0.16000000 1.017e-4 90.000 5.013e-7 -90.00 5.013e-7 -90.00 1.073e-4 90.000
0.17000000 1.081e-4 90.000 5.326e-7 -90.00 5.326e-7 -90.00 1.140e-4 90.000
0.18000000 1.145e-4 90.000 5.638e-7 -90.00 5.638e-7 -90.00 1.207e-4 90.000
0.19000000 1.208e-4 90.000 5.951e-7 -90.00 5.951e-7 -90.00 1.274e-4 90.000
0.20000000 1.272e-4 90.000 6.264e-7 -90.00 6.264e-7 -90.00 1.341e-4 90.000
0.21000000 1.335e-4 90.000 6.576e-7 -90.00 6.576e-7 -90.00 1.408e-4 90.000
0.22000000 1.399e-4 90.000 6.888e-7 -90.00 6.888e-7 -90.00 1.475e-4 90.000
0.23000000 1.463e-4 90.000 7.201e-7 -90.00 7.201e-7 -90.00 1.542e-4 90.000
0.24000000 1.526e-4 90.000 7.513e-7 -90.00 7.513e-7 -90.00 1.609e-4 90.000
0.25000000 1.590e-4 90.000 7.825e-7 -90.00 7.825e-7 -90.00 1.676e-4 90.000
0.26000000 1.653e-4 90.000 8.137e-7 -90.00 8.137e-7 -90.00 1.743e-4 90.000
0.27000000 1.717e-4 90.000 8.448e-7 -90.00 8.448e-7 -90.00 1.810e-4 90.000
0.28000000 1.780e-4 90.000 8.760e-7 -90.00 8.760e-7 -90.00 1.877e-4 90.000
0.29000000 1.844e-4 90.000 9.071e-7 -90.00 9.071e-7 -90.00 1.944e-4 90.000
0.30000000 1.908e-4 90.000 9.383e-7 -90.00 9.383e-7 -90.00 2.012e-4 90.000
0.31000000 1.971e-4 90.000 9.694e-7 -90.00 9.694e-7 -90.00 2.079e-4 90.000
!< P1 F=0.31 Eeff=(6.05183361 -4.8311e-6) Z0=(162.71207 6.29425e-5) R=0.13689702 C=0.00500428 
!< P2 F=0.31 Eeff=(6.07448168 -4.6337e-6) Z0=(163.068634 6.33027e-5) R=0.13508652 C=0.00501004 
0.32000000 2.035e-4 90.000 1.000e-6 -90.00 1.000e-6 -90.00 2.146e-4 90.000
0.33000000 2.098e-4 90.000 1.032e-6 -90.00 1.032e-6 -90.00 2.213e-4 90.000
0.34000000 2.162e-4 90.000 1.063e-6 -90.00 1.063e-6 -90.00 2.280e-4 90.000
0.35000000 2.226e-4 90.000 1.094e-6 -90.00 1.094e-6 -90.00 2.347e-4 90.000
0.36000000 2.289e-4 90.000 1.125e-6 -90.00 1.125e-6 -90.00 2.414e-4 90.000
0.37000000 2.353e-4 90.000 1.156e-6 -90.00 1.156e-6 -90.00 2.481e-4 90.000
0.38000000 2.416e-4 90.000 1.187e-6 -90.00 1.187e-6 -90.00 2.548e-4 90.000
0.39000000 2.480e-4 90.000 1.218e-6 -90.00 1.218e-6 -90.00 2.615e-4 90.000
0.40000000 2.544e-4 90.000 1.249e-6 -90.00 1.249e-6 -90.00 2.682e-4 90.000
0.41000000 2.607e-4 90.000 1.280e-6 -90.00 1.280e-6 -90.00 2.749e-4 90.000
0.42000000 2.671e-4 90.000 1.311e-6 -90.00 1.311e-6 -90.00 2.816e-4 90.000
0.43000000 2.735e-4 90.000 1.341e-6 -90.00 1.341e-6 -90.00 2.883e-4 90.000
0.44000000 2.798e-4 90.000 1.372e-6 -90.00 1.372e-6 -90.00 2.950e-4 90.000
0.45000000 2.862e-4 90.000 1.403e-6 -90.00 1.403e-6 -90.00 3.018e-4 90.000
0.46000000 2.925e-4 90.000 1.434e-6 -90.00 1.434e-6 -90.00 3.085e-4 90.000
0.47000000 2.989e-4 90.000 1.465e-6 -90.00 1.465e-6 -90.00 3.152e-4 90.000
0.48000000 3.053e-4 90.000 1.496e-6 -90.00 1.496e-6 -90.00 3.219e-4 90.000
0.49000000 3.116e-4 90.000 1.526e-6 -90.00 1.526e-6 -90.00 3.286e-4 90.000
0.50000000 3.180e-4 90.000 1.557e-6 -90.00 1.557e-6 -90.00 3.353e-4 90.000
0.51000000 3.243e-4 90.000 1.588e-6 -90.00 1.588e-6 -90.00 3.420e-4 90.000
0.52000000 3.307e-4 90.000 1.618e-6 -90.00 1.618e-6 -90.00 3.487e-4 90.000
0.53000000 3.371e-4 90.000 1.649e-6 -90.00 1.649e-6 -90.00 3.554e-4 90.000
0.54000000 3.434e-4 90.000 1.680e-6 -90.00 1.680e-6 -90.00 3.621e-4 90.000
0.55000000 3.498e-4 90.000 1.710e-6 -90.00 1.710e-6 -90.00 3.688e-4 90.000
0.56000000 3.562e-4 90.000 1.741e-6 -90.00 1.741e-6 -90.00 3.755e-4 90.000
0.57000000 3.625e-4 90.000 1.771e-6 -90.00 1.771e-6 -90.00 3.823e-4 90.000
0.58000000 3.689e-4 90.000 1.802e-6 -90.00 1.802e-6 -90.00 3.890e-4 90.000
0.59000000 3.752e-4 90.000 1.832e-6 -90.00 1.832e-6 -90.00 3.957e-4 90.000
0.60000000 3.816e-4 90.000 1.863e-6 -90.00 1.863e-6 -90.00 4.024e-4 90.000
0.61000000 3.880e-4 90.000 1.893e-6 -90.00 1.893e-6 -90.00 4.091e-4 90.000
0.62000000 3.943e-4 90.000 1.924e-6 -90.00 1.924e-6 -90.00 4.158e-4 90.000
0.63000000 4.007e-4 90.000 1.954e-6 -90.00 1.954e-6 -90.00 4.225e-4 90.000
0.64000000 4.071e-4 90.000 1.984e-6 -90.00 1.984e-6 -90.00 4.292e-4 90.000
0.65000000 4.134e-4 90.000 2.015e-6 -90.00 2.015e-6 -90.00 4.359e-4 90.000
0.66000000 4.198e-4 90.000 2.045e-6 -90.00 2.045e-6 -90.00 4.426e-4 90.000
0.67000000 4.262e-4 90.000 2.075e-6 -90.00 2.075e-6 -90.00 4.494e-4 90.000
0.68000000 4.325e-4 90.000 2.105e-6 -90.00 2.105e-6 -90.00 4.561e-4 90.000
0.69000000 4.389e-4 90.000 2.135e-6 -90.00 2.135e-6 -90.00 4.628e-4 90.000
0.70000000 4.453e-4 90.000 2.166e-6 -90.00 2.166e-6 -90.00 4.695e-4 90.000
0.71000000 4.516e-4 90.000 2.196e-6 -90.00 2.196e-6 -90.00 4.762e-4 90.000
0.72000000 4.580e-4 90.000 2.226e-6 -90.00 2.226e-6 -90.00 4.829e-4 90.000
0.73000000 4.644e-4 90.000 2.256e-6 -90.00 2.256e-6 -90.00 4.896e-4 90.000
0.74000000 4.707e-4 90.000 2.286e-6 -90.00 2.286e-6 -90.00 4.963e-4 90.000
0.75000000 4.771e-4 90.000 2.316e-6 -90.00 2.316e-6 -90.00 5.030e-4 90.000
0.76000000 4.835e-4 90.000 2.346e-6 -90.00 2.346e-6 -90.00 5.098e-4 90.000
0.77000000 4.898e-4 90.000 2.375e-6 -90.00 2.375e-6 -90.00 5.165e-4 90.000
0.78000000 4.962e-4 90.000 2.405e-6 -90.00 2.405e-6 -90.00 5.232e-4 90.000
0.79000000 5.026e-4 90.000 2.435e-6 -90.00 2.435e-6 -90.00 5.299e-4 90.000
0.80000000 5.089e-4 90.000 2.465e-6 -90.00 2.465e-6 -90.00 5.366e-4 90.000
0.81000000 5.153e-4 90.000 2.494e-6 -90.00 2.494e-6 -90.00 5.433e-4 90.000
0.82000000 5.217e-4 90.000 2.524e-6 -90.00 2.524e-6 -90.00 5.500e-4 90.000
0.83000000 5.280e-4 90.000 2.554e-6 -90.00 2.554e-6 -90.00 5.568e-4 90.000
0.84000000 5.344e-4 90.000 2.583e-6 -90.00 2.583e-6 -90.00 5.635e-4 90.000
0.85000000 5.408e-4 90.000 2.613e-6 -90.00 2.613e-6 -90.00 5.702e-4 90.000
0.86000000 5.471e-4 90.000 2.642e-6 -90.00 2.642e-6 -90.00 5.769e-4 90.000
0.87000000 5.535e-4 90.000 2.672e-6 -90.00 2.672e-6 -90.00 5.836e-4 90.000
0.88000000 5.599e-4 90.000 2.701e-6 -90.00 2.701e-6 -90.00 5.903e-4 90.000
0.89000000 5.662e-4 90.000 2.731e-6 -90.00 2.731e-6 -90.00 5.970e-4 90.000
0.90000000 5.726e-4 90.000 2.760e-6 -90.00 2.760e-6 -90.00 6.038e-4 90.000
0.91000000 5.790e-4 90.000 2.789e-6 -90.00 2.789e-6 -90.00 6.105e-4 90.000
0.92000000 5.854e-4 90.000 2.818e-6 -90.00 2.818e-6 -90.00 6.172e-4 90.000
0.93000000 5.917e-4 90.000 2.847e-6 -90.00 2.847e-6 -90.00 6.239e-4 90.000
0.94000000 5.981e-4 90.000 2.877e-6 -90.00 2.877e-6 -90.00 6.306e-4 90.000
0.95000000 6.045e-4 90.000 2.906e-6 -90.00 2.906e-6 -90.00 6.373e-4 90.000
0.96000000 6.108e-4 90.000 2.935e-6 -90.00 2.935e-6 -90.00 6.441e-4 90.000
!< P1 F=0.96 Eeff=(6.05326155 -4.7665e-6) Z0=(162.728717 6.39175e-5) R=0.04271544 C=0.00500411 
!< P2 F=0.96 Eeff=(6.07591432 -4.7694e-6) Z0=(163.085443 6.40028e-5) R=0.04263659 C=0.00500988 
0.97000000 6.172e-4 90.000 2.964e-6 -90.00 2.964e-6 -90.00 6.508e-4 90.000
0.98000000 6.236e-4 90.000 2.993e-6 -90.00 2.993e-6 -90.00 6.575e-4 90.000
0.99000000 6.300e-4 90.000 3.021e-6 -90.00 3.021e-6 -90.00 6.642e-4 90.000
1.00000000 6.363e-4 90.000 3.050e-6 -90.00 3.050e-6 -90.00 6.709e-4 90.000
1.01000000 6.427e-4 90.000 3.079e-6 -90.00 3.079e-6 -90.00 6.776e-4 90.000
1.02000000 6.491e-4 90.000 3.108e-6 -90.00 3.108e-6 -90.00 6.844e-4 90.000
1.03000000 6.554e-4 90.000 3.136e-6 -90.00 3.136e-6 -90.00 6.911e-4 90.000
1.04000000 6.618e-4 90.000 3.165e-6 -90.00 3.165e-6 -90.00 6.978e-4 90.000
1.05000000 6.682e-4 90.000 3.194e-6 -90.00 3.194e-6 -90.00 7.045e-4 90.000
1.06000000 6.746e-4 90.000 3.222e-6 -90.00 3.222e-6 -90.00 7.112e-4 90.000
1.07000000 6.809e-4 90.000 3.251e-6 -90.00 3.251e-6 -90.00 7.180e-4 90.000
1.08000000 6.873e-4 90.000 3.279e-6 -90.00 3.279e-6 -90.00 7.247e-4 90.000
1.09000000 6.937e-4 90.000 3.307e-6 -90.00 3.307e-6 -90.00 7.314e-4 90.000
1.10000000 7.001e-4 90.000 3.336e-6 -90.00 3.336e-6 -90.00 7.381e-4 90.000
1.11000000 7.064e-4 90.000 3.364e-6 -90.00 3.364e-6 -90.00 7.448e-4 90.000
1.12000000 7.128e-4 90.000 3.392e-6 -90.00 3.392e-6 -90.00 7.516e-4 90.000
1.13000000 7.192e-4 90.000 3.420e-6 -90.00 3.420e-6 -90.00 7.583e-4 90.000
1.14000000 7.256e-4 90.000 3.448e-6 -90.00 3.448e-6 -90.00 7.650e-4 90.000
1.15000000 7.320e-4 90.000 3.476e-6 -90.00 3.476e-6 -90.00 7.717e-4 90.000
1.16000000 7.383e-4 90.000 3.504e-6 -90.00 3.504e-6 -90.00 7.785e-4 90.000
1.17000000 7.447e-4 90.000 3.532e-6 -90.00 3.532e-6 -90.00 7.852e-4 90.000
1.18000000 7.511e-4 90.000 3.560e-6 -90.00 3.560e-6 -90.00 7.919e-4 90.000
1.19000000 7.575e-4 90.000 3.588e-6 -90.00 3.588e-6 -90.00 7.986e-4 90.000
1.20000000 7.638e-4 90.000 3.615e-6 -90.00 3.615e-6 -90.00 8.054e-4 90.000
1.21000000 7.702e-4 90.000 3.643e-6 -90.00 3.643e-6 -90.00 8.121e-4 90.000
1.22000000 7.766e-4 90.000 3.671e-6 -90.00 3.671e-6 -90.00 8.188e-4 90.000
1.23000000 7.830e-4 90.000 3.698e-6 -90.00 3.698e-6 -90.00 8.255e-4 90.000
1.24000000 7.894e-4 90.000 3.726e-6 -90.00 3.726e-6 -90.00 8.323e-4 90.000
1.25000000 7.957e-4 90.000 3.753e-6 -90.00 3.753e-6 -90.00 8.390e-4 90.000
1.26000000 8.021e-4 90.000 3.780e-6 -90.00 3.780e-6 -90.00 8.457e-4 90.000
1.27000000 8.085e-4 90.000 3.808e-6 -90.00 3.808e-6 -90.00 8.524e-4 90.000
1.28000000 8.149e-4 90.000 3.835e-6 -90.00 3.835e-6 -90.00 8.592e-4 90.000
1.29000000 8.213e-4 90.000 3.862e-6 -90.00 3.862e-6 -90.00 8.659e-4 90.000
1.30000000 8.277e-4 90.000 3.889e-6 -90.00 3.889e-6 -90.00 8.726e-4 90.000
1.31000000 8.340e-4 90.000 3.916e-6 -90.00 3.916e-6 -90.00 8.793e-4 90.000
1.32000000 8.404e-4 90.000 3.943e-6 -90.00 3.943e-6 -90.00 8.861e-4 90.000
1.33000000 8.468e-4 90.000 3.970e-6 -90.00 3.970e-6 -90.00 8.928e-4 90.000
1.34000000 8.532e-4 90.000 3.996e-6 -90.00 3.996e-6 -90.00 8.995e-4 90.000
1.35000000 8.596e-4 90.000 4.023e-6 -90.00 4.023e-6 -90.00 9.063e-4 90.000
1.36000000 8.660e-4 90.000 4.050e-6 -90.00 4.050e-6 -90.00 9.130e-4 90.000
1.37000000 8.723e-4 90.000 4.076e-6 -90.00 4.076e-6 -90.00 9.197e-4 90.000
1.38000000 8.787e-4 90.000 4.103e-6 -90.00 4.103e-6 -90.00 9.264e-4 90.000
1.39000000 8.851e-4 90.000 4.129e-6 -90.00 4.129e-6 -90.00 9.332e-4 90.000
1.40000000 8.915e-4 90.000 4.156e-6 -90.00 4.156e-6 -90.00 9.399e-4 90.000
1.41000000 8.979e-4 90.000 4.182e-6 -90.00 4.182e-6 -90.00 9.466e-4 90.000
1.42000000 9.043e-4 90.000 4.208e-6 -90.00 4.208e-6 -90.00 9.534e-4 90.000
1.43000000 9.107e-4 90.000 4.234e-6 -90.00 4.234e-6 -90.00 9.601e-4 90.000
1.44000000 9.171e-4 90.000 4.260e-6 -90.00 4.260e-6 -90.00 9.668e-4 90.000
1.45000000 9.234e-4 90.000 4.286e-6 -90.00 4.286e-6 -90.00 9.736e-4 90.000
1.46000000 9.298e-4 90.000 4.312e-6 -90.00 4.312e-6 -90.00 9.803e-4 90.000
1.47000000 9.362e-4 90.000 4.338e-6 -90.00 4.338e-6 -90.00 9.870e-4 90.000
1.48000000 9.426e-4 90.000 4.364e-6 -90.00 4.364e-6 -90.00 9.938e-4 90.000
1.49000000 9.490e-4 90.000 4.390e-6 -90.00 4.390e-6 -90.00 0.001001 90.000
1.50000000 9.554e-4 90.000 4.415e-6 -90.00 4.415e-6 -90.00 0.001007 90.000
1.51000000 9.618e-4 90.000 4.441e-6 -90.00 4.441e-6 -90.00 0.001014 90.000
1.52000000 9.682e-4 90.000 4.466e-6 -90.00 4.466e-6 -90.00 0.001021 90.000
1.53000000 9.746e-4 90.000 4.492e-6 -90.00 4.492e-6 -90.00 0.001027 90.000
1.54000000 9.810e-4 90.000 4.517e-6 -90.00 4.517e-6 -90.00 0.001034 90.000
1.55000000 9.874e-4 90.000 4.542e-6 -90.00 4.542e-6 -90.00 0.001041 90.000
1.56000000 9.937e-4 90.000 4.567e-6 -90.00 4.567e-6 -90.00 0.001048 90.000
!< P1 F=1.56 Eeff=(6.05374907 -4.7524e-6) Z0=(162.730609 6.3946e-5) R=0.02622878 C=0.00500381 
!< P2 F=1.56 Eeff=(6.07641163 -4.7678e-6) Z0=(163.087691 6.39886e-5) R=0.02627455 C=0.00500959 
1.57000000 0.001000 90.000 4.592e-6 -90.00 4.592e-6 -90.00 0.001054 90.000
1.58000000 0.001007 90.000 4.617e-6 -90.00 4.617e-6 -90.00 0.001061 90.000
1.59000000 0.001013 90.000 4.642e-6 -90.00 4.642e-6 -90.00 0.001068 90.000
1.60000000 0.001019 90.000 4.667e-6 -90.00 4.667e-6 -90.00 0.001075 90.000
1.61000000 0.001026 90.000 4.692e-6 -90.00 4.692e-6 -90.00 0.001081 90.000
1.62000000 0.001032 90.000 4.716e-6 -90.00 4.716e-6 -90.00 0.001088 90.000
1.63000000 0.001039 90.000 4.741e-6 -90.00 4.741e-6 -90.00 0.001095 90.000
1.64000000 0.001045 90.000 4.766e-6 -90.00 4.766e-6 -90.00 0.001102 90.000
1.65000000 0.001051 90.000 4.790e-6 -90.00 4.790e-6 -90.00 0.001108 90.000
1.66000000 0.001058 90.000 4.814e-6 -90.00 4.814e-6 -90.00 0.001115 90.000
1.67000000 0.001064 90.000 4.838e-6 -90.00 4.838e-6 -90.00 0.001122 90.000
1.68000000 0.001071 90.000 4.863e-6 -90.00 4.863e-6 -90.00 0.001129 90.000
1.69000000 0.001077 90.000 4.887e-6 -90.00 4.887e-6 -90.00 0.001135 90.000
1.70000000 0.001083 90.000 4.911e-6 -90.00 4.911e-6 -90.00 0.001142 90.000
1.71000000 0.001090 90.000 4.934e-6 -90.00 4.934e-6 -90.00 0.001149 90.000
1.72000000 0.001096 90.000 4.958e-6 -90.00 4.958e-6 -90.00 0.001156 90.000
1.73000000 0.001103 90.000 4.982e-6 -90.00 4.982e-6 -90.00 0.001162 90.000
1.74000000 0.001109 90.000 5.006e-6 -90.00 5.006e-6 -90.00 0.001169 90.000
1.75000000 0.001115 90.000 5.029e-6 -90.00 5.029e-6 -90.00 0.001176 90.000
1.76000000 0.001122 90.000 5.052e-6 -90.00 5.052e-6 -90.00 0.001183 90.000
1.77000000 0.001128 90.000 5.076e-6 -90.00 5.076e-6 -90.00 0.001189 90.000
1.78000000 0.001135 90.000 5.099e-6 -90.00 5.099e-6 -90.00 0.001196 90.000
1.79000000 0.001141 90.000 5.122e-6 -90.00 5.122e-6 -90.00 0.001203 90.000
1.80000000 0.001147 90.000 5.145e-6 -90.00 5.145e-6 -90.00 0.001210 90.000
1.81000000 0.001154 90.000 5.168e-6 -90.00 5.168e-6 -90.00 0.001216 90.000
1.82000000 0.001160 90.000 5.191e-6 -90.00 5.191e-6 -90.00 0.001223 90.000
1.83000000 0.001167 90.000 5.214e-6 -90.00 5.214e-6 -90.00 0.001230 90.000
1.84000000 0.001173 90.000 5.236e-6 -90.00 5.236e-6 -90.00 0.001237 90.000
1.85000000 0.001179 90.000 5.259e-6 -90.00 5.259e-6 -90.00 0.001243 90.000
1.86000000 0.001186 90.000 5.282e-6 -90.00 5.282e-6 -90.00 0.001250 90.000
1.87000000 0.001192 90.000 5.304e-6 -90.00 5.304e-6 -90.00 0.001257 90.000
1.88000000 0.001199 90.000 5.326e-6 -90.00 5.326e-6 -90.00 0.001264 90.000
1.89000000 0.001205 90.000 5.348e-6 -90.00 5.348e-6 -90.00 0.001270 90.000
1.90000000 0.001211 90.000 5.370e-6 -90.00 5.370e-6 -90.00 0.001277 90.000
1.91000000 0.001218 90.000 5.392e-6 -90.00 5.392e-6 -90.00 0.001284 90.000
1.92000000 0.001224 90.000 5.414e-6 -90.00 5.414e-6 -90.00 0.001291 90.000
1.93000000 0.001231 90.000 5.436e-6 -90.00 5.436e-6 -90.00 0.001297 90.000
1.94000000 0.001237 90.000 5.458e-6 -90.00 5.458e-6 -90.00 0.001304 90.000
1.95000000 0.001243 90.000 5.479e-6 -90.00 5.479e-6 -90.00 0.001311 90.000
1.96000000 0.001250 90.000 5.501e-6 -90.00 5.501e-6 -90.00 0.001318 90.000
1.97000000 0.001256 90.000 5.522e-6 -90.00 5.522e-6 -90.00 0.001324 90.000
1.98000000 0.001263 90.000 5.543e-6 -90.00 5.543e-6 -90.00 0.001331 90.000
1.99000000 0.001269 90.000 5.565e-6 -90.00 5.565e-6 -90.00 0.001338 90.000
2.00000000 0.001276 90.000 5.586e-6 -90.00 5.586e-6 -90.00 0.001345 90.000
!< P1 F=2.0 Eeff=(6.05412111 -4.7606e-6) Z0=(162.730784 6.40028e-5) R=0.02039846 C=0.00500349 
!< P2 F=2.0 Eeff=(6.07679391 -4.7695e-6) Z0=(163.088239 6.40171e-5) R=0.02047649 C=0.00500929 
