! Sonnet Data File
! From: em Version : 14.52
! From Project: q-r1
! Data is De-embedded 
! Data File Written: 04/02/2019 02:21:25
!< HDATE 03/29/2019 00:30:41
!< MDATE 03/29/2019 00:30:41
# GHZ Y MA R 1.0
0.00100000 4.200e-7 89.994 2.526e-8 -89.97 2.526e-8 -90.01 6.275e-7 90.095
!< P1 F=0.001 Eeff=(undefined: sl) Z0=(undefined: sl) R=0.0 C=0.0 
!< P2 F=0.001 Eeff=(undefined: sl) Z0=(undefined: sl) R=0.0 C=0.0 
0.01000000 4.200e-6 89.999 2.526e-7 -90.00 2.526e-7 -90.00 6.272e-6 90.009
0.02000000 8.399e-6 90.000 5.053e-7 -90.00 5.053e-7 -90.00 1.254e-5 90.004
0.03000000 1.260e-5 90.000 7.579e-7 -90.00 7.579e-7 -90.00 1.881e-5 90.003
0.04000000 1.680e-5 90.000 1.011e-6 -90.00 1.011e-6 -90.00 2.509e-5 90.002
0.05000000 2.100e-5 90.000 1.263e-6 -90.00 1.263e-6 -90.00 3.136e-5 90.002
0.06000000 2.520e-5 90.000 1.516e-6 -90.00 1.516e-6 -90.00 3.763e-5 90.001
0.07000000 2.940e-5 90.000 1.768e-6 -90.00 1.768e-6 -90.00 4.390e-5 90.001
0.08000000 3.360e-5 90.000 2.021e-6 -90.00 2.021e-6 -90.00 5.017e-5 90.001
0.09000000 3.780e-5 90.000 2.274e-6 -90.00 2.274e-6 -90.00 5.644e-5 90.001
0.10000000 4.200e-5 90.000 2.526e-6 -90.00 2.526e-6 -90.00 6.272e-5 90.001
0.11000000 4.620e-5 90.000 2.779e-6 -90.00 2.779e-6 -90.00 6.899e-5 90.000
0.12000000 5.040e-5 90.000 3.032e-6 -90.00 3.032e-6 -90.00 7.526e-5 90.000
0.13000000 5.460e-5 90.000 3.284e-6 -90.00 3.284e-6 -90.00 8.153e-5 90.000
0.14000000 5.879e-5 90.000 3.537e-6 -90.00 3.537e-6 -90.00 8.780e-5 90.000
0.15000000 6.299e-5 90.000 3.790e-6 -90.00 3.790e-6 -90.00 9.407e-5 90.000
0.16000000 6.719e-5 90.000 4.042e-6 -90.00 4.042e-6 -90.00 1.003e-4 90.000
0.17000000 7.139e-5 90.000 4.295e-6 -90.00 4.295e-6 -90.00 1.066e-4 90.000
0.18000000 7.559e-5 90.000 4.547e-6 -90.00 4.547e-6 -90.00 1.129e-4 90.000
0.19000000 7.979e-5 90.000 4.800e-6 -90.00 4.800e-6 -90.00 1.192e-4 90.000
0.20000000 8.399e-5 90.000 5.053e-6 -90.00 5.053e-6 -90.00 1.254e-4 90.000
0.21000000 8.819e-5 90.000 5.305e-6 -90.00 5.305e-6 -90.00 1.317e-4 90.000
0.22000000 9.239e-5 90.000 5.558e-6 -90.00 5.558e-6 -90.00 1.380e-4 90.000
0.23000000 9.659e-5 90.000 5.811e-6 -90.00 5.811e-6 -90.00 1.442e-4 90.000
0.24000000 1.008e-4 90.000 6.063e-6 -90.00 6.063e-6 -90.00 1.505e-4 90.000
0.25000000 1.050e-4 90.000 6.316e-6 -90.00 6.316e-6 -90.00 1.568e-4 90.000
0.26000000 1.092e-4 90.000 6.569e-6 -90.00 6.569e-6 -90.00 1.631e-4 90.000
0.27000000 1.134e-4 90.000 6.821e-6 -90.00 6.821e-6 -90.00 1.693e-4 90.000
0.28000000 1.176e-4 90.000 7.074e-6 -90.00 7.074e-6 -90.00 1.756e-4 90.000
0.29000000 1.218e-4 90.000 7.327e-6 -90.00 7.327e-6 -90.00 1.819e-4 90.000
0.30000000 1.260e-4 90.000 7.579e-6 -90.00 7.579e-6 -90.00 1.882e-4 90.000
0.31000000 1.302e-4 90.000 7.832e-6 -90.00 7.832e-6 -90.00 1.944e-4 90.000
0.32000000 1.344e-4 90.000 8.085e-6 -90.00 8.085e-6 -90.00 2.007e-4 90.000
0.33000000 1.386e-4 90.000 8.337e-6 -90.00 8.337e-6 -90.00 2.070e-4 90.000
0.34000000 1.428e-4 90.000 8.590e-6 -90.00 8.590e-6 -90.00 2.132e-4 90.000
0.35000000 1.470e-4 90.000 8.843e-6 -90.00 8.843e-6 -90.00 2.195e-4 90.000
0.36000000 1.512e-4 90.000 9.095e-6 -90.00 9.095e-6 -90.00 2.258e-4 90.000
0.37000000 1.554e-4 90.000 9.348e-6 -90.00 9.348e-6 -90.00 2.321e-4 90.000
0.38000000 1.596e-4 90.000 9.601e-6 -90.00 9.601e-6 -90.00 2.383e-4 90.000
0.39000000 1.638e-4 90.000 9.854e-6 -90.00 9.854e-6 -90.00 2.446e-4 90.000
0.40000000 1.680e-4 90.000 1.011e-5 -90.00 1.011e-5 -90.00 2.509e-4 90.000
0.41000000 1.722e-4 90.000 1.036e-5 -90.00 1.036e-5 -90.00 2.572e-4 90.000
0.42000000 1.764e-4 90.000 1.061e-5 -90.00 1.061e-5 -90.00 2.634e-4 90.000
!< P1 F=0.42 Eeff=(5.67012582 -4.996e-6) Z0=(53.1509867 2.42719e-5) R=0.31719455 C=9.76452e-4 
!< P2 F=0.42 Eeff=(5.90016085 -5.7026e-6) Z0=(142.703605 6.37323e-5) R=0.10878845 C=0.00337177 
0.43000000 1.806e-4 90.000 1.086e-5 -90.00 1.086e-5 -90.00 2.697e-4 90.000
0.44000000 1.848e-4 90.000 1.112e-5 -90.00 1.112e-5 -90.00 2.760e-4 90.000
0.45000000 1.890e-4 90.000 1.137e-5 -90.00 1.137e-5 -90.00 2.822e-4 90.000
0.46000000 1.932e-4 90.000 1.162e-5 -90.00 1.162e-5 -90.00 2.885e-4 90.000
0.47000000 1.974e-4 90.000 1.188e-5 -90.00 1.188e-5 -90.00 2.948e-4 90.000
0.48000000 2.016e-4 90.000 1.213e-5 -90.00 1.213e-5 -90.00 3.011e-4 90.000
0.49000000 2.058e-4 90.000 1.238e-5 -90.00 1.238e-5 -90.00 3.073e-4 90.000
0.50000000 2.100e-4 90.000 1.263e-5 -90.00 1.263e-5 -90.00 3.136e-4 90.000
0.51000000 2.142e-4 90.000 1.289e-5 -90.00 1.289e-5 -90.00 3.199e-4 90.000
0.52000000 2.184e-4 90.000 1.314e-5 -90.00 1.314e-5 -90.00 3.262e-4 90.000
0.53000000 2.226e-4 90.000 1.339e-5 -90.00 1.339e-5 -90.00 3.324e-4 90.000
0.54000000 2.268e-4 90.000 1.364e-5 -90.00 1.364e-5 -90.00 3.387e-4 90.000
0.55000000 2.310e-4 90.000 1.390e-5 -90.00 1.390e-5 -90.00 3.450e-4 90.000
0.56000000 2.352e-4 90.000 1.415e-5 -90.00 1.415e-5 -90.00 3.513e-4 90.000
0.57000000 2.394e-4 90.000 1.440e-5 -90.00 1.440e-5 -90.00 3.575e-4 90.000
0.58000000 2.436e-4 90.000 1.466e-5 -90.00 1.466e-5 -90.00 3.638e-4 90.000
0.59000000 2.478e-4 90.000 1.491e-5 -90.00 1.491e-5 -90.00 3.701e-4 90.000
0.60000000 2.520e-4 90.000 1.516e-5 -90.00 1.516e-5 -90.00 3.763e-4 90.000
0.61000000 2.562e-4 90.000 1.541e-5 -90.00 1.541e-5 -90.00 3.826e-4 90.000
0.62000000 2.604e-4 90.000 1.567e-5 -90.00 1.567e-5 -90.00 3.889e-4 90.000
0.63000000 2.646e-4 90.000 1.592e-5 -90.00 1.592e-5 -90.00 3.952e-4 90.000
0.64000000 2.688e-4 90.000 1.617e-5 -90.00 1.617e-5 -90.00 4.014e-4 90.000
0.65000000 2.730e-4 90.000 1.643e-5 -90.00 1.643e-5 -90.00 4.077e-4 90.000
0.66000000 2.772e-4 90.000 1.668e-5 -90.00 1.668e-5 -90.00 4.140e-4 90.000
0.67000000 2.814e-4 90.000 1.693e-5 -90.00 1.693e-5 -90.00 4.203e-4 90.000
0.68000000 2.856e-4 90.000 1.718e-5 -90.00 1.718e-5 -90.00 4.265e-4 90.000
0.69000000 2.898e-4 90.000 1.744e-5 -90.00 1.744e-5 -90.00 4.328e-4 90.000
0.70000000 2.940e-4 90.000 1.769e-5 -90.00 1.769e-5 -90.00 4.391e-4 90.000
0.71000000 2.982e-4 90.000 1.794e-5 -90.00 1.794e-5 -90.00 4.454e-4 90.000
0.72000000 3.024e-4 90.000 1.820e-5 -90.00 1.820e-5 -90.00 4.516e-4 90.000
0.73000000 3.066e-4 90.000 1.845e-5 -90.00 1.845e-5 -90.00 4.579e-4 90.000
0.74000000 3.108e-4 90.000 1.870e-5 -90.00 1.870e-5 -90.00 4.642e-4 90.000
0.75000000 3.150e-4 90.000 1.895e-5 -90.00 1.895e-5 -90.00 4.705e-4 90.000
0.76000000 3.192e-4 90.000 1.921e-5 -90.00 1.921e-5 -90.00 4.767e-4 90.000
0.77000000 3.234e-4 90.000 1.946e-5 -90.00 1.946e-5 -90.00 4.830e-4 90.000
0.78000000 3.276e-4 90.000 1.971e-5 -90.00 1.971e-5 -90.00 4.893e-4 90.000
0.79000000 3.318e-4 90.000 1.997e-5 -90.00 1.997e-5 -90.00 4.956e-4 90.000
0.80000000 3.360e-4 90.000 2.022e-5 -90.00 2.022e-5 -90.00 5.019e-4 90.000
0.81000000 3.402e-4 90.000 2.047e-5 -90.00 2.047e-5 -90.00 5.081e-4 90.000
0.82000000 3.444e-4 90.000 2.072e-5 -90.00 2.072e-5 -90.00 5.144e-4 90.000
0.83000000 3.486e-4 90.000 2.098e-5 -90.00 2.098e-5 -90.00 5.207e-4 90.000
0.84000000 3.528e-4 90.000 2.123e-5 -90.00 2.123e-5 -90.00 5.270e-4 90.000
0.85000000 3.570e-4 90.000 2.148e-5 -90.00 2.148e-5 -90.00 5.332e-4 90.000
0.86000000 3.612e-4 90.000 2.174e-5 -90.00 2.174e-5 -90.00 5.395e-4 90.000
0.87000000 3.654e-4 90.000 2.199e-5 -90.00 2.199e-5 -90.00 5.458e-4 90.000
0.88000000 3.696e-4 90.000 2.224e-5 -90.00 2.224e-5 -90.00 5.521e-4 90.000
0.89000000 3.738e-4 90.000 2.250e-5 -90.00 2.250e-5 -90.00 5.583e-4 90.000
0.90000000 3.780e-4 90.000 2.275e-5 -90.00 2.275e-5 -90.00 5.646e-4 90.000
0.91000000 3.822e-4 90.000 2.300e-5 -90.00 2.300e-5 -90.00 5.709e-4 90.000
0.92000000 3.864e-4 90.000 2.325e-5 -90.00 2.325e-5 -90.00 5.772e-4 90.000
0.93000000 3.906e-4 90.000 2.351e-5 -90.00 2.351e-5 -90.00 5.835e-4 90.000
0.94000000 3.948e-4 90.000 2.376e-5 -90.00 2.376e-5 -90.00 5.897e-4 90.000
0.95000000 3.990e-4 90.000 2.401e-5 -90.00 2.401e-5 -90.00 5.960e-4 90.000
0.96000000 4.032e-4 90.000 2.427e-5 -90.00 2.427e-5 -90.00 6.023e-4 90.000
0.97000000 4.074e-4 90.000 2.452e-5 -90.00 2.452e-5 -90.00 6.086e-4 90.000
0.98000000 4.116e-4 90.000 2.477e-5 -90.00 2.477e-5 -90.00 6.149e-4 90.000
0.99000000 4.158e-4 90.000 2.503e-5 -90.00 2.503e-5 -90.00 6.211e-4 90.000
1.00000000 4.200e-4 90.000 2.528e-5 -90.00 2.528e-5 -90.00 6.274e-4 90.000
!< P1 F=1.0 Eeff=(5.67085184 -5.1786e-6) Z0=(53.1543883 2.42766e-5) R=0.14021959 C=9.76452e-4 
!< P2 F=1.0 Eeff=(5.90021245 -5.3688e-6) Z0=(142.704193 6.4343e-5) R=0.0443924 C=0.00337178 
1.01000000 4.242e-4 90.000 2.553e-5 -90.00 2.553e-5 -90.00 6.337e-4 90.000
1.02000000 4.284e-4 90.000 2.579e-5 -90.00 2.579e-5 -90.00 6.400e-4 90.000
1.03000000 4.326e-4 90.000 2.604e-5 -90.00 2.604e-5 -90.00 6.462e-4 90.000
1.04000000 4.368e-4 90.000 2.629e-5 -90.00 2.629e-5 -90.00 6.525e-4 90.000
1.05000000 4.410e-4 90.000 2.654e-5 -90.00 2.654e-5 -90.00 6.588e-4 90.000
1.06000000 4.452e-4 90.000 2.680e-5 -90.00 2.680e-5 -90.00 6.651e-4 90.000
1.07000000 4.494e-4 90.000 2.705e-5 -90.00 2.705e-5 -90.00 6.714e-4 90.000
1.08000000 4.536e-4 90.000 2.730e-5 -90.00 2.730e-5 -90.00 6.776e-4 90.000
1.09000000 4.578e-4 90.000 2.756e-5 -90.00 2.756e-5 -90.00 6.839e-4 90.000
1.10000000 4.620e-4 90.000 2.781e-5 -90.00 2.781e-5 -90.00 6.902e-4 90.000
1.11000000 4.662e-4 90.000 2.806e-5 -90.00 2.806e-5 -90.00 6.965e-4 90.000
1.12000000 4.704e-4 90.000 2.832e-5 -90.00 2.832e-5 -90.00 7.028e-4 90.000
1.13000000 4.746e-4 90.000 2.857e-5 -90.00 2.857e-5 -90.00 7.091e-4 90.000
1.14000000 4.788e-4 90.000 2.882e-5 -90.00 2.882e-5 -90.00 7.153e-4 90.000
1.15000000 4.830e-4 90.000 2.908e-5 -90.00 2.908e-5 -90.00 7.216e-4 90.000
1.16000000 4.872e-4 90.000 2.933e-5 -90.00 2.933e-5 -90.00 7.279e-4 90.000
1.17000000 4.914e-4 90.000 2.958e-5 -90.00 2.958e-5 -90.00 7.342e-4 90.000
1.18000000 4.957e-4 90.000 2.984e-5 -90.00 2.984e-5 -90.00 7.405e-4 90.000
1.19000000 4.999e-4 90.000 3.009e-5 -90.00 3.009e-5 -90.00 7.467e-4 90.000
1.20000000 5.041e-4 90.000 3.034e-5 -90.00 3.034e-5 -90.00 7.530e-4 90.000
1.21000000 5.083e-4 90.000 3.060e-5 -90.00 3.060e-5 -90.00 7.593e-4 90.000
1.22000000 5.125e-4 90.000 3.085e-5 -90.00 3.085e-5 -90.00 7.656e-4 90.000
1.23000000 5.167e-4 90.000 3.110e-5 -90.00 3.110e-5 -90.00 7.719e-4 90.000
1.24000000 5.209e-4 90.000 3.136e-5 -90.00 3.136e-5 -90.00 7.782e-4 90.000
1.25000000 5.251e-4 90.000 3.161e-5 -90.00 3.161e-5 -90.00 7.844e-4 90.000
1.26000000 5.293e-4 90.000 3.186e-5 -90.00 3.186e-5 -90.00 7.907e-4 90.000
1.27000000 5.335e-4 90.000 3.212e-5 -90.00 3.212e-5 -90.00 7.970e-4 90.000
1.28000000 5.377e-4 90.000 3.237e-5 -90.00 3.237e-5 -90.00 8.033e-4 90.000
1.29000000 5.419e-4 90.000 3.262e-5 -90.00 3.262e-5 -90.00 8.096e-4 90.000
1.30000000 5.461e-4 90.000 3.288e-5 -90.00 3.288e-5 -90.00 8.159e-4 90.000
1.31000000 5.503e-4 90.000 3.313e-5 -90.00 3.313e-5 -90.00 8.222e-4 90.000
1.32000000 5.545e-4 90.000 3.338e-5 -90.00 3.338e-5 -90.00 8.284e-4 90.000
1.33000000 5.587e-4 90.000 3.364e-5 -90.00 3.364e-5 -90.00 8.347e-4 90.000
1.34000000 5.629e-4 90.000 3.389e-5 -90.00 3.389e-5 -90.00 8.410e-4 90.000
1.35000000 5.671e-4 90.000 3.414e-5 -90.00 3.414e-5 -90.00 8.473e-4 90.000
1.36000000 5.713e-4 90.000 3.440e-5 -90.00 3.440e-5 -90.00 8.536e-4 90.000
1.37000000 5.755e-4 90.000 3.465e-5 -90.00 3.465e-5 -90.00 8.599e-4 90.000
1.38000000 5.797e-4 90.000 3.490e-5 -90.00 3.490e-5 -90.00 8.661e-4 90.000
1.39000000 5.839e-4 90.000 3.516e-5 -90.00 3.516e-5 -90.00 8.724e-4 90.000
1.40000000 5.881e-4 90.000 3.541e-5 -90.00 3.541e-5 -90.00 8.787e-4 90.000
1.41000000 5.923e-4 90.000 3.567e-5 -90.00 3.567e-5 -90.00 8.850e-4 90.000
1.42000000 5.965e-4 90.000 3.592e-5 -90.00 3.592e-5 -90.00 8.913e-4 90.000
1.43000000 6.007e-4 90.000 3.617e-5 -90.00 3.617e-5 -90.00 8.976e-4 90.000
1.44000000 6.049e-4 90.000 3.643e-5 -90.00 3.643e-5 -90.00 9.039e-4 90.000
1.45000000 6.091e-4 90.000 3.668e-5 -90.00 3.668e-5 -90.00 9.102e-4 90.000
1.46000000 6.133e-4 90.000 3.693e-5 -90.00 3.693e-5 -90.00 9.164e-4 90.000
1.47000000 6.175e-4 90.000 3.719e-5 -90.00 3.719e-5 -90.00 9.227e-4 90.000
1.48000000 6.217e-4 90.000 3.744e-5 -90.00 3.744e-5 -90.00 9.290e-4 90.000
1.49000000 6.259e-4 90.000 3.769e-5 -90.00 3.769e-5 -90.00 9.353e-4 90.000
1.50000000 6.301e-4 90.000 3.795e-5 -90.00 3.795e-5 -90.00 9.416e-4 90.000
1.51000000 6.343e-4 90.000 3.820e-5 -90.00 3.820e-5 -90.00 9.479e-4 90.000
1.52000000 6.385e-4 90.000 3.846e-5 -90.00 3.846e-5 -90.00 9.542e-4 90.000
1.53000000 6.427e-4 90.000 3.871e-5 -90.00 3.871e-5 -90.00 9.605e-4 90.000
1.54000000 6.470e-4 90.000 3.896e-5 -90.00 3.896e-5 -90.00 9.668e-4 90.000
1.55000000 6.512e-4 90.000 3.922e-5 -90.00 3.922e-5 -90.00 9.730e-4 90.000
1.56000000 6.554e-4 90.000 3.947e-5 -90.00 3.947e-5 -90.00 9.793e-4 90.000
1.57000000 6.596e-4 90.000 3.972e-5 -90.00 3.972e-5 -90.00 9.856e-4 90.000
1.58000000 6.638e-4 90.000 3.998e-5 -90.00 3.998e-5 -90.00 9.919e-4 90.000
1.59000000 6.680e-4 90.000 4.023e-5 -90.00 4.023e-5 -90.00 9.982e-4 90.000
1.60000000 6.722e-4 90.000 4.049e-5 -90.00 4.049e-5 -90.00 0.001005 90.000
1.61000000 6.764e-4 90.000 4.074e-5 -90.00 4.074e-5 -90.00 0.001011 90.000
1.62000000 6.806e-4 90.000 4.099e-5 -90.00 4.099e-5 -90.00 0.001017 90.000
1.63000000 6.848e-4 90.000 4.125e-5 -90.00 4.125e-5 -90.00 0.001023 90.000
1.64000000 6.890e-4 90.000 4.150e-5 -90.00 4.150e-5 -90.00 0.001030 90.000
1.65000000 6.932e-4 90.000 4.176e-5 -90.00 4.176e-5 -90.00 0.001036 90.000
1.66000000 6.974e-4 90.000 4.201e-5 -90.00 4.201e-5 -90.00 0.001042 90.000
1.67000000 7.016e-4 90.000 4.226e-5 -90.00 4.226e-5 -90.00 0.001049 90.000
1.68000000 7.058e-4 90.000 4.252e-5 -90.00 4.252e-5 -90.00 0.001055 90.000
1.69000000 7.100e-4 90.000 4.277e-5 -90.00 4.277e-5 -90.00 0.001061 90.000
1.70000000 7.142e-4 90.000 4.303e-5 -90.00 4.303e-5 -90.00 0.001067 90.000
1.71000000 7.184e-4 90.000 4.328e-5 -90.00 4.328e-5 -90.00 0.001074 90.000
1.72000000 7.226e-4 90.000 4.353e-5 -90.00 4.353e-5 -90.00 0.001080 90.000
1.73000000 7.268e-4 90.000 4.379e-5 -90.00 4.379e-5 -90.00 0.001086 90.000
1.74000000 7.310e-4 90.000 4.404e-5 -90.00 4.404e-5 -90.00 0.001093 90.000
1.75000000 7.352e-4 90.000 4.430e-5 -90.00 4.430e-5 -90.00 0.001099 90.000
1.76000000 7.394e-4 90.000 4.455e-5 -90.00 4.455e-5 -90.00 0.001105 90.000
1.77000000 7.437e-4 90.000 4.480e-5 -90.00 4.480e-5 -90.00 0.001111 90.000
1.78000000 7.479e-4 90.000 4.506e-5 -90.00 4.506e-5 -90.00 0.001118 90.000
1.79000000 7.521e-4 90.000 4.531e-5 -90.00 4.531e-5 -90.00 0.001124 90.000
1.80000000 7.563e-4 90.000 4.557e-5 -90.00 4.557e-5 -90.00 0.001130 90.000
1.81000000 7.605e-4 90.000 4.582e-5 -90.00 4.582e-5 -90.00 0.001137 90.000
1.82000000 7.647e-4 90.000 4.607e-5 -90.00 4.607e-5 -90.00 0.001143 90.000
1.83000000 7.689e-4 90.000 4.633e-5 -90.00 4.633e-5 -90.00 0.001149 90.000
1.84000000 7.731e-4 90.000 4.658e-5 -90.00 4.658e-5 -90.00 0.001156 90.000
1.85000000 7.773e-4 90.000 4.684e-5 -90.00 4.684e-5 -90.00 0.001162 90.000
1.86000000 7.815e-4 90.000 4.709e-5 -90.00 4.709e-5 -90.00 0.001168 90.000
1.87000000 7.857e-4 90.000 4.735e-5 -90.00 4.735e-5 -90.00 0.001174 90.000
1.88000000 7.899e-4 90.000 4.760e-5 -90.00 4.760e-5 -90.00 0.001181 90.000
1.89000000 7.941e-4 90.000 4.785e-5 -90.00 4.785e-5 -90.00 0.001187 90.000
1.90000000 7.983e-4 90.000 4.811e-5 -90.00 4.811e-5 -90.00 0.001193 90.000
1.91000000 8.025e-4 90.000 4.836e-5 -90.00 4.836e-5 -90.00 0.001200 90.000
1.92000000 8.067e-4 90.000 4.862e-5 -90.00 4.862e-5 -90.00 0.001206 90.000
1.93000000 8.109e-4 90.000 4.887e-5 -90.00 4.887e-5 -90.00 0.001212 90.000
1.94000000 8.151e-4 90.000 4.913e-5 -90.00 4.913e-5 -90.00 0.001219 90.000
1.95000000 8.194e-4 90.000 4.938e-5 -90.00 4.938e-5 -90.00 0.001225 90.000
1.96000000 8.236e-4 90.000 4.964e-5 -90.00 4.964e-5 -90.00 0.001231 90.000
1.97000000 8.278e-4 90.000 4.989e-5 -90.00 4.989e-5 -90.00 0.001237 90.000
1.98000000 8.320e-4 90.000 5.014e-5 -90.00 5.014e-5 -90.00 0.001244 90.000
1.99000000 8.362e-4 90.000 5.040e-5 -90.00 5.040e-5 -90.00 0.001250 90.000
2.00000000 8.404e-4 90.000 5.065e-5 -90.00 5.065e-5 -90.00 0.001256 90.000
!< P1 F=2.0 Eeff=(5.67096511 -5.1692e-6) Z0=(53.1549131 2.42391e-5) R=0.07361493 C=9.76452e-4 
!< P2 F=2.0 Eeff=(5.90033041 -5.3182e-6) Z0=(142.705491 6.44842e-5) R=0.0219065 C=0.00337183 
