! Sonnet Data File
! From: em Version : 14.52
! From Project: q-r2
! Data is De-embedded 
! Data File Written: 04/03/2019 10:38:35
!< HDATE 04/03/2019 10:34:49
!< MDATE 04/03/2019 10:34:49
# GHZ Y MA R 1.0
0.00100000 6.629e-7 90.010 2.054e-8 -89.98 2.051e-8 -89.99 3.584e-7 90.023
!< P1 F=0.001 Eeff=(undefined: sl) Z0=(undefined: sl) R=0.0 C=0.0 
!< P2 F=0.001 Eeff=(undefined: sl) Z0=(undefined: sl) R=0.0 C=0.0 
0.01000000 6.626e-6 90.001 2.053e-7 -90.00 2.053e-7 -90.00 3.584e-6 90.002
0.02000000 1.325e-5 90.000 4.106e-7 -90.00 4.106e-7 -90.00 7.167e-6 90.001
0.03000000 1.988e-5 90.000 6.160e-7 -90.00 6.160e-7 -90.00 1.075e-5 90.001
0.04000000 2.650e-5 90.000 8.213e-7 -90.00 8.213e-7 -90.00 1.433e-5 90.000
0.05000000 3.313e-5 90.000 1.027e-6 -90.00 1.027e-6 -90.00 1.792e-5 90.000
0.06000000 3.975e-5 90.000 1.232e-6 -90.00 1.232e-6 -90.00 2.150e-5 90.000
0.07000000 4.638e-5 90.000 1.437e-6 -90.00 1.437e-6 -90.00 2.509e-5 90.000
0.08000000 5.301e-5 90.000 1.643e-6 -90.00 1.643e-6 -90.00 2.867e-5 90.000
0.09000000 5.963e-5 90.000 1.848e-6 -90.00 1.848e-6 -90.00 3.225e-5 90.000
0.10000000 6.626e-5 90.000 2.053e-6 -90.00 2.053e-6 -90.00 3.584e-5 90.000
0.11000000 7.288e-5 90.000 2.259e-6 -90.00 2.259e-6 -90.00 3.942e-5 90.000
0.12000000 7.951e-5 90.000 2.464e-6 -90.00 2.464e-6 -90.00 4.300e-5 90.000
0.13000000 8.614e-5 90.000 2.669e-6 -90.00 2.669e-6 -90.00 4.659e-5 90.000
0.14000000 9.276e-5 90.000 2.875e-6 -90.00 2.875e-6 -90.00 5.017e-5 90.000
0.15000000 9.939e-5 90.000 3.080e-6 -90.00 3.080e-6 -90.00 5.376e-5 90.000
0.16000000 1.060e-4 90.000 3.285e-6 -90.00 3.285e-6 -90.00 5.734e-5 90.000
0.17000000 1.126e-4 90.000 3.491e-6 -90.00 3.491e-6 -90.00 6.092e-5 90.000
0.18000000 1.193e-4 90.000 3.696e-6 -90.00 3.696e-6 -90.00 6.451e-5 90.000
0.19000000 1.259e-4 90.000 3.901e-6 -90.00 3.901e-6 -90.00 6.809e-5 90.000
0.20000000 1.325e-4 90.000 4.107e-6 -90.00 4.107e-6 -90.00 7.167e-5 90.000
0.21000000 1.391e-4 90.000 4.312e-6 -90.00 4.312e-6 -90.00 7.526e-5 90.000
0.22000000 1.458e-4 90.000 4.517e-6 -90.00 4.517e-6 -90.00 7.884e-5 90.000
0.23000000 1.524e-4 90.000 4.723e-6 -90.00 4.723e-6 -90.00 8.242e-5 90.000
0.24000000 1.590e-4 90.000 4.928e-6 -90.00 4.928e-6 -90.00 8.601e-5 90.000
0.25000000 1.656e-4 90.000 5.133e-6 -90.00 5.133e-6 -90.00 8.959e-5 90.000
0.26000000 1.723e-4 90.000 5.339e-6 -90.00 5.339e-6 -90.00 9.318e-5 90.000
0.27000000 1.789e-4 90.000 5.544e-6 -90.00 5.544e-6 -90.00 9.676e-5 90.000
0.28000000 1.855e-4 90.000 5.750e-6 -90.00 5.750e-6 -90.00 1.003e-4 90.000
0.29000000 1.922e-4 90.000 5.955e-6 -90.00 5.955e-6 -90.00 1.039e-4 90.000
0.30000000 1.988e-4 90.000 6.160e-6 -90.00 6.160e-6 -90.00 1.075e-4 90.000
0.31000000 2.054e-4 90.000 6.366e-6 -90.00 6.366e-6 -90.00 1.111e-4 90.000
0.32000000 2.120e-4 90.000 6.571e-6 -90.00 6.571e-6 -90.00 1.147e-4 90.000
0.33000000 2.187e-4 90.000 6.776e-6 -90.00 6.776e-6 -90.00 1.183e-4 90.000
0.34000000 2.253e-4 90.000 6.982e-6 -90.00 6.982e-6 -90.00 1.218e-4 90.000
0.35000000 2.319e-4 90.000 7.187e-6 -90.00 7.187e-6 -90.00 1.254e-4 90.000
0.36000000 2.385e-4 90.000 7.392e-6 -90.00 7.392e-6 -90.00 1.290e-4 90.000
0.37000000 2.452e-4 90.000 7.598e-6 -90.00 7.598e-6 -90.00 1.326e-4 90.000
0.38000000 2.518e-4 90.000 7.803e-6 -90.00 7.803e-6 -90.00 1.362e-4 90.000
0.39000000 2.584e-4 90.000 8.009e-6 -90.00 8.009e-6 -90.00 1.398e-4 90.000
0.40000000 2.650e-4 90.000 8.214e-6 -90.00 8.214e-6 -90.00 1.433e-4 90.000
0.41000000 2.717e-4 90.000 8.419e-6 -90.00 8.419e-6 -90.00 1.469e-4 90.000
0.42000000 2.783e-4 90.000 8.625e-6 -90.00 8.625e-6 -90.00 1.505e-4 90.000
0.43000000 2.849e-4 90.000 8.830e-6 -90.00 8.830e-6 -90.00 1.541e-4 90.000
0.44000000 2.916e-4 90.000 9.035e-6 -90.00 9.035e-6 -90.00 1.577e-4 90.000
0.45000000 2.982e-4 90.000 9.241e-6 -90.00 9.241e-6 -90.00 1.613e-4 90.000
0.46000000 3.048e-4 90.000 9.446e-6 -90.00 9.446e-6 -90.00 1.649e-4 90.000
0.47000000 3.114e-4 90.000 9.652e-6 -90.00 9.652e-6 -90.00 1.684e-4 90.000
0.48000000 3.181e-4 90.000 9.857e-6 -90.00 9.857e-6 -90.00 1.720e-4 90.000
0.49000000 3.247e-4 90.000 1.006e-5 -90.00 1.006e-5 -90.00 1.756e-4 90.000
0.50000000 3.313e-4 90.000 1.027e-5 -90.00 1.027e-5 -90.00 1.792e-4 90.000
0.51000000 3.379e-4 90.000 1.047e-5 -90.00 1.047e-5 -90.00 1.828e-4 90.000
0.52000000 3.446e-4 90.000 1.068e-5 -90.00 1.068e-5 -90.00 1.864e-4 90.000
0.53000000 3.512e-4 90.000 1.088e-5 -90.00 1.088e-5 -90.00 1.899e-4 90.000
0.54000000 3.578e-4 90.000 1.109e-5 -90.00 1.109e-5 -90.00 1.935e-4 90.000
0.55000000 3.645e-4 90.000 1.129e-5 -90.00 1.129e-5 -90.00 1.971e-4 90.000
0.56000000 3.711e-4 90.000 1.150e-5 -90.00 1.150e-5 -90.00 2.007e-4 90.000
0.57000000 3.777e-4 90.000 1.171e-5 -90.00 1.171e-5 -90.00 2.043e-4 90.000
0.58000000 3.843e-4 90.000 1.191e-5 -90.00 1.191e-5 -90.00 2.079e-4 90.000
0.59000000 3.910e-4 90.000 1.212e-5 -90.00 1.212e-5 -90.00 2.114e-4 90.000
0.60000000 3.976e-4 90.000 1.232e-5 -90.00 1.232e-5 -90.00 2.150e-4 90.000
0.61000000 4.042e-4 90.000 1.253e-5 -90.00 1.253e-5 -90.00 2.186e-4 90.000
0.62000000 4.109e-4 90.000 1.273e-5 -90.00 1.273e-5 -90.00 2.222e-4 90.000
0.63000000 4.175e-4 90.000 1.294e-5 -90.00 1.294e-5 -90.00 2.258e-4 90.000
0.64000000 4.241e-4 90.000 1.314e-5 -90.00 1.314e-5 -90.00 2.294e-4 90.000
0.65000000 4.307e-4 90.000 1.335e-5 -90.00 1.335e-5 -90.00 2.329e-4 90.000
0.66000000 4.374e-4 90.000 1.355e-5 -90.00 1.355e-5 -90.00 2.365e-4 90.000
0.67000000 4.440e-4 90.000 1.376e-5 -90.00 1.376e-5 -90.00 2.401e-4 90.000
0.68000000 4.506e-4 90.000 1.397e-5 -90.00 1.397e-5 -90.00 2.437e-4 90.000
0.69000000 4.573e-4 90.000 1.417e-5 -90.00 1.417e-5 -90.00 2.473e-4 90.000
0.70000000 4.639e-4 90.000 1.438e-5 -90.00 1.438e-5 -90.00 2.509e-4 90.000
0.71000000 4.705e-4 90.000 1.458e-5 -90.00 1.458e-5 -90.00 2.545e-4 90.000
0.72000000 4.771e-4 90.000 1.479e-5 -90.00 1.479e-5 -90.00 2.580e-4 90.000
0.73000000 4.838e-4 90.000 1.499e-5 -90.00 1.499e-5 -90.00 2.616e-4 90.000
0.74000000 4.904e-4 90.000 1.520e-5 -90.00 1.520e-5 -90.00 2.652e-4 90.000
0.75000000 4.970e-4 90.000 1.540e-5 -90.00 1.540e-5 -90.00 2.688e-4 90.000
0.76000000 5.037e-4 90.000 1.561e-5 -90.00 1.561e-5 -90.00 2.724e-4 90.000
0.77000000 5.103e-4 90.000 1.582e-5 -90.00 1.582e-5 -90.00 2.760e-4 90.000
0.78000000 5.169e-4 90.000 1.602e-5 -90.00 1.602e-5 -90.00 2.795e-4 90.000
0.79000000 5.236e-4 90.000 1.623e-5 -90.00 1.623e-5 -90.00 2.831e-4 90.000
0.80000000 5.302e-4 90.000 1.643e-5 -90.00 1.643e-5 -90.00 2.867e-4 90.000
0.81000000 5.368e-4 90.000 1.664e-5 -90.00 1.664e-5 -90.00 2.903e-4 90.000
0.82000000 5.434e-4 90.000 1.684e-5 -90.00 1.684e-5 -90.00 2.939e-4 90.000
0.83000000 5.501e-4 90.000 1.705e-5 -90.00 1.705e-5 -90.00 2.975e-4 90.000
0.84000000 5.567e-4 90.000 1.725e-5 -90.00 1.725e-5 -90.00 3.010e-4 90.000
0.85000000 5.633e-4 90.000 1.746e-5 -90.00 1.746e-5 -90.00 3.046e-4 90.000
0.86000000 5.700e-4 90.000 1.766e-5 -90.00 1.766e-5 -90.00 3.082e-4 90.000
0.87000000 5.766e-4 90.000 1.787e-5 -90.00 1.787e-5 -90.00 3.118e-4 90.000
0.88000000 5.832e-4 90.000 1.808e-5 -90.00 1.808e-5 -90.00 3.154e-4 90.000
0.89000000 5.899e-4 90.000 1.828e-5 -90.00 1.828e-5 -90.00 3.190e-4 90.000
0.90000000 5.965e-4 90.000 1.849e-5 -90.00 1.849e-5 -90.00 3.226e-4 90.000
0.91000000 6.031e-4 90.000 1.869e-5 -90.00 1.869e-5 -90.00 3.261e-4 90.000
0.92000000 6.098e-4 90.000 1.890e-5 -90.00 1.890e-5 -90.00 3.297e-4 90.000
0.93000000 6.164e-4 90.000 1.910e-5 -90.00 1.910e-5 -90.00 3.333e-4 90.000
0.94000000 6.230e-4 90.000 1.931e-5 -90.00 1.931e-5 -90.00 3.369e-4 90.000
0.95000000 6.297e-4 90.000 1.951e-5 -90.00 1.951e-5 -90.00 3.405e-4 90.000
0.96000000 6.363e-4 90.000 1.972e-5 -90.00 1.972e-5 -90.00 3.441e-4 90.000
0.97000000 6.429e-4 90.000 1.993e-5 -90.00 1.993e-5 -90.00 3.476e-4 90.000
0.98000000 6.496e-4 90.000 2.013e-5 -90.00 2.013e-5 -90.00 3.512e-4 90.000
0.99000000 6.562e-4 90.000 2.034e-5 -90.00 2.034e-5 -90.00 3.548e-4 90.000
1.00000000 6.628e-4 90.000 2.054e-5 -90.00 2.054e-5 -90.00 3.584e-4 90.000
!< P1 F=1.0 Eeff=(6.40936925 -5.7092e-6) Z0=(151.021299 6.77042e-5) R=0.04367751 C=0.0034339 
!< P2 F=1.0 Eeff=(5.67121643 -5.1922e-6) Z0=(53.1551994 2.42906e-5) R=0.14089396 C=9.75882e-4 
1.01000000 6.695e-4 90.000 2.075e-5 -90.00 2.075e-5 -90.00 3.620e-4 90.000
1.02000000 6.761e-4 90.000 2.095e-5 -90.00 2.095e-5 -90.00 3.656e-4 90.000
1.03000000 6.827e-4 90.000 2.116e-5 -90.00 2.116e-5 -90.00 3.692e-4 90.000
1.04000000 6.894e-4 90.000 2.137e-5 -90.00 2.137e-5 -90.00 3.727e-4 90.000
1.05000000 6.960e-4 90.000 2.157e-5 -90.00 2.157e-5 -90.00 3.763e-4 90.000
1.06000000 7.026e-4 90.000 2.178e-5 -90.00 2.178e-5 -90.00 3.799e-4 90.000
1.07000000 7.093e-4 90.000 2.198e-5 -90.00 2.198e-5 -90.00 3.835e-4 90.000
1.08000000 7.159e-4 90.000 2.219e-5 -90.00 2.219e-5 -90.00 3.871e-4 90.000
1.09000000 7.225e-4 90.000 2.239e-5 -90.00 2.239e-5 -90.00 3.907e-4 90.000
1.10000000 7.292e-4 90.000 2.260e-5 -90.00 2.260e-5 -90.00 3.942e-4 90.000
1.11000000 7.358e-4 90.000 2.281e-5 -90.00 2.281e-5 -90.00 3.978e-4 90.000
1.12000000 7.424e-4 90.000 2.301e-5 -90.00 2.301e-5 -90.00 4.014e-4 90.000
1.13000000 7.491e-4 90.000 2.322e-5 -90.00 2.322e-5 -90.00 4.050e-4 90.000
1.14000000 7.557e-4 90.000 2.342e-5 -90.00 2.342e-5 -90.00 4.086e-4 90.000
1.15000000 7.623e-4 90.000 2.363e-5 -90.00 2.363e-5 -90.00 4.122e-4 90.000
1.16000000 7.690e-4 90.000 2.383e-5 -90.00 2.383e-5 -90.00 4.158e-4 90.000
1.17000000 7.756e-4 90.000 2.404e-5 -90.00 2.404e-5 -90.00 4.193e-4 90.000
1.18000000 7.822e-4 90.000 2.425e-5 -90.00 2.425e-5 -90.00 4.229e-4 90.000
1.19000000 7.889e-4 90.000 2.445e-5 -90.00 2.445e-5 -90.00 4.265e-4 90.000
1.20000000 7.955e-4 90.000 2.466e-5 -90.00 2.466e-5 -90.00 4.301e-4 90.000
1.21000000 8.022e-4 90.000 2.486e-5 -90.00 2.486e-5 -90.00 4.337e-4 90.000
1.22000000 8.088e-4 90.000 2.507e-5 -90.00 2.507e-5 -90.00 4.373e-4 90.000
1.23000000 8.154e-4 90.000 2.527e-5 -90.00 2.527e-5 -90.00 4.409e-4 90.000
1.24000000 8.221e-4 90.000 2.548e-5 -90.00 2.548e-5 -90.00 4.444e-4 90.000
1.25000000 8.287e-4 90.000 2.569e-5 -90.00 2.569e-5 -90.00 4.480e-4 90.000
1.26000000 8.353e-4 90.000 2.589e-5 -90.00 2.589e-5 -90.00 4.516e-4 90.000
1.27000000 8.420e-4 90.000 2.610e-5 -90.00 2.610e-5 -90.00 4.552e-4 90.000
1.28000000 8.486e-4 90.000 2.630e-5 -90.00 2.630e-5 -90.00 4.588e-4 90.000
1.29000000 8.553e-4 90.000 2.651e-5 -90.00 2.651e-5 -90.00 4.624e-4 90.000
1.30000000 8.619e-4 90.000 2.671e-5 -90.00 2.671e-5 -90.00 4.659e-4 90.000
1.31000000 8.685e-4 90.000 2.692e-5 -90.00 2.692e-5 -90.00 4.695e-4 90.000
1.32000000 8.752e-4 90.000 2.713e-5 -90.00 2.713e-5 -90.00 4.731e-4 90.000
1.33000000 8.818e-4 90.000 2.733e-5 -90.00 2.733e-5 -90.00 4.767e-4 90.000
1.34000000 8.884e-4 90.000 2.754e-5 -90.00 2.754e-5 -90.00 4.803e-4 90.000
1.35000000 8.951e-4 90.000 2.774e-5 -90.00 2.774e-5 -90.00 4.839e-4 90.000
1.36000000 9.017e-4 90.000 2.795e-5 -90.00 2.795e-5 -90.00 4.875e-4 90.000
1.37000000 9.084e-4 90.000 2.816e-5 -90.00 2.816e-5 -90.00 4.910e-4 90.000
1.38000000 9.150e-4 90.000 2.836e-5 -90.00 2.836e-5 -90.00 4.946e-4 90.000
1.39000000 9.216e-4 90.000 2.857e-5 -90.00 2.857e-5 -90.00 4.982e-4 90.000
1.40000000 9.283e-4 90.000 2.877e-5 -90.00 2.877e-5 -90.00 5.018e-4 90.000
1.41000000 9.349e-4 90.000 2.898e-5 -90.00 2.898e-5 -90.00 5.054e-4 90.000
1.42000000 9.416e-4 90.000 2.919e-5 -90.00 2.919e-5 -90.00 5.090e-4 90.000
1.43000000 9.482e-4 90.000 2.939e-5 -90.00 2.939e-5 -90.00 5.126e-4 90.000
1.44000000 9.549e-4 90.000 2.960e-5 -90.00 2.960e-5 -90.00 5.161e-4 90.000
1.45000000 9.615e-4 90.000 2.980e-5 -90.00 2.980e-5 -90.00 5.197e-4 90.000
1.46000000 9.681e-4 90.000 3.001e-5 -90.00 3.001e-5 -90.00 5.233e-4 90.000
1.47000000 9.748e-4 90.000 3.021e-5 -90.00 3.021e-5 -90.00 5.269e-4 90.000
1.48000000 9.814e-4 90.000 3.042e-5 -90.00 3.042e-5 -90.00 5.305e-4 90.000
1.49000000 9.881e-4 90.000 3.063e-5 -90.00 3.063e-5 -90.00 5.341e-4 90.000
1.50000000 9.947e-4 90.000 3.083e-5 -90.00 3.083e-5 -90.00 5.377e-4 90.000
1.51000000 0.001001 90.000 3.104e-5 -90.00 3.104e-5 -90.00 5.412e-4 90.000
1.52000000 0.001008 90.000 3.124e-5 -90.00 3.124e-5 -90.00 5.448e-4 90.000
1.53000000 0.001015 90.000 3.145e-5 -90.00 3.145e-5 -90.00 5.484e-4 90.000
1.54000000 0.001021 90.000 3.166e-5 -90.00 3.166e-5 -90.00 5.520e-4 90.000
1.55000000 0.001028 90.000 3.186e-5 -90.00 3.186e-5 -90.00 5.556e-4 90.000
1.56000000 0.001035 90.000 3.207e-5 -90.00 3.207e-5 -90.00 5.592e-4 90.000
1.57000000 0.001041 90.000 3.227e-5 -90.00 3.227e-5 -90.00 5.628e-4 90.000
1.58000000 0.001048 90.000 3.248e-5 -90.00 3.248e-5 -90.00 5.663e-4 90.000
!< P1 F=1.58 Eeff=(6.40947945 -5.7603e-6) Z0=(151.02413 6.7731e-5) R=0.02766661 C=0.00343399 
!< P2 F=1.58 Eeff=(5.67118555 -5.1647e-6) Z0=(53.155052 2.42344e-5) R=0.09421363 C=9.75882e-4 
1.59000000 0.001054 90.000 3.269e-5 -90.00 3.269e-5 -90.00 5.699e-4 90.000
1.60000000 0.001061 90.000 3.289e-5 -90.00 3.289e-5 -90.00 5.735e-4 90.000
1.61000000 0.001068 90.000 3.310e-5 -90.00 3.310e-5 -90.00 5.771e-4 90.000
1.62000000 0.001074 90.000 3.331e-5 -90.00 3.331e-5 -90.00 5.807e-4 90.000
1.63000000 0.001081 90.000 3.351e-5 -90.00 3.351e-5 -90.00 5.843e-4 90.000
1.64000000 0.001088 90.000 3.372e-5 -90.00 3.372e-5 -90.00 5.879e-4 90.000
1.65000000 0.001094 90.000 3.392e-5 -90.00 3.392e-5 -90.00 5.915e-4 90.000
1.66000000 0.001101 90.000 3.413e-5 -90.00 3.413e-5 -90.00 5.950e-4 90.000
1.67000000 0.001108 90.000 3.434e-5 -90.00 3.434e-5 -90.00 5.986e-4 90.000
1.68000000 0.001114 90.000 3.454e-5 -90.00 3.454e-5 -90.00 6.022e-4 90.000
1.69000000 0.001121 90.000 3.475e-5 -90.00 3.475e-5 -90.00 6.058e-4 90.000
1.70000000 0.001128 90.000 3.495e-5 -90.00 3.495e-5 -90.00 6.094e-4 90.000
1.71000000 0.001134 90.000 3.516e-5 -90.00 3.516e-5 -90.00 6.130e-4 90.000
1.72000000 0.001141 90.000 3.537e-5 -90.00 3.537e-5 -90.00 6.166e-4 90.000
1.73000000 0.001148 90.000 3.557e-5 -90.00 3.557e-5 -90.00 6.201e-4 90.000
1.74000000 0.001154 90.000 3.578e-5 -90.00 3.578e-5 -90.00 6.237e-4 90.000
1.75000000 0.001161 90.000 3.599e-5 -90.00 3.599e-5 -90.00 6.273e-4 90.000
1.76000000 0.001167 90.000 3.619e-5 -90.00 3.619e-5 -90.00 6.309e-4 90.000
1.77000000 0.001174 90.000 3.640e-5 -90.00 3.640e-5 -90.00 6.345e-4 90.000
1.78000000 0.001181 90.000 3.660e-5 -90.00 3.660e-5 -90.00 6.381e-4 90.000
1.79000000 0.001187 90.000 3.681e-5 -90.00 3.681e-5 -90.00 6.417e-4 90.000
1.80000000 0.001194 90.000 3.702e-5 -90.00 3.702e-5 -90.00 6.453e-4 90.000
1.81000000 0.001201 90.000 3.722e-5 -90.00 3.722e-5 -90.00 6.488e-4 90.000
1.82000000 0.001207 90.000 3.743e-5 -90.00 3.743e-5 -90.00 6.524e-4 90.000
1.83000000 0.001214 90.000 3.764e-5 -90.00 3.764e-5 -90.00 6.560e-4 90.000
1.84000000 0.001221 90.000 3.784e-5 -90.00 3.784e-5 -90.00 6.596e-4 90.000
1.85000000 0.001227 90.000 3.805e-5 -90.00 3.805e-5 -90.00 6.632e-4 90.000
1.86000000 0.001234 90.000 3.825e-5 -90.00 3.825e-5 -90.00 6.668e-4 90.000
1.87000000 0.001241 90.000 3.846e-5 -90.00 3.846e-5 -90.00 6.704e-4 90.000
1.88000000 0.001247 90.000 3.867e-5 -90.00 3.867e-5 -90.00 6.739e-4 90.000
1.89000000 0.001254 90.000 3.887e-5 -90.00 3.887e-5 -90.00 6.775e-4 90.000
1.90000000 0.001261 90.000 3.908e-5 -90.00 3.908e-5 -90.00 6.811e-4 90.000
1.91000000 0.001267 90.000 3.929e-5 -90.00 3.929e-5 -90.00 6.847e-4 90.000
1.92000000 0.001274 90.000 3.949e-5 -90.00 3.949e-5 -90.00 6.883e-4 90.000
1.93000000 0.001281 90.000 3.970e-5 -90.00 3.970e-5 -90.00 6.919e-4 90.000
1.94000000 0.001287 90.000 3.991e-5 -90.00 3.991e-5 -90.00 6.955e-4 90.000
1.95000000 0.001294 90.000 4.011e-5 -90.00 4.011e-5 -90.00 6.991e-4 90.000
1.96000000 0.001301 90.000 4.032e-5 -90.00 4.032e-5 -90.00 7.026e-4 90.000
1.97000000 0.001307 90.000 4.052e-5 -90.00 4.052e-5 -90.00 7.062e-4 90.000
1.98000000 0.001314 90.000 4.073e-5 -90.00 4.073e-5 -90.00 7.098e-4 90.000
1.99000000 0.001320 90.000 4.094e-5 -90.00 4.094e-5 -90.00 7.134e-4 90.000
2.00000000 0.001327 90.000 4.114e-5 -90.00 4.114e-5 -90.00 7.170e-4 90.000
!< P1 F=2.0 Eeff=(6.40959409 -5.7671e-6) Z0=(151.02702 6.79723e-5) R=0.02167332 C=0.00343407 
!< P2 F=2.0 Eeff=(5.67116652 -5.1728e-6) Z0=(53.15496 2.42391e-5) R=0.07370298 C=9.75882e-4 
