! Sonnet Data File
! From: em Version : 13.0.0.029 alpha
! From Project: SingleStub
! Data is De-embedded 
! Data File Written: 06/08/2010 10:53:44
!< HDATE 06/08/2010 10:53:39
!< MDATE 06/08/2010 10:53:39
# GHZ S MA R 50.00000
5.00000000 0.748494 107.42 0.654232 12.209 0.654232 12.209 0.748125 97.594
!< P1 F=5.0 Eeff=(1.0055708 -5.7639e-3) Z0=(60.2548084 -0.1724562) R=0.0 C=0.01135715 
!< P2 F=5.0 Eeff=(1.0055708 -5.7639e-3) Z0=(60.2548084 -0.1724562) R=0.0 C=0.01135715 
5.02000000 0.747458 107.20 0.655472 11.975 0.655472 11.975 0.747084 97.341
5.04000000 0.746423 106.98 0.656704 11.742 0.656704 11.742 0.746046 97.088
5.06000000 0.745392 106.76 0.657927 11.510 0.657927 11.510 0.745010 96.836
5.08000000 0.744363 106.54 0.659142 11.277 0.659142 11.277 0.743977 96.585
5.10000000 0.743336 106.32 0.660349 11.045 0.660349 11.045 0.742947 96.334
5.12000000 0.742313 106.10 0.661548 10.814 0.661548 10.814 0.741919 96.084
5.14000000 0.741291 105.88 0.662739 10.583 0.662739 10.583 0.740895 95.834
5.16000000 0.740273 105.66 0.663922 10.353 0.663922 10.353 0.739873 95.586
5.18000000 0.739257 105.44 0.665097 10.123 0.665097 10.123 0.738854 95.337
5.20000000 0.738244 105.23 0.666264 9.8934 0.666264 9.8934 0.737838 95.089
5.22000000 0.737234 105.01 0.667423 9.6643 0.667423 9.6643 0.736825 94.842
5.24000000 0.736226 104.80 0.668574 9.4357 0.668574 9.4357 0.735815 94.595
5.26000000 0.735221 104.58 0.669718 9.2075 0.669718 9.2075 0.734807 94.349
5.28000000 0.734219 104.36 0.670854 8.9798 0.670854 8.9798 0.733803 94.104
5.30000000 0.733220 104.15 0.671982 8.7525 0.671982 8.7525 0.732801 93.859
5.32000000 0.732223 103.94 0.673103 8.5257 0.673103 8.5257 0.731803 93.614
5.34000000 0.731230 103.72 0.674217 8.2993 0.674217 8.2993 0.730807 93.370
5.36000000 0.730239 103.51 0.675323 8.0734 0.675323 8.0734 0.729814 93.127
5.38000000 0.729251 103.30 0.676421 7.8479 0.676421 7.8479 0.728824 92.884
5.40000000 0.728265 103.08 0.677513 7.6228 0.677513 7.6228 0.727838 92.642
5.42000000 0.727283 102.87 0.678597 7.3982 0.678597 7.3982 0.726854 92.400
5.44000000 0.726303 102.66 0.679673 7.1740 0.679673 7.1740 0.725873 92.159
5.46000000 0.725326 102.45 0.680743 6.9503 0.680743 6.9503 0.724895 91.919
5.48000000 0.724352 102.24 0.681806 6.7270 0.681806 6.7270 0.723920 91.679
5.50000000 0.723381 102.03 0.682861 6.5041 0.682861 6.5041 0.722949 91.439
5.52000000 0.722413 101.82 0.683910 6.2816 0.683910 6.2816 0.721980 91.200
5.54000000 0.721448 101.61 0.684951 6.0596 0.684951 6.0596 0.721014 90.962
5.56000000 0.720485 101.40 0.685986 5.8380 0.685986 5.8380 0.720052 90.724
5.58000000 0.719526 101.19 0.687014 5.6168 0.687014 5.6168 0.719092 90.486
5.60000000 0.718569 100.98 0.688035 5.3961 0.688035 5.3961 0.718135 90.249
5.62000000 0.717615 100.77 0.689049 5.1758 0.689049 5.1758 0.717182 90.013
5.64000000 0.716664 100.57 0.690057 4.9559 0.690057 4.9559 0.716231 89.777
5.66000000 0.715717 100.36 0.691058 4.7364 0.691058 4.7364 0.715284 89.542
5.68000000 0.714772 100.15 0.692052 4.5173 0.692052 4.5173 0.714339 89.307
5.70000000 0.713829 99.948 0.693040 4.2987 0.693040 4.2987 0.713398 89.073
5.72000000 0.712890 99.742 0.694021 4.0805 0.694021 4.0805 0.712460 88.839
5.74000000 0.711954 99.537 0.694996 3.8626 0.694996 3.8626 0.711525 88.606
5.76000000 0.711021 99.332 0.695965 3.6452 0.695965 3.6452 0.710593 88.373
5.78000000 0.710090 99.127 0.696927 3.4283 0.696927 3.4283 0.709664 88.141
5.80000000 0.709163 98.923 0.697883 3.2117 0.697883 3.2117 0.708738 87.909
5.82000000 0.708239 98.719 0.698833 2.9955 0.698833 2.9955 0.707815 87.678
5.84000000 0.707317 98.516 0.699776 2.7797 0.699776 2.7797 0.706895 87.447
5.86000000 0.706398 98.313 0.700714 2.5644 0.700714 2.5644 0.705978 87.216
5.88000000 0.705483 98.110 0.701645 2.3494 0.701645 2.3494 0.705065 86.987
5.90000000 0.704570 97.908 0.702570 2.1349 0.702570 2.1349 0.704154 86.757
5.92000000 0.703660 97.706 0.703489 1.9207 0.703489 1.9207 0.703247 86.528
5.94000000 0.702754 97.504 0.704403 1.7070 0.704403 1.7070 0.702342 86.300
5.96000000 0.701850 97.303 0.705310 1.4936 0.705310 1.4936 0.701441 86.072
5.98000000 0.700949 97.102 0.706212 1.2806 0.706212 1.2806 0.700543 85.845
6.00000000 0.700051 96.902 0.707107 1.0681 0.707107 1.0681 0.699648 85.618
6.02000000 0.699156 96.702 0.707997 0.8559 0.707997 0.8559 0.698756 85.391
6.04000000 0.698264 96.502 0.708881 0.6441 0.708881 0.6441 0.697867 85.165
6.06000000 0.697375 96.303 0.709760 0.4327 0.709760 0.4327 0.696981 84.939
6.08000000 0.696489 96.104 0.710633 0.2217 0.710633 0.2217 0.696098 84.714
6.10000000 0.695605 95.906 0.711500 0.0111 0.711500 0.0111 0.695218 84.490
6.12000000 0.694725 95.707 0.712362 -0.199 0.712362 -0.199 0.694341 84.265
6.14000000 0.693848 95.510 0.713218 -0.409 0.713218 -0.409 0.693468 84.042
6.16000000 0.692973 95.312 0.714069 -0.619 0.714069 -0.619 0.692597 83.818
6.18000000 0.692102 95.115 0.714915 -0.828 0.714915 -0.828 0.691729 83.596
6.20000000 0.691233 94.918 0.715755 -1.036 0.715755 -1.036 0.690865 83.373
6.22000000 0.690368 94.722 0.716590 -1.245 0.716590 -1.245 0.690003 83.151
6.24000000 0.689505 94.526 0.717419 -1.453 0.717419 -1.453 0.689145 82.930
6.26000000 0.688645 94.330 0.718244 -1.660 0.718244 -1.660 0.688290 82.709
6.28000000 0.687789 94.134 0.719063 -1.867 0.719063 -1.867 0.687437 82.488
6.30000000 0.686935 93.939 0.719877 -2.074 0.719877 -2.074 0.686588 82.268
6.32000000 0.686084 93.744 0.720685 -2.281 0.720685 -2.281 0.685741 82.048
6.34000000 0.685236 93.550 0.721489 -2.487 0.721489 -2.487 0.684898 81.828
6.36000000 0.684391 93.356 0.722288 -2.693 0.722288 -2.693 0.684058 81.610
6.38000000 0.683548 93.162 0.723082 -2.898 0.723082 -2.898 0.683221 81.391
6.40000000 0.682709 92.969 0.723870 -3.103 0.723870 -3.103 0.682386 81.173
6.42000000 0.681873 92.776 0.724654 -3.308 0.724654 -3.308 0.681555 80.955
6.44000000 0.681039 92.583 0.725433 -3.512 0.725433 -3.512 0.680727 80.738
6.46000000 0.680208 92.390 0.726207 -3.716 0.726207 -3.716 0.679901 80.521
6.48000000 0.679381 92.198 0.726977 -3.920 0.726977 -3.920 0.679079 80.305
6.50000000 0.678556 92.006 0.727741 -4.123 0.727741 -4.123 0.678259 80.089
6.52000000 0.677734 91.815 0.728501 -4.326 0.728501 -4.326 0.677443 79.873
6.54000000 0.676914 91.624 0.729257 -4.528 0.729257 -4.528 0.676629 79.658
6.56000000 0.676098 91.433 0.730007 -4.731 0.730007 -4.731 0.675819 79.443
6.58000000 0.675285 91.242 0.730753 -4.933 0.730753 -4.933 0.675011 79.229
6.60000000 0.674474 91.052 0.731495 -5.134 0.731495 -5.134 0.674207 79.014
6.62000000 0.673666 90.862 0.732232 -5.335 0.732232 -5.335 0.673405 78.801
6.64000000 0.672861 90.672 0.732964 -5.536 0.732964 -5.536 0.672606 78.588
6.66000000 0.672059 90.483 0.733692 -5.737 0.733692 -5.737 0.671810 78.375
6.68000000 0.671260 90.294 0.734416 -5.937 0.734416 -5.937 0.671017 78.162
6.70000000 0.670463 90.105 0.735135 -6.137 0.735135 -6.137 0.670227 77.950
6.72000000 0.669670 89.917 0.735850 -6.336 0.735850 -6.336 0.669439 77.739
6.74000000 0.668879 89.729 0.736561 -6.535 0.736561 -6.535 0.668655 77.527
6.76000000 0.668091 89.541 0.737267 -6.734 0.737267 -6.734 0.667873 77.316
6.78000000 0.667305 89.353 0.737969 -6.932 0.737969 -6.932 0.667095 77.106
6.80000000 0.666523 89.166 0.738667 -7.131 0.738667 -7.131 0.666319 76.896
6.82000000 0.665743 88.979 0.739361 -7.328 0.739361 -7.328 0.665546 76.686
6.84000000 0.664966 88.792 0.740050 -7.526 0.740050 -7.526 0.664776 76.476
6.86000000 0.664192 88.606 0.740736 -7.723 0.740736 -7.723 0.664008 76.267
6.88000000 0.663420 88.420 0.741417 -7.920 0.741417 -7.920 0.663244 76.058
6.90000000 0.662652 88.234 0.742095 -8.117 0.742095 -8.117 0.662482 75.850
6.92000000 0.661886 88.048 0.742768 -8.313 0.742768 -8.313 0.661723 75.642
6.94000000 0.661123 87.863 0.743438 -8.509 0.743438 -8.509 0.660967 75.435
6.96000000 0.660362 87.678 0.744103 -8.704 0.744103 -8.704 0.660213 75.227
6.98000000 0.659604 87.493 0.744765 -8.899 0.744765 -8.899 0.659463 75.020
7.00000000 0.658849 87.309 0.745423 -9.094 0.745423 -9.094 0.658715 74.814
7.02000000 0.658097 87.125 0.746077 -9.289 0.746077 -9.289 0.657970 74.608
7.04000000 0.657347 86.941 0.746727 -9.483 0.746727 -9.483 0.657227 74.402
7.06000000 0.656600 86.757 0.747373 -9.677 0.747373 -9.677 0.656488 74.196
7.08000000 0.655855 86.574 0.748016 -9.871 0.748016 -9.871 0.655751 73.991
7.10000000 0.655114 86.391 0.748655 -10.06 0.748655 -10.06 0.655016 73.786
7.12000000 0.654375 86.208 0.749290 -10.26 0.749290 -10.26 0.654285 73.582
7.14000000 0.653638 86.025 0.749922 -10.45 0.749922 -10.45 0.653556 73.377
!< P1 F=7.14 Eeff=(1.0043689 -4.8209e-3) Z0=(60.2127077 -0.1441107) R=0.0 C=0.01135832 
!< P2 F=7.14 Eeff=(1.0043689 -4.8209e-3) Z0=(60.2127077 -0.1441107) R=0.0 C=0.01135832 
7.16000000 0.652896 85.841 0.750567 -10.64 0.750567 -10.64 0.652820 73.172
7.18000000 0.652157 85.658 0.751208 -10.84 0.751208 -10.84 0.652087 72.968
7.20000000 0.651420 85.475 0.751845 -11.03 0.751845 -11.03 0.651357 72.763
7.22000000 0.650687 85.292 0.752479 -11.23 0.752479 -11.23 0.650630 72.559
7.24000000 0.649955 85.109 0.753109 -11.42 0.753109 -11.42 0.649906 72.355
7.26000000 0.649227 84.926 0.753736 -11.61 0.753736 -11.61 0.649184 72.152
7.28000000 0.648501 84.744 0.754359 -11.80 0.754359 -11.80 0.648464 71.949
7.30000000 0.647778 84.562 0.754978 -12.00 0.754978 -12.00 0.647748 71.746
7.32000000 0.647058 84.380 0.755594 -12.19 0.755594 -12.19 0.647034 71.543
7.34000000 0.646340 84.199 0.756206 -12.38 0.756206 -12.38 0.646323 71.341
7.36000000 0.645625 84.018 0.756815 -12.57 0.756815 -12.57 0.645615 71.140
7.38000000 0.644912 83.837 0.757421 -12.76 0.757421 -12.76 0.644909 70.938
7.40000000 0.644202 83.656 0.758023 -12.95 0.758023 -12.95 0.644205 70.737
7.42000000 0.643495 83.476 0.758622 -13.14 0.758622 -13.14 0.643505 70.536
7.44000000 0.642790 83.295 0.759217 -13.33 0.759217 -13.33 0.642807 70.336
7.46000000 0.642088 83.115 0.759809 -13.52 0.759809 -13.52 0.642111 70.135
7.48000000 0.641389 82.936 0.760398 -13.71 0.760398 -13.71 0.641418 69.936
7.50000000 0.640692 82.756 0.760984 -13.90 0.760984 -13.90 0.640728 69.736
7.52000000 0.639997 82.577 0.761566 -14.09 0.761566 -14.09 0.640040 69.537
7.54000000 0.639305 82.398 0.762146 -14.28 0.762146 -14.28 0.639355 69.338
7.56000000 0.638616 82.219 0.762722 -14.47 0.762722 -14.47 0.638673 69.139
7.58000000 0.637929 82.041 0.763295 -14.66 0.763295 -14.66 0.637992 68.941
7.60000000 0.637245 81.863 0.763865 -14.84 0.763865 -14.84 0.637315 68.743
7.62000000 0.636563 81.685 0.764431 -15.03 0.764431 -15.03 0.636640 68.545
7.64000000 0.635884 81.507 0.764995 -15.22 0.764995 -15.22 0.635967 68.348
7.66000000 0.635207 81.329 0.765556 -15.41 0.765556 -15.41 0.635297 68.151
7.68000000 0.634533 81.152 0.766113 -15.59 0.766113 -15.59 0.634629 67.954
7.70000000 0.633861 80.975 0.766668 -15.78 0.766668 -15.78 0.633964 67.757
7.72000000 0.633192 80.798 0.767220 -15.97 0.767220 -15.97 0.633301 67.561
7.74000000 0.632525 80.621 0.767769 -16.15 0.767769 -16.15 0.632641 67.365
7.76000000 0.631861 80.445 0.768315 -16.34 0.768315 -16.34 0.631982 67.169
7.78000000 0.631199 80.269 0.768858 -16.52 0.768858 -16.52 0.631327 66.974
7.80000000 0.630539 80.093 0.769398 -16.71 0.769398 -16.71 0.630674 66.779
7.82000000 0.629882 79.917 0.769935 -16.89 0.769935 -16.89 0.630023 66.584
7.84000000 0.629227 79.742 0.770470 -17.08 0.770470 -17.08 0.629374 66.390
7.86000000 0.628575 79.566 0.771001 -17.26 0.771001 -17.26 0.628728 66.195
7.88000000 0.627925 79.391 0.771531 -17.45 0.771531 -17.45 0.628084 66.001
7.90000000 0.627277 79.217 0.772057 -17.63 0.772057 -17.63 0.627443 65.808
7.92000000 0.626632 79.042 0.772580 -17.81 0.772580 -17.81 0.626804 65.614
7.94000000 0.625989 78.868 0.773101 -18.00 0.773101 -18.00 0.626167 65.421
7.96000000 0.625348 78.693 0.773620 -18.18 0.773620 -18.18 0.625532 65.228
7.98000000 0.624710 78.519 0.774135 -18.36 0.774135 -18.36 0.624900 65.036
8.00000000 0.624074 78.346 0.774648 -18.55 0.774648 -18.55 0.624270 64.843
8.02000000 0.623440 78.172 0.775159 -18.73 0.775159 -18.73 0.623642 64.651
8.04000000 0.622809 77.999 0.775666 -18.91 0.775666 -18.91 0.623016 64.459
8.06000000 0.622179 77.826 0.776172 -19.09 0.776172 -19.09 0.622393 64.268
8.08000000 0.621553 77.653 0.776674 -19.27 0.776674 -19.27 0.621772 64.077
8.10000000 0.620928 77.480 0.777175 -19.46 0.777175 -19.46 0.621153 63.886
8.12000000 0.620306 77.307 0.777673 -19.64 0.777673 -19.64 0.620536 63.695
8.14000000 0.619685 77.135 0.778168 -19.82 0.778168 -19.82 0.619921 63.504
8.16000000 0.619068 76.963 0.778661 -20.00 0.778661 -20.00 0.619309 63.314
8.18000000 0.618452 76.791 0.779151 -20.18 0.779151 -20.18 0.618698 63.124
8.20000000 0.617838 76.619 0.779639 -20.36 0.779639 -20.36 0.618090 62.934
8.22000000 0.617227 76.448 0.780125 -20.54 0.780125 -20.54 0.617484 62.745
8.24000000 0.616618 76.276 0.780608 -20.72 0.780608 -20.72 0.616880 62.555
8.26000000 0.616011 76.105 0.781089 -20.90 0.781089 -20.90 0.616278 62.366
8.28000000 0.615406 75.934 0.781568 -21.08 0.781568 -21.08 0.615679 62.178
8.30000000 0.614804 75.764 0.782044 -21.26 0.782044 -21.26 0.615081 61.989
8.32000000 0.614203 75.593 0.782519 -21.43 0.782519 -21.43 0.614485 61.801
8.34000000 0.613605 75.423 0.782990 -21.61 0.782990 -21.61 0.613892 61.613
8.36000000 0.613008 75.253 0.783460 -21.79 0.783460 -21.79 0.613300 61.425
8.38000000 0.612414 75.083 0.783927 -21.97 0.783927 -21.97 0.612710 61.237
8.40000000 0.611822 74.913 0.784393 -22.15 0.784393 -22.15 0.612123 61.050
8.42000000 0.611232 74.743 0.784856 -22.33 0.784856 -22.33 0.611537 60.863
8.44000000 0.610644 74.574 0.785317 -22.50 0.785317 -22.50 0.610954 60.676
8.46000000 0.610059 74.405 0.785775 -22.68 0.785775 -22.68 0.610372 60.489
8.48000000 0.609475 74.236 0.786232 -22.86 0.786232 -22.86 0.609793 60.303
8.50000000 0.608893 74.067 0.786687 -23.03 0.786687 -23.03 0.609215 60.116
8.52000000 0.608313 73.898 0.787139 -23.21 0.787139 -23.21 0.608639 59.930
8.54000000 0.607736 73.730 0.787589 -23.39 0.787589 -23.39 0.608065 59.745
8.56000000 0.607160 73.561 0.788038 -23.56 0.788038 -23.56 0.607493 59.559
8.58000000 0.606586 73.393 0.788484 -23.74 0.788484 -23.74 0.606923 59.374
8.60000000 0.606015 73.225 0.788928 -23.91 0.788928 -23.91 0.606355 59.189
8.62000000 0.605445 73.057 0.789371 -24.09 0.789371 -24.09 0.605789 59.004
8.64000000 0.604877 72.890 0.789811 -24.26 0.789811 -24.26 0.605224 58.819
8.66000000 0.604311 72.722 0.790249 -24.44 0.790249 -24.44 0.604662 58.635
8.68000000 0.603748 72.555 0.790686 -24.61 0.790686 -24.61 0.604101 58.450
8.70000000 0.603186 72.388 0.791120 -24.79 0.791120 -24.79 0.603542 58.266
8.72000000 0.602626 72.221 0.791553 -24.96 0.791553 -24.96 0.602985 58.082
8.74000000 0.602068 72.055 0.791984 -25.14 0.791984 -25.14 0.602430 57.899
8.76000000 0.601512 71.888 0.792412 -25.31 0.792412 -25.31 0.601876 57.715
8.78000000 0.600957 71.722 0.792839 -25.49 0.792839 -25.49 0.601325 57.532
8.80000000 0.600405 71.555 0.793265 -25.66 0.793265 -25.66 0.600775 57.349
8.82000000 0.599854 71.389 0.793688 -25.83 0.793688 -25.83 0.600226 57.166
8.84000000 0.599306 71.223 0.794109 -26.01 0.794109 -26.01 0.599680 56.984
8.86000000 0.598759 71.058 0.794529 -26.18 0.794529 -26.18 0.599135 56.801
8.88000000 0.598214 70.892 0.794947 -26.35 0.794947 -26.35 0.598592 56.619
8.90000000 0.597671 70.727 0.795363 -26.52 0.795363 -26.52 0.598050 56.437
8.92000000 0.597130 70.562 0.795778 -26.70 0.795778 -26.70 0.597511 56.255
8.94000000 0.596590 70.397 0.796190 -26.87 0.796190 -26.87 0.596973 56.074
8.96000000 0.596052 70.232 0.796601 -27.04 0.796601 -27.04 0.596436 55.892
8.98000000 0.595516 70.067 0.797011 -27.21 0.797011 -27.21 0.595902 55.711
9.00000000 0.594982 69.902 0.797418 -27.39 0.797418 -27.39 0.595369 55.530
9.02000000 0.594450 69.738 0.797824 -27.56 0.797824 -27.56 0.594837 55.349
9.04000000 0.593919 69.574 0.798228 -27.73 0.798228 -27.73 0.594307 55.168
9.06000000 0.593390 69.410 0.798631 -27.90 0.798631 -27.90 0.593779 54.988
9.08000000 0.592863 69.246 0.799032 -28.07 0.799032 -28.07 0.593253 54.808
9.10000000 0.592338 69.082 0.799431 -28.24 0.799431 -28.24 0.592727 54.627
9.12000000 0.591814 68.918 0.799829 -28.41 0.799829 -28.41 0.592204 54.448
9.14000000 0.591292 68.755 0.800225 -28.58 0.800225 -28.58 0.591682 54.268
9.16000000 0.590772 68.591 0.800620 -28.75 0.800620 -28.75 0.591162 54.088
9.18000000 0.590253 68.428 0.801013 -28.92 0.801013 -28.92 0.590643 53.909
9.20000000 0.589736 68.265 0.801405 -29.09 0.801405 -29.09 0.590125 53.730
9.22000000 0.589221 68.102 0.801795 -29.26 0.801795 -29.26 0.589610 53.551
9.24000000 0.588707 67.940 0.802183 -29.43 0.802183 -29.43 0.589095 53.372
9.26000000 0.588195 67.777 0.802570 -29.60 0.802570 -29.60 0.588582 53.193
9.28000000 0.587685 67.615 0.802956 -29.77 0.802956 -29.77 0.588071 53.014
9.30000000 0.587176 67.452 0.803340 -29.94 0.803340 -29.94 0.587561 52.836
9.32000000 0.586669 67.290 0.803722 -30.11 0.803722 -30.11 0.587053 52.658
9.34000000 0.586164 67.128 0.804103 -30.28 0.804103 -30.28 0.586546 52.480
9.36000000 0.585660 66.967 0.804483 -30.44 0.804483 -30.44 0.586040 52.302
9.38000000 0.585158 66.805 0.804861 -30.61 0.804861 -30.61 0.585536 52.124
9.40000000 0.584657 66.643 0.805238 -30.78 0.805238 -30.78 0.585033 51.947
9.42000000 0.584158 66.482 0.805613 -30.95 0.805613 -30.95 0.584532 51.770
9.44000000 0.583660 66.321 0.805987 -31.12 0.805987 -31.12 0.584032 51.592
9.46000000 0.583164 66.160 0.806360 -31.28 0.806360 -31.28 0.583533 51.415
9.48000000 0.582669 65.999 0.806731 -31.45 0.806731 -31.45 0.583036 51.238
9.50000000 0.582176 65.838 0.807101 -31.62 0.807101 -31.62 0.582540 51.062
9.52000000 0.581685 65.677 0.807470 -31.79 0.807470 -31.79 0.582045 50.885
9.54000000 0.581195 65.517 0.807837 -31.95 0.807837 -31.95 0.581552 50.709
9.56000000 0.580706 65.356 0.808203 -32.12 0.808203 -32.12 0.581060 50.533
9.58000000 0.580219 65.196 0.808567 -32.29 0.808567 -32.29 0.580569 50.357
9.60000000 0.579733 65.036 0.808931 -32.45 0.808931 -32.45 0.580080 50.181
9.62000000 0.579249 64.876 0.809293 -32.62 0.809293 -32.62 0.579592 50.005
9.64000000 0.578767 64.716 0.809654 -32.79 0.809654 -32.79 0.579105 49.829
9.66000000 0.578285 64.556 0.810013 -32.95 0.810013 -32.95 0.578619 49.654
9.68000000 0.577806 64.397 0.810371 -33.12 0.810371 -33.12 0.578135 49.478
9.70000000 0.577327 64.237 0.810728 -33.28 0.810728 -33.28 0.577652 49.303
9.72000000 0.576850 64.078 0.811084 -33.45 0.811084 -33.45 0.577170 49.128
9.74000000 0.576375 63.919 0.811439 -33.61 0.811439 -33.61 0.576689 48.953
9.76000000 0.575901 63.760 0.811792 -33.78 0.811792 -33.78 0.576210 48.779
9.78000000 0.575428 63.601 0.812144 -33.94 0.812144 -33.94 0.575732 48.604
9.80000000 0.574956 63.442 0.812495 -34.11 0.812495 -34.11 0.575254 48.430
9.82000000 0.574486 63.284 0.812845 -34.27 0.812845 -34.27 0.574779 48.255
9.84000000 0.574018 63.125 0.813194 -34.44 0.813194 -34.44 0.574304 48.081
9.86000000 0.573550 62.967 0.813541 -34.60 0.813541 -34.60 0.573830 47.907
9.88000000 0.573084 62.809 0.813887 -34.77 0.813887 -34.77 0.573358 47.733
9.90000000 0.572620 62.651 0.814233 -34.93 0.814233 -34.93 0.572886 47.560
9.92000000 0.572156 62.493 0.814577 -35.10 0.814577 -35.10 0.572416 47.386
9.94000000 0.571694 62.335 0.814920 -35.26 0.814920 -35.26 0.571947 47.213
9.96000000 0.571233 62.177 0.815261 -35.42 0.815261 -35.42 0.571479 47.039
9.98000000 0.570774 62.020 0.815602 -35.59 0.815602 -35.59 0.571012 46.866
10.0000000 0.570316 61.862 0.815942 -35.75 0.815942 -35.75 0.570546 46.693
!< P1 F=10.0 Eeff=(1.00313065 -4.0696e-3) Z0=(60.163835 -0.1213776) R=0.0 C=0.01136056 
!< P2 F=10.0 Eeff=(1.00313065 -4.0696e-3) Z0=(60.163835 -0.1213776) R=0.0 C=0.01136056 
