! Sonnet Data File
! From: em Version : 14.52
! From Project: Demo1
! Data is De-embedded 
! Data File Written: 08/02/2018 00:29:28
!< HDATE 8/2/2018 0:26:57
!< MDATE 8/2/2018 0:26:57
# GHZ S MA R 50.00000
5.00000000 0.860771 121.34 0.508992 31.338 0.508992 31.338 0.860771 121.34
!< P1 F=5.0 Eeff=(1.00008652 0.0) Z0=(58.6624352 0.0) R=0.0 C=0.01075684 
!< P2 F=5.0 Eeff=(1.00008652 0.0) Z0=(58.6624352 0.0) R=0.0 C=0.01075684 
5.20000000 0.852437 119.30 0.522837 29.301 0.522837 29.301 0.852433 119.30
5.40000000 0.844114 117.29 0.536178 27.292 0.536178 27.292 0.844107 117.29
5.60000000 0.835817 115.31 0.549030 25.309 0.549030 25.309 0.835807 115.31
5.80000000 0.827560 113.35 0.561405 23.351 0.561405 23.351 0.827548 113.35
6.00000000 0.819356 111.42 0.573320 21.419 0.573320 21.419 0.819342 111.42
6.20000000 0.811214 109.52 0.584788 19.511 0.584788 19.511 0.811199 109.51
6.40000000 0.803145 107.63 0.595825 17.628 0.595825 17.628 0.803130 107.63
6.60000000 0.795158 105.77 0.606446 15.768 0.606446 15.768 0.795142 105.77
6.80000000 0.787259 103.94 0.616667 13.932 0.616667 13.932 0.787244 103.93
7.00000000 0.779454 102.12 0.626504 12.118 0.626504 12.118 0.779440 102.12
7.20000000 0.771749 100.33 0.635970 10.326 0.635970 10.326 0.771736 100.32
7.40000000 0.764148 98.558 0.645081 8.5557 0.645081 8.5557 0.764136 98.554
7.60000000 0.756654 96.808 0.653852 6.8060 0.653852 6.8060 0.756643 96.805
7.80000000 0.749270 95.078 0.662297 5.0765 0.662297 5.0765 0.749260 95.075
8.00000000 0.741998 93.368 0.670431 3.3667 0.670431 3.3667 0.741989 93.366
8.20000000 0.734838 91.677 0.678266 1.6760 0.678266 1.6760 0.734831 91.675
8.40000000 0.727792 90.005 0.685816 0.0038 0.685816 0.0038 0.727787 90.003
8.60000000 0.720859 88.350 0.693093 -1.650 0.693093 -1.650 0.720856 88.349
8.80000000 0.714040 86.713 0.700111 -3.287 0.700111 -3.287 0.714038 86.712
9.00000000 0.707332 85.093 0.706881 -4.907 0.706881 -4.907 0.707332 85.093
!< P1 F=9.0 Eeff=(1.00006151 0.0) Z0=(58.6492088 0.0) R=0.0 C=0.01075897 
!< P2 F=9.0 Eeff=(1.00006151 0.0) Z0=(58.6492088 0.0) R=0.0 C=0.01075897 
9.20000000 0.700736 83.489 0.713414 -6.511 0.713414 -6.511 0.700738 83.489
9.40000000 0.694250 81.901 0.719723 -8.099 0.719723 -8.099 0.694253 81.902
9.60000000 0.687871 80.328 0.725816 -9.672 0.725816 -9.672 0.687876 80.329
9.80000000 0.681597 78.770 0.731705 -11.23 0.731705 -11.23 0.681604 78.772
10.0000000 0.675428 77.226 0.737399 -12.77 0.737399 -12.77 0.675436 77.229
10.2000000 0.669359 75.696 0.742907 -14.30 0.742907 -14.30 0.669368 75.699
10.4000000 0.663388 74.180 0.748239 -15.82 0.748239 -15.82 0.663399 74.183
10.6000000 0.657513 72.676 0.753403 -17.32 0.753403 -17.32 0.657525 72.680
10.8000000 0.651730 71.185 0.758408 -18.81 0.758408 -18.81 0.651743 71.189
11.0000000 0.646037 69.706 0.763260 -20.29 0.763260 -20.29 0.646051 69.711
11.2000000 0.640431 68.239 0.767969 -21.76 0.767969 -21.76 0.640445 68.243
11.4000000 0.634907 66.783 0.772539 -23.22 0.772539 -23.22 0.634923 66.787
11.6000000 0.629465 65.337 0.776980 -24.66 0.776980 -24.66 0.629480 65.342
11.8000000 0.624099 63.902 0.781296 -26.10 0.781296 -26.10 0.624114 63.907
12.0000000 0.618806 62.478 0.785495 -27.52 0.785495 -27.52 0.618822 62.483
12.2000000 0.613585 61.063 0.789581 -28.94 0.789581 -28.94 0.613600 61.068
12.4000000 0.608430 59.657 0.793561 -30.34 0.793561 -30.34 0.608446 59.662
12.6000000 0.603340 58.260 0.797440 -31.74 0.797440 -31.74 0.603355 58.265
12.8000000 0.598310 56.872 0.801223 -33.13 0.801223 -33.13 0.598324 56.877
13.0000000 0.593338 55.493 0.804915 -34.51 0.804915 -34.51 0.593351 55.497
13.2000000 0.588420 54.121 0.808520 -35.88 0.808520 -35.88 0.588433 54.125
13.4000000 0.583554 52.758 0.812044 -37.24 0.812044 -37.24 0.583565 52.761
13.6000000 0.578736 51.402 0.815489 -38.60 0.815489 -38.60 0.578746 51.405
13.8000000 0.573963 50.053 0.818860 -39.95 0.818860 -39.95 0.573971 50.055
14.0000000 0.569232 48.711 0.822161 -41.29 0.822161 -41.29 0.569238 48.713
14.2000000 0.564539 47.375 0.825395 -42.62 0.825395 -42.62 0.564544 47.377
14.4000000 0.559883 46.047 0.828566 -43.95 0.828566 -43.95 0.559886 46.047
14.6000000 0.555260 44.724 0.831677 -45.28 0.831677 -45.28 0.555260 44.724
!< P1 F=14.6 Eeff=(1.00000348 0.0) Z0=(58.6180159 0.0) R=0.0 C=0.01076404 
!< P2 F=14.6 Eeff=(1.00000348 0.0) Z0=(58.6180159 0.0) R=0.0 C=0.01076404 
14.8000000 0.550668 43.407 0.834730 -46.59 0.834730 -46.59 0.550665 43.406
15.0000000 0.546102 42.096 0.837730 -47.90 0.837730 -47.90 0.546098 42.094
15.2000000 0.541562 40.790 0.840678 -49.21 0.840678 -49.21 0.541554 40.788
15.4000000 0.537043 39.490 0.843578 -50.51 0.843578 -50.51 0.537033 39.487
15.6000000 0.532544 38.194 0.846431 -51.81 0.846431 -51.81 0.532531 38.191
15.8000000 0.528062 36.904 0.849241 -53.10 0.849241 -53.10 0.528046 36.899
16.0000000 0.523593 35.618 0.852009 -54.38 0.852009 -54.38 0.523574 35.612
16.2000000 0.519136 34.336 0.854737 -55.66 0.854737 -55.66 0.519115 34.330
16.4000000 0.514688 33.059 0.857428 -56.94 0.857428 -56.94 0.514664 33.052
16.6000000 0.510247 31.785 0.860083 -58.22 0.860083 -58.22 0.510220 31.778
16.8000000 0.505811 30.516 0.862705 -59.48 0.862705 -59.48 0.505780 30.507
17.0000000 0.501376 29.250 0.865294 -60.75 0.865294 -60.75 0.501343 29.241
17.2000000 0.496941 27.988 0.867853 -62.01 0.867853 -62.01 0.496905 27.977
17.4000000 0.492503 26.729 0.870382 -63.27 0.870382 -63.27 0.492465 26.718
17.6000000 0.488061 25.473 0.872884 -64.53 0.872884 -64.53 0.488020 25.461
17.8000000 0.483612 24.220 0.875360 -65.78 0.875360 -65.78 0.483568 24.207
18.0000000 0.479154 22.969 0.877811 -67.03 0.877811 -67.03 0.479108 22.957
18.2000000 0.474684 21.722 0.880238 -68.28 0.880238 -68.28 0.474637 21.709
18.4000000 0.470202 20.477 0.882641 -69.52 0.882641 -69.52 0.470153 20.463
18.6000000 0.465705 19.234 0.885024 -70.77 0.885024 -70.77 0.465654 19.220
18.8000000 0.461191 17.994 0.887385 -72.01 0.887385 -72.01 0.461139 17.980
19.0000000 0.456658 16.756 0.889726 -73.25 0.889726 -73.25 0.456605 16.741
19.2000000 0.452105 15.519 0.892048 -74.48 0.892048 -74.48 0.452050 15.504
19.4000000 0.447529 14.285 0.894352 -75.72 0.894352 -75.72 0.447474 14.270
19.6000000 0.442928 13.052 0.896638 -76.95 0.896638 -76.95 0.442873 13.037
19.8000000 0.438302 11.821 0.898907 -78.18 0.898907 -78.18 0.438247 11.806
20.0000000 0.433649 10.591 0.901159 -79.41 0.901159 -79.41 0.433594 10.576
20.2000000 0.428965 9.3623 0.903394 -80.64 0.903394 -80.64 0.428912 9.3477
20.4000000 0.424252 8.1349 0.905615 -81.87 0.905615 -81.87 0.424199 8.1206
20.6000000 0.419505 6.9086 0.907819 -83.09 0.907819 -83.09 0.419455 6.8948
20.8000000 0.414725 5.6832 0.910009 -84.32 0.910009 -84.32 0.414676 5.6700
21.0000000 0.409909 4.4587 0.912184 -85.54 0.912184 -85.54 0.409863 4.4461
21.2000000 0.405057 3.2349 0.914345 -86.77 0.914345 -86.77 0.405013 3.2231
21.4000000 0.400166 2.0118 0.916491 -87.99 0.916491 -87.99 0.400125 2.0008
21.6000000 0.395235 0.7891 0.918623 -89.21 0.918623 -89.21 0.395198 0.7791
21.8000000 0.390263 -0.433 0.920740 -90.43 0.920740 -90.43 0.390231 -0.442
22.0000000 0.385249 -1.655 0.922844 -91.66 0.922844 -91.66 0.385221 -1.663
22.2000000 0.380192 -2.877 0.924933 -92.88 0.924933 -92.88 0.380169 -2.883
22.4000000 0.375089 -4.098 0.927008 -94.10 0.927008 -94.10 0.375071 -4.103
22.6000000 0.369941 -5.320 0.929068 -95.32 0.929068 -95.32 0.369929 -5.323
22.8000000 0.364746 -6.541 0.931114 -96.54 0.931114 -96.54 0.364739 -6.543
23.0000000 0.359502 -7.763 0.933144 -97.76 0.933144 -97.76 0.359502 -7.763
!< P1 F=23.0 Eeff=(0.99986481 0.0) Z0=(58.5434103 0.0) R=0.0 C=0.01077637 
!< P2 F=23.0 Eeff=(0.99986481 0.0) Z0=(58.5434103 0.0) R=0.0 C=0.01077637 
23.2000000 0.354209 -8.985 0.935160 -98.98 0.935160 -98.98 0.354215 -8.983
23.4000000 0.348865 -10.21 0.937160 -100.2 0.937160 -100.2 0.348879 -10.20
23.6000000 0.343470 -11.43 0.939144 -101.4 0.939144 -101.4 0.343491 -11.42
23.8000000 0.338023 -12.65 0.941112 -102.7 0.941112 -102.7 0.338052 -12.64
24.0000000 0.332523 -13.88 0.943063 -103.9 0.943063 -103.9 0.332559 -13.87
24.2000000 0.326968 -15.10 0.944997 -105.1 0.944997 -105.1 0.327013 -15.09
24.4000000 0.321359 -16.33 0.946914 -106.3 0.946914 -106.3 0.321412 -16.31
24.6000000 0.315694 -17.55 0.948812 -107.6 0.948812 -107.6 0.315755 -17.53
24.8000000 0.309972 -18.78 0.950691 -108.8 0.950691 -108.8 0.310043 -18.76
25.0000000 0.304194 -20.01 0.952550 -110.0 0.952550 -110.0 0.304273 -19.98
25.2000000 0.298358 -21.23 0.954389 -111.2 0.954389 -111.2 0.298445 -21.21
25.4000000 0.292463 -22.46 0.956207 -112.5 0.956207 -112.5 0.292559 -22.43
25.6000000 0.286510 -23.69 0.958004 -113.7 0.958004 -113.7 0.286615 -23.66
25.8000000 0.280497 -24.93 0.959777 -114.9 0.959777 -114.9 0.280610 -24.89
26.0000000 0.274424 -26.16 0.961528 -116.2 0.961528 -116.2 0.274546 -26.12
26.2000000 0.268291 -27.39 0.963254 -117.4 0.963254 -117.4 0.268422 -27.35
26.4000000 0.262097 -28.63 0.964954 -118.6 0.964954 -118.6 0.262236 -28.58
26.6000000 0.255843 -29.87 0.966629 -119.9 0.966629 -119.9 0.255990 -29.82
26.8000000 0.249527 -31.10 0.968277 -121.1 0.968277 -121.1 0.249682 -31.05
27.0000000 0.243150 -32.34 0.969896 -122.3 0.969896 -122.3 0.243312 -32.29
27.2000000 0.236711 -33.59 0.971486 -123.6 0.971486 -123.6 0.236880 -33.53
27.4000000 0.230211 -34.83 0.973046 -124.8 0.973046 -124.8 0.230386 -34.77
27.6000000 0.223649 -36.07 0.974575 -126.1 0.974575 -126.1 0.223831 -36.01
27.8000000 0.217026 -37.32 0.976071 -127.3 0.976071 -127.3 0.217213 -37.25
28.0000000 0.210341 -38.57 0.977534 -128.6 0.977534 -128.6 0.210533 -38.49
28.2000000 0.203595 -39.82 0.978962 -129.8 0.978962 -129.8 0.203791 -39.74
28.4000000 0.196788 -41.07 0.980355 -131.1 0.980355 -131.1 0.196987 -40.98
28.6000000 0.189920 -42.32 0.981710 -132.3 0.981710 -132.3 0.190122 -42.23
28.8000000 0.182991 -43.57 0.983027 -133.6 0.983027 -133.6 0.183195 -43.48
29.0000000 0.176002 -44.83 0.984305 -134.8 0.984305 -134.8 0.176208 -44.73
29.2000000 0.168954 -46.09 0.985542 -136.1 0.985542 -136.1 0.169160 -45.99
29.4000000 0.161846 -47.35 0.986737 -137.3 0.986737 -137.3 0.162052 -47.24
29.6000000 0.154680 -48.61 0.987889 -138.6 0.987889 -138.6 0.154884 -48.50
29.8000000 0.147455 -49.87 0.988996 -139.9 0.988996 -139.9 0.147658 -49.76
30.0000000 0.140174 -51.13 0.990058 -141.1 0.990058 -141.1 0.140374 -51.02
30.2000000 0.132835 -52.40 0.991073 -142.4 0.991073 -142.4 0.133032 -52.28
30.4000000 0.125441 -53.67 0.992040 -143.7 0.992040 -143.7 0.125633 -53.55
30.6000000 0.117993 -54.94 0.992957 -144.9 0.992957 -144.9 0.118178 -54.81
30.8000000 0.110490 -56.21 0.993824 -146.2 0.993824 -146.2 0.110669 -56.08
31.0000000 0.102934 -57.48 0.994640 -147.5 0.994640 -147.5 0.103106 -57.35
31.2000000 0.095327 -58.76 0.995402 -148.8 0.995402 -148.8 0.095490 -58.62
31.4000000 0.087669 -60.03 0.996110 -150.0 0.996110 -150.0 0.087823 -59.89
31.6000000 0.079961 -61.31 0.996762 -151.3 0.996762 -151.3 0.080105 -61.17
31.8000000 0.072205 -62.59 0.997358 -152.6 0.997358 -152.6 0.072338 -62.44
32.0000000 0.064402 -63.87 0.997896 -153.9 0.997896 -153.9 0.064522 -63.72
32.2000000 0.056553 -65.16 0.998376 -155.2 0.998376 -155.2 0.056661 -65.00
32.4000000 0.048660 -66.44 0.998796 -156.5 0.998796 -156.5 0.048754 -66.28
32.6000000 0.040723 -67.73 0.999154 -157.7 0.999154 -157.7 0.040804 -67.56
32.8000000 0.032746 -69.02 0.999451 -159.0 0.999451 -159.0 0.032811 -68.85
33.0000000 0.024728 -70.31 0.999685 -160.3 0.999685 -160.3 0.024778 -70.13
33.2000000 0.016672 -71.60 0.999855 -161.6 0.999855 -161.6 0.016705 -71.42
33.4000000 0.008579 -72.89 0.999960 -162.9 0.999960 -162.9 0.008596 -72.72
33.6000000 4.505e-4 -74.20 1.000000 -164.2 1.000000 -164.2 4.505e-4 -74.20
!< P1 F=33.6 Eeff=(0.99959969 0.0) Z0=(58.4012645 0.0) R=0.0 C=0.01080064 
!< P2 F=33.6 Eeff=(0.99959969 0.0) Z0=(58.4012645 0.0) R=0.0 C=0.01080064 
33.8000000 0.007716 104.63 1.000034 -165.5 1.000034 -165.5 0.007767 105.36
34.0000000 0.015914 103.33 1.000000 -166.8 1.000000 -166.8 0.016018 104.04
34.2000000 0.024143 102.02 0.999897 -168.1 0.999897 -168.1 0.024302 102.74
34.4000000 0.032400 100.71 0.999723 -169.4 0.999723 -169.4 0.032615 101.43
34.6000000 0.040683 99.403 0.999478 -170.7 0.999478 -170.7 0.040955 100.13
34.8000000 0.048991 98.093 0.999161 -172.0 0.999161 -172.0 0.049322 98.821
35.0000000 0.057322 96.782 0.998771 -173.3 0.998771 -173.3 0.057713 97.514
35.2000000 0.065674 95.470 0.998308 -174.6 0.998308 -174.6 0.066125 96.206
35.4000000 0.074045 94.157 0.997771 -175.9 0.997771 -175.9 0.074557 94.896
35.6000000 0.082433 92.842 0.997159 -177.2 0.997159 -177.2 0.083007 93.585
35.8000000 0.090836 91.527 0.996472 -178.6 0.996472 -178.6 0.091473 92.272
36.0000000 0.099253 90.210 0.995710 -179.9 0.995710 -179.9 0.099952 90.958
36.2000000 0.107681 88.893 0.994871 178.82 0.994871 178.82 0.108443 89.643
36.4000000 0.116119 87.574 0.993956 177.51 0.993956 177.51 0.116944 88.326
36.6000000 0.124565 86.255 0.992965 176.20 0.992965 176.20 0.125452 87.008
36.8000000 0.133017 84.935 0.991896 174.88 0.991896 174.88 0.133967 85.689
37.0000000 0.141474 83.614 0.990750 173.57 0.990750 173.57 0.142485 84.369
37.2000000 0.149933 82.292 0.989527 172.25 0.989527 172.25 0.151005 83.048
37.4000000 0.158394 80.970 0.988226 170.93 0.988226 170.93 0.159525 81.725
37.6000000 0.166854 79.646 0.986848 169.61 0.986848 169.61 0.168043 80.401
37.8000000 0.175312 78.323 0.985392 168.29 0.985392 168.29 0.176559 79.076
38.0000000 0.183767 76.998 0.983858 166.98 0.983858 166.98 0.185069 77.750
38.2000000 0.192217 75.673 0.982246 165.66 0.982246 165.66 0.193573 76.423
38.4000000 0.200661 74.347 0.980557 164.34 0.980557 164.34 0.202068 75.095
38.6000000 0.209098 73.021 0.978790 163.01 0.978790 163.01 0.210554 73.766
38.8000000 0.217526 71.694 0.976945 161.69 0.976945 161.69 0.219029 72.436
39.0000000 0.225945 70.366 0.975023 160.37 0.975023 160.37 0.227492 71.105
39.2000000 0.234352 69.038 0.973023 159.05 0.973023 159.05 0.235942 69.772
39.4000000 0.242748 67.709 0.970946 157.72 0.970946 157.72 0.244377 68.439
39.6000000 0.251132 66.380 0.968792 156.40 0.968792 156.40 0.252796 67.104
39.8000000 0.259502 65.050 0.966561 155.08 0.966561 155.08 0.261199 65.768
40.0000000 0.267859 63.720 0.964252 153.75 0.964252 153.75 0.269585 64.431
40.2000000 0.276201 62.388 0.961866 152.43 0.961866 152.43 0.277953 63.093
40.4000000 0.284529 61.057 0.959403 151.10 0.959403 151.10 0.286302 61.753
40.6000000 0.292841 59.724 0.956863 149.77 0.956863 149.77 0.294632 60.413
40.8000000 0.301138 58.390 0.954246 148.44 0.954246 148.44 0.302943 59.070
41.0000000 0.309419 57.056 0.951552 147.11 0.951552 147.11 0.311234 57.726
41.2000000 0.317685 55.721 0.948780 145.79 0.948780 145.79 0.319505 56.381
41.4000000 0.325936 54.385 0.945931 144.45 0.945931 144.45 0.327757 55.034
41.6000000 0.334172 53.048 0.943005 143.12 0.943005 143.12 0.335989 53.685
41.8000000 0.342393 51.710 0.940000 141.79 0.940000 141.79 0.344202 52.334
42.0000000 0.350601 50.371 0.936917 140.45 0.936917 140.45 0.352396 50.982
42.2000000 0.358795 49.030 0.933756 139.12 0.933756 139.12 0.360572 49.627
42.4000000 0.366976 47.688 0.930515 137.78 0.930515 137.78 0.368730 48.270
42.6000000 0.375146 46.345 0.927195 136.44 0.927195 136.44 0.376872 46.911
42.8000000 0.383305 45.000 0.923794 135.10 0.923794 135.10 0.384998 45.549
43.0000000 0.391456 43.653 0.920312 133.76 0.920312 133.76 0.393110 44.185
43.2000000 0.399599 42.305 0.916749 132.41 0.916749 132.41 0.401209 42.817
43.4000000 0.407736 40.954 0.913102 131.06 0.913102 131.06 0.409296 41.447
43.6000000 0.415869 39.602 0.909371 129.71 0.909371 129.71 0.417374 40.074
43.8000000 0.424000 38.247 0.905554 128.36 0.905554 128.36 0.425444 38.697
44.0000000 0.432131 36.890 0.901651 127.00 0.901651 127.00 0.433510 37.317
44.2000000 0.440265 35.530 0.897660 125.64 0.897660 125.64 0.441572 35.933
44.4000000 0.448404 34.167 0.893578 124.28 0.893578 124.28 0.449634 34.545
44.6000000 0.456552 32.802 0.889405 122.91 0.889405 122.91 0.457699 33.153
44.8000000 0.464712 31.433 0.885138 121.54 0.885138 121.54 0.465770 31.756
45.0000000 0.472887 30.062 0.880774 120.17 0.880774 120.17 0.473851 30.354
45.2000000 0.481081 28.686 0.876312 118.78 0.876312 118.78 0.481945 28.948
45.4000000 0.489299 27.307 0.871748 117.40 0.871748 117.40 0.490056 27.536
45.6000000 0.497545 25.923 0.867080 116.01 0.867080 116.01 0.498191 26.119
45.8000000 0.505824 24.535 0.862305 114.61 0.862305 114.61 0.506353 24.695
46.0000000 0.514143 23.143 0.857418 113.20 0.857418 113.20 0.514548 23.265
46.2000000 0.522506 21.746 0.852416 111.79 0.852416 111.79 0.522782 21.829
46.4000000 0.530922 20.343 0.847296 110.37 0.847296 110.37 0.531063 20.386
46.6000000 0.539397 18.935 0.842052 108.93 0.842052 108.93 0.539397 18.935
!< P1 F=46.6 Eeff=(0.999133 0.0) Z0=(58.1516286 0.0) R=0.0 C=0.01084577 
!< P2 F=46.6 Eeff=(0.999133 0.0) Z0=(58.1516286 0.0) R=0.0 C=0.01084577 
46.8000000 0.548031 17.424 0.835904 107.49 0.835904 107.49 0.547885 17.429
47.0000000 0.556726 15.905 0.829578 106.04 0.829578 106.04 0.556447 15.914
47.2000000 0.565491 14.376 0.823068 104.57 0.823068 104.57 0.565092 14.390
47.4000000 0.574336 12.837 0.816369 103.10 0.816369 103.10 0.573832 12.857
47.6000000 0.583273 11.289 0.809472 101.61 0.809472 101.61 0.582680 11.313
47.8000000 0.592314 9.7302 0.802373 100.10 0.802373 100.10 0.591651 9.7583
48.0000000 0.601475 8.1613 0.795064 98.578 0.795064 98.578 0.600760 8.1930
48.2000000 0.610772 6.5818 0.787539 97.038 0.787539 97.038 0.610026 6.6163
48.4000000 0.620225 4.9916 0.779790 95.478 0.779790 95.478 0.619469 5.0279
48.6000000 0.629857 3.3903 0.771812 93.895 0.771812 93.895 0.629114 3.4274
48.8000000 0.639694 1.7780 0.763599 92.286 0.763599 92.286 0.638985 1.8147
49.0000000 0.649764 0.1546 0.755146 90.649 0.755146 90.649 0.649113 0.1896
49.2000000 0.660101 -1.480 0.746450 88.979 0.746450 88.979 0.659532 -1.448
49.4000000 0.670742 -3.125 0.737512 87.273 0.737512 87.273 0.670279 -3.098
49.6000000 0.681727 -4.780 0.728333 85.525 0.728333 85.525 0.681394 -4.760
49.8000000 0.693102 -6.444 0.718922 83.730 0.718922 83.730 0.692924 -6.433
50.0000000 0.704915 -8.117 0.709292 81.883 0.709292 81.883 0.704915 -8.117
!< P1 F=50.0 Eeff=(0.99898436 0.0) Z0=(58.0717492 0.0) R=0.0 C=0.01086084 
!< P2 F=50.0 Eeff=(0.99898436 0.0) Z0=(58.0717492 0.0) R=0.0 C=0.01086084 
