! Sonnet Data File
! From: em Version : 14.52
! From Project: Lm_v3
! Data is De-embedded 
! Data File Written: 03/13/2018 00:14:46
!< HDATE 03/12/2018 23:52:20
!< MDATE 03/12/2018 23:52:20
# GHZ Z MA R 1.0
0.10000000 0.218825 90.000 0.098375 -90.00 0.098375 -90.00 0.160269 90.000
!< P1 F=0.1 Eeff=(undefined: sl) Z0=(undefined: sl) R=0.0 C=0.0 
!< P2 F=0.1 Eeff=(undefined: sl) Z0=(undefined: sl) R=0.0 C=0.0 
0.12000000 0.264232 90.000 0.118133 -90.00 0.118133 -90.00 0.193328 89.999
0.14000000 0.309636 90.000 0.137890 -90.00 0.137890 -90.00 0.226385 89.999
0.16000000 0.355039 89.999 0.157648 -90.00 0.157648 -90.00 0.259441 89.999
0.18000000 0.400439 89.999 0.177406 -90.00 0.177406 -90.00 0.292495 89.998
0.20000000 0.445838 89.999 0.197165 -90.00 0.197165 -90.00 0.325549 89.998
0.22000000 0.491235 89.999 0.216923 -90.00 0.216923 -90.00 0.358601 89.998
0.24000000 0.536631 89.999 0.236683 -90.00 0.236683 -90.00 0.391653 89.998
0.26000000 0.582025 89.999 0.256442 -90.00 0.256442 -90.00 0.424703 89.998
0.28000000 0.627417 89.999 0.276203 -90.00 0.276203 -90.00 0.457753 89.998
0.30000000 0.672808 89.999 0.295963 -90.00 0.295963 -90.00 0.490802 89.998
0.32000000 0.718198 89.999 0.315725 -90.00 0.315725 -90.00 0.523850 89.998
0.34000000 0.763587 89.999 0.335487 -90.00 0.335487 -90.00 0.556898 89.998
0.36000000 0.808974 89.999 0.355250 -90.00 0.355250 -90.00 0.589945 89.998
0.38000000 0.854360 89.999 0.375013 -90.00 0.375013 -90.00 0.622991 89.998
0.40000000 0.899745 89.999 0.394778 -90.00 0.394778 -90.00 0.656037 89.998
0.42000000 0.945129 89.999 0.414543 -90.00 0.414543 -90.00 0.689083 89.998
0.44000000 0.990512 89.999 0.434309 -90.00 0.434309 -90.00 0.722128 89.998
0.46000000 1.035894 89.999 0.454076 -90.00 0.454076 -90.00 0.755173 89.998
0.48000000 1.081276 89.999 0.473844 -90.00 0.473844 -90.00 0.788218 89.998
0.50000000 1.126657 89.999 0.493613 -90.00 0.493613 -90.00 0.821262 89.998
0.52000000 1.172037 89.999 0.513383 -90.00 0.513383 -90.00 0.854306 89.998
0.54000000 1.217416 89.999 0.533155 -90.00 0.533155 -90.00 0.887351 89.998
0.56000000 1.262795 89.999 0.552927 -90.00 0.552927 -90.00 0.920395 89.998
0.58000000 1.308174 89.999 0.572701 -90.00 0.572701 -90.00 0.953439 89.998
0.60000000 1.353552 89.999 0.592476 -90.00 0.592476 -90.00 0.986483 89.998
0.62000000 1.398930 89.999 0.612252 -90.00 0.612252 -90.00 1.019528 89.998
0.64000000 1.444308 89.999 0.632030 -90.00 0.632030 -90.00 1.052572 89.998
0.66000000 1.489686 89.999 0.651809 -90.00 0.651809 -90.00 1.085617 89.998
0.68000000 1.535063 89.999 0.671590 -90.00 0.671590 -90.00 1.118662 89.999
0.70000000 1.580441 89.999 0.691372 -90.00 0.691372 -90.00 1.151708 89.999
0.72000000 1.625819 89.999 0.711156 -90.00 0.711156 -90.00 1.184754 89.999
0.74000000 1.671196 89.999 0.730941 -90.00 0.730941 -90.00 1.217800 89.999
0.76000000 1.716574 89.999 0.750728 -90.00 0.750728 -90.00 1.250847 89.999
0.78000000 1.761952 89.999 0.770517 -90.00 0.770517 -90.00 1.283894 89.999
0.80000000 1.807331 90.000 0.790307 -90.00 0.790307 -90.00 1.316942 89.999
0.82000000 1.852710 90.000 0.810099 -90.00 0.810099 -90.00 1.349991 89.999
0.84000000 1.898090 90.000 0.829893 -90.00 0.829893 -90.00 1.383041 89.999
0.86000000 1.943470 90.000 0.849689 -90.00 0.849689 -90.00 1.416091 89.999
0.88000000 1.988850 90.000 0.869487 -90.00 0.869487 -90.00 1.449142 89.999
0.90000000 2.034232 90.000 0.889287 -90.00 0.889287 -90.00 1.482194 89.999
0.92000000 2.079614 90.000 0.909089 -90.00 0.909089 -90.00 1.515246 89.999
0.94000000 2.124997 90.000 0.928893 -90.00 0.928893 -90.00 1.548300 89.999
0.96000000 2.170381 90.000 0.948700 -90.00 0.948700 -90.00 1.581355 89.999
0.98000000 2.215766 90.000 0.968508 -90.00 0.968508 -90.00 1.614411 89.999
1.00000000 2.261152 90.000 0.988319 -90.00 0.988319 -90.00 1.647468 89.999
1.02000000 2.306539 90.000 1.008132 -90.00 1.008132 -90.00 1.680527 89.999
1.04000000 2.351927 90.000 1.027947 -90.00 1.027947 -90.00 1.713586 89.999
1.06000000 2.397317 90.000 1.047765 -90.00 1.047765 -90.00 1.746647 89.999
1.08000000 2.442708 90.000 1.067585 -90.00 1.067585 -90.00 1.779709 89.999
1.10000000 2.488100 90.000 1.087407 -90.00 1.087407 -90.00 1.812773 89.999
1.12000000 2.533494 90.000 1.107232 -90.00 1.107232 -90.00 1.845838 90.000
1.14000000 2.578890 90.000 1.127060 -90.00 1.127060 -90.00 1.878905 90.000
1.16000000 2.624287 90.000 1.146890 -90.00 1.146890 -90.00 1.911973 90.000
1.18000000 2.669685 90.000 1.166723 -90.00 1.166723 -90.00 1.945043 90.000
1.20000000 2.715086 90.000 1.186559 -90.00 1.186559 -90.00 1.978115 90.000
1.22000000 2.760488 90.000 1.206398 -90.00 1.206398 -90.00 2.011188 90.000
1.24000000 2.805892 90.000 1.226239 -90.00 1.226239 -90.00 2.044263 90.000
1.26000000 2.851299 90.000 1.246083 -90.00 1.246083 -90.00 2.077340 90.000
1.28000000 2.896707 90.000 1.265930 -90.00 1.265930 -90.00 2.110419 90.000
1.30000000 2.942117 90.000 1.285780 -90.00 1.285780 -90.00 2.143500 90.000
1.32000000 2.987530 90.000 1.305633 -90.00 1.305633 -90.00 2.176583 90.000
1.34000000 3.032945 90.000 1.325489 -90.00 1.325489 -90.00 2.209668 90.000
1.36000000 3.078362 90.000 1.345349 -90.00 1.345349 -90.00 2.242755 90.000
1.38000000 3.123782 90.000 1.365211 -90.00 1.365211 -90.00 2.275844 90.000
1.40000000 3.169204 90.000 1.385077 -90.00 1.385077 -90.00 2.308935 90.000
!< P1 F=1.4 Eeff=(1.03480902 0.0) Z0=(108.446927 0.0) R=0.0 C=6.73465e-5 
!< P2 F=1.4 Eeff=(5.66939794 -5.1158e-6) Z0=(56.5815649 2.5643e-5) R=0.29369604 C=4.24887e-4 
1.42000000 3.214628 90.000 1.404946 -90.00 1.404946 -90.00 2.342029 90.000
1.44000000 3.260056 90.000 1.424818 -90.00 1.424818 -90.00 2.375125 90.000
1.46000000 3.305486 90.000 1.444693 -90.00 1.444693 -90.00 2.408223 90.000
1.48000000 3.350918 90.000 1.464572 -90.00 1.464572 -90.00 2.441324 90.000
1.50000000 3.396354 90.000 1.484455 -90.00 1.484455 -90.00 2.474428 90.000
1.52000000 3.441793 90.000 1.504341 -90.00 1.504341 -90.00 2.507534 90.000
1.54000000 3.487234 90.000 1.524230 -90.00 1.524230 -90.00 2.540642 90.000
1.56000000 3.532679 90.000 1.544123 -90.00 1.544123 -90.00 2.573753 90.000
1.58000000 3.578126 90.000 1.564020 -90.00 1.564020 -90.00 2.606867 90.000
1.60000000 3.623577 90.000 1.583920 -90.00 1.583920 -90.00 2.639984 90.000
1.62000000 3.669031 90.000 1.603825 -90.00 1.603825 -90.00 2.673103 90.000
1.64000000 3.714489 90.000 1.623733 -90.00 1.623733 -90.00 2.706226 90.000
1.66000000 3.759949 90.000 1.643645 -90.00 1.643645 -90.00 2.739351 90.000
1.68000000 3.805414 90.000 1.663560 -90.00 1.663560 -90.00 2.772479 90.000
1.70000000 3.850882 90.000 1.683480 -90.00 1.683480 -90.00 2.805611 90.000
1.72000000 3.896353 90.000 1.703404 -90.00 1.703404 -90.00 2.838745 90.000
1.74000000 3.941829 90.000 1.723332 -90.00 1.723332 -90.00 2.871882 90.000
1.76000000 3.987308 90.000 1.743263 -90.00 1.743263 -90.00 2.905023 90.000
1.78000000 4.032790 90.000 1.763199 -90.00 1.763199 -90.00 2.938167 90.000
1.80000000 4.078277 90.000 1.783140 -90.00 1.783140 -90.00 2.971314 90.000
1.82000000 4.123768 90.000 1.803084 -90.00 1.803084 -90.00 3.004465 90.000
1.84000000 4.169263 90.000 1.823033 -90.00 1.823033 -90.00 3.037619 90.000
1.86000000 4.214762 90.000 1.842986 -90.00 1.842986 -90.00 3.070777 90.001
1.88000000 4.260265 90.000 1.862943 -90.00 1.862943 -90.00 3.103938 90.001
1.90000000 4.305772 90.000 1.882905 -90.00 1.882905 -90.00 3.137102 90.001
1.92000000 4.351284 90.000 1.902872 -90.00 1.902872 -90.00 3.170270 90.001
1.94000000 4.396800 90.000 1.922843 -90.00 1.922843 -90.00 3.203442 90.001
1.96000000 4.442321 90.000 1.942818 -90.00 1.942818 -90.00 3.236618 90.001
1.98000000 4.487846 90.000 1.962799 -90.00 1.962799 -90.00 3.269797 90.001
2.00000000 4.533376 90.000 1.982784 -90.00 1.982784 -90.00 3.302981 90.001
2.02000000 4.578910 90.000 2.002773 -90.00 2.002773 -90.00 3.336168 90.001
2.04000000 4.624450 90.000 2.022768 -90.00 2.022768 -90.00 3.369359 90.001
2.06000000 4.669994 90.000 2.042767 -90.00 2.042767 -90.00 3.402554 90.001
2.08000000 4.715543 90.000 2.062771 -90.00 2.062771 -90.00 3.435753 90.001
2.10000000 4.761097 90.000 2.082781 -90.00 2.082781 -90.00 3.468956 90.001
2.12000000 4.806656 90.000 2.102795 -90.00 2.102795 -90.00 3.502164 90.001
2.14000000 4.852221 90.000 2.122814 -90.00 2.122814 -90.00 3.535376 90.001
2.16000000 4.897790 90.000 2.142839 -90.00 2.142839 -90.00 3.568592 90.001
2.18000000 4.943365 90.000 2.162868 -90.00 2.162868 -90.00 3.601812 90.001
2.20000000 4.988945 90.000 2.182903 -90.00 2.182903 -90.00 3.635037 90.001
2.22000000 5.034531 90.000 2.202943 -90.00 2.202943 -90.00 3.668266 90.001
2.24000000 5.080122 90.000 2.222988 -90.00 2.222988 -90.00 3.701499 90.001
2.26000000 5.125719 90.000 2.243039 -90.00 2.243039 -90.00 3.734738 90.001
2.28000000 5.171321 90.000 2.263095 -90.00 2.263095 -90.00 3.767980 90.001
2.30000000 5.216929 90.000 2.283156 -90.00 2.283156 -90.00 3.801228 90.001
2.32000000 5.262543 90.000 2.303223 -90.00 2.303223 -90.00 3.834480 90.001
2.34000000 5.308163 90.000 2.323296 -90.00 2.323296 -90.00 3.867737 90.001
2.36000000 5.353788 90.000 2.343374 -90.00 2.343374 -90.00 3.900999 90.001
2.38000000 5.399420 90.000 2.363458 -90.00 2.363458 -90.00 3.934265 90.001
2.40000000 5.445058 90.000 2.383547 -90.00 2.383547 -90.00 3.967537 90.001
2.42000000 5.490702 90.000 2.403643 -90.00 2.403643 -90.00 4.000813 90.001
2.44000000 5.536352 90.000 2.423744 -90.00 2.423744 -90.00 4.034095 90.001
2.46000000 5.582008 90.000 2.443851 -90.00 2.443851 -90.00 4.067382 90.001
2.48000000 5.627671 90.000 2.463964 -90.00 2.463964 -90.00 4.100673 90.001
2.50000000 5.673340 90.000 2.484083 -90.00 2.484083 -90.00 4.133970 90.001
2.52000000 5.719016 90.000 2.504208 -90.00 2.504208 -90.00 4.167273 90.001
2.54000000 5.764699 90.000 2.524338 -90.00 2.524338 -90.00 4.200580 90.001
2.56000000 5.810388 90.000 2.544476 -90.00 2.544476 -90.00 4.233893 90.001
2.58000000 5.856084 90.000 2.564619 -90.00 2.564619 -90.00 4.267212 90.001
2.60000000 5.901786 90.000 2.584768 -90.00 2.584768 -90.00 4.300536 90.001
2.62000000 5.947496 90.000 2.604924 -90.00 2.604924 -90.00 4.333865 90.001
2.64000000 5.993212 90.000 2.625086 -90.00 2.625086 -90.00 4.367200 90.001
2.66000000 6.038936 90.000 2.645255 -90.00 2.645255 -90.00 4.400541 90.001
2.68000000 6.084667 90.000 2.665430 -90.00 2.665430 -90.00 4.433887 90.001
2.70000000 6.130405 90.000 2.685611 -90.00 2.685611 -90.00 4.467239 90.000
2.72000000 6.176150 90.000 2.705799 -90.00 2.705799 -90.00 4.500597 90.000
2.74000000 6.221902 90.000 2.725993 -90.00 2.725993 -90.00 4.533961 90.000
2.76000000 6.267662 90.000 2.746195 -90.00 2.746195 -90.00 4.567331 90.000
2.78000000 6.313429 90.000 2.766402 -90.00 2.766402 -90.00 4.600706 90.000
2.80000000 6.359204 90.000 2.786617 -90.00 2.786617 -90.00 4.634088 90.000
2.82000000 6.404987 90.000 2.806838 -90.00 2.806838 -90.00 4.667476 90.000
2.84000000 6.450777 90.000 2.827067 -90.00 2.827067 -90.00 4.700870 90.000
2.86000000 6.496575 90.000 2.847302 -90.00 2.847302 -90.00 4.734270 90.000
2.88000000 6.542381 90.000 2.867544 -90.00 2.867544 -90.00 4.767676 90.000
2.90000000 6.588195 90.000 2.887793 -90.00 2.887793 -90.00 4.801089 90.000
2.92000000 6.634017 90.000 2.908049 -90.00 2.908049 -90.00 4.834508 90.000
2.94000000 6.679847 90.000 2.928312 -90.00 2.928312 -90.00 4.867933 90.000
2.96000000 6.725685 90.000 2.948583 -90.00 2.948583 -90.00 4.901365 90.000
2.98000000 6.771531 90.000 2.968860 -90.00 2.968860 -90.00 4.934804 90.000
3.00000000 6.817386 90.000 2.989145 -90.00 2.989145 -90.00 4.968249 90.000
3.02000000 6.863249 90.000 3.009437 -90.00 3.009437 -90.00 5.001701 90.000
3.04000000 6.909120 90.000 3.029737 -90.00 3.029737 -90.00 5.035159 90.000
3.06000000 6.955000 90.000 3.050044 -90.00 3.050044 -90.00 5.068624 90.000
3.08000000 7.000889 90.000 3.070358 -90.00 3.070358 -90.00 5.102096 90.000
3.10000000 7.046786 90.000 3.090680 -90.00 3.090680 -90.00 5.135575 90.000
3.12000000 7.092692 90.000 3.111010 -90.00 3.111010 -90.00 5.169061 90.000
3.14000000 7.138607 90.000 3.131347 -90.00 3.131347 -90.00 5.202554 90.000
3.16000000 7.184531 90.000 3.151692 -90.00 3.151692 -90.00 5.236053 90.000
!< P1 F=3.16 Eeff=(1.03589261 0.0) Z0=(108.503742 0.0) R=0.0 C=6.73465e-5 
!< P2 F=3.16 Eeff=(5.67059463 -5.1739e-6) Z0=(56.5875326 2.57977e-5) R=0.10890417 C=4.24886e-4 
3.18000000 7.230464 90.000 3.172045 -90.00 3.172045 -90.00 5.269563 90.000
3.20000000 7.276405 90.000 3.192405 -90.00 3.192405 -90.00 5.303079 90.000
3.22000000 7.322356 90.000 3.212774 -90.00 3.212774 -90.00 5.336603 90.000
3.24000000 7.368317 90.000 3.233150 -90.00 3.233150 -90.00 5.370135 90.000
3.26000000 7.414286 90.000 3.253534 -90.00 3.253534 -90.00 5.403673 90.000
3.28000000 7.460265 90.000 3.273926 -90.00 3.273926 -90.00 5.437219 90.000
3.30000000 7.506253 90.000 3.294326 -90.00 3.294326 -90.00 5.470773 90.000
3.32000000 7.552251 90.000 3.314735 -90.00 3.314735 -90.00 5.504334 90.000
3.34000000 7.598258 90.000 3.335151 -90.00 3.335151 -90.00 5.537903 90.000
3.36000000 7.644275 90.000 3.355576 -90.00 3.355576 -90.00 5.571479 90.000
3.38000000 7.690302 90.000 3.376009 -90.00 3.376009 -90.00 5.605063 90.000
3.40000000 7.736338 90.000 3.396450 -90.00 3.396450 -90.00 5.638655 90.000
3.42000000 7.782384 90.000 3.416900 -90.00 3.416900 -90.00 5.672255 90.000
3.44000000 7.828441 90.000 3.437358 -90.00 3.437358 -90.00 5.705862 90.000
3.46000000 7.874507 90.000 3.457824 -90.00 3.457824 -90.00 5.739478 90.000
3.48000000 7.920584 90.000 3.478299 -90.00 3.478299 -90.00 5.773101 90.000
3.50000000 7.966670 90.000 3.498783 -90.00 3.498783 -90.00 5.806733 90.000
3.52000000 8.012767 90.000 3.519275 -90.00 3.519275 -90.00 5.840373 90.000
3.54000000 8.058875 90.000 3.539777 -90.00 3.539777 -90.00 5.874020 90.000
3.56000000 8.104993 90.000 3.560286 -90.00 3.560286 -90.00 5.907676 90.000
3.58000000 8.151121 90.000 3.580805 -90.00 3.580805 -90.00 5.941341 90.000
3.60000000 8.197260 90.000 3.601332 -90.00 3.601332 -90.00 5.975014 90.000
3.62000000 8.243409 90.000 3.621869 -90.00 3.621869 -90.00 6.008695 90.000
3.64000000 8.289569 90.000 3.642414 -90.00 3.642414 -90.00 6.042384 90.000
3.66000000 8.335740 90.000 3.662969 -90.00 3.662969 -90.00 6.076082 90.000
3.68000000 8.381922 90.000 3.683532 -90.00 3.683532 -90.00 6.109789 90.000
3.70000000 8.428115 90.000 3.704105 -90.00 3.704105 -90.00 6.143504 90.000
3.72000000 8.474319 90.000 3.724686 -90.00 3.724686 -90.00 6.177228 90.000
3.74000000 8.520534 90.000 3.745277 -90.00 3.745277 -90.00 6.210961 90.000
3.76000000 8.566760 90.000 3.765878 -90.00 3.765878 -90.00 6.244702 90.000
3.78000000 8.612998 90.000 3.786487 -90.00 3.786487 -90.00 6.278453 90.000
3.80000000 8.659247 90.000 3.807106 -90.00 3.807106 -90.00 6.312212 90.000
3.82000000 8.705507 90.000 3.827735 -90.00 3.827735 -90.00 6.345980 90.000
3.84000000 8.751779 90.000 3.848373 -90.00 3.848373 -90.00 6.379758 90.000
3.86000000 8.798062 90.000 3.869020 -90.00 3.869020 -90.00 6.413544 90.000
3.88000000 8.844357 90.000 3.889678 -90.00 3.889678 -90.00 6.447340 90.000
3.90000000 8.890664 90.000 3.910344 -90.00 3.910344 -90.00 6.481144 90.000
3.92000000 8.936982 90.000 3.931021 -90.00 3.931021 -90.00 6.514958 90.000
3.94000000 8.983313 90.000 3.951707 -90.00 3.951707 -90.00 6.548782 90.000
3.96000000 9.029655 90.000 3.972404 -90.00 3.972404 -90.00 6.582615 90.000
3.98000000 9.076010 90.000 3.993110 -90.00 3.993110 -90.00 6.616457 90.000
4.00000000 9.122376 90.000 4.013826 -90.00 4.013826 -90.00 6.650308 90.000
4.02000000 9.168755 90.000 4.034552 -90.00 4.034552 -90.00 6.684170 90.000
4.04000000 9.215146 90.000 4.055288 -90.00 4.055288 -90.00 6.718041 90.000
4.06000000 9.261550 90.000 4.076034 -90.00 4.076034 -90.00 6.751921 90.000
4.08000000 9.307966 90.000 4.096791 -90.00 4.096791 -90.00 6.785811 90.000
4.10000000 9.354394 90.000 4.117557 -90.00 4.117557 -90.00 6.819711 90.000
4.12000000 9.400835 90.000 4.138334 -90.00 4.138334 -90.00 6.853621 90.000
4.14000000 9.447289 90.000 4.159122 -90.00 4.159122 -90.00 6.887541 90.000
4.16000000 9.493755 90.000 4.179919 -90.00 4.179919 -90.00 6.921471 90.000
4.18000000 9.540235 90.000 4.200727 -90.00 4.200727 -90.00 6.955411 90.000
4.20000000 9.586727 90.000 4.221546 -90.00 4.221546 -90.00 6.989361 90.000
4.22000000 9.633232 90.000 4.242375 -90.00 4.242375 -90.00 7.023321 90.000
4.24000000 9.679751 90.000 4.263215 -90.00 4.263215 -90.00 7.057291 90.000
4.26000000 9.726282 90.000 4.284065 -90.00 4.284065 -90.00 7.091272 90.000
4.28000000 9.772827 90.000 4.304926 -90.00 4.304926 -90.00 7.125263 90.000
4.30000000 9.819385 90.000 4.325798 -90.00 4.325798 -90.00 7.159264 90.000
4.32000000 9.865956 90.000 4.346681 -90.00 4.346681 -90.00 7.193276 90.000
4.34000000 9.912541 90.000 4.367575 -90.00 4.367575 -90.00 7.227298 90.000
4.36000000 9.959140 90.000 4.388479 -90.00 4.388479 -90.00 7.261331 90.000
4.38000000 10.00575 90.000 4.409395 -90.00 4.409395 -90.00 7.295374 90.000
4.40000000 10.05238 90.000 4.430322 -90.00 4.430322 -90.00 7.329428 90.000
4.42000000 10.09902 90.000 4.451260 -90.00 4.451260 -90.00 7.363493 90.000
4.44000000 10.14567 90.000 4.472209 -90.00 4.472209 -90.00 7.397569 90.000
4.46000000 10.19234 90.000 4.493169 -90.00 4.493169 -90.00 7.431655 90.000
4.48000000 10.23902 90.000 4.514140 -90.00 4.514140 -90.00 7.465753 90.000
4.50000000 10.28572 90.000 4.535123 -90.00 4.535123 -90.00 7.499861 90.000
4.52000000 10.33243 90.000 4.556117 -90.00 4.556117 -90.00 7.533981 90.000
4.54000000 10.37915 90.000 4.577123 -90.00 4.577123 -90.00 7.568112 90.000
4.56000000 10.42589 90.000 4.598140 -90.00 4.598140 -90.00 7.602253 90.000
4.58000000 10.47264 90.000 4.619169 -90.00 4.619169 -90.00 7.636406 90.000
4.60000000 10.51941 90.000 4.640209 -90.00 4.640209 -90.00 7.670571 90.000
4.62000000 10.56619 90.000 4.661261 -90.00 4.661261 -90.00 7.704746 90.000
4.64000000 10.61299 90.000 4.682325 -90.00 4.682325 -90.00 7.738933 90.000
4.66000000 10.65980 90.000 4.703401 -90.00 4.703401 -90.00 7.773132 90.000
4.68000000 10.70663 90.000 4.724488 -90.00 4.724488 -90.00 7.807342 90.000
4.70000000 10.75347 90.000 4.745588 -90.00 4.745588 -90.00 7.841564 90.000
4.72000000 10.80032 90.000 4.766699 -90.00 4.766699 -90.00 7.875797 90.000
4.74000000 10.84719 90.000 4.787823 -90.00 4.787823 -90.00 7.910042 90.000
4.76000000 10.89408 90.000 4.808958 -90.00 4.808958 -90.00 7.944299 90.000
4.78000000 10.94098 90.000 4.830106 -90.00 4.830106 -90.00 7.978568 90.000
4.80000000 10.98790 90.000 4.851265 -90.00 4.851265 -90.00 8.012848 90.000
4.82000000 11.03483 90.000 4.872437 -90.00 4.872437 -90.00 8.047141 90.000
4.84000000 11.08178 90.000 4.893622 -90.00 4.893622 -90.00 8.081445 90.000
4.86000000 11.12874 90.000 4.914819 -90.00 4.914819 -90.00 8.115762 90.000
4.88000000 11.17572 90.000 4.936028 -90.00 4.936028 -90.00 8.150091 90.000
4.90000000 11.22272 90.000 4.957249 -90.00 4.957249 -90.00 8.184432 90.000
4.92000000 11.26973 90.000 4.978484 -90.00 4.978484 -90.00 8.218785 90.000
4.94000000 11.31676 90.000 4.999730 -90.00 4.999730 -90.00 8.253151 90.000
4.96000000 11.36380 90.000 5.020990 -90.00 5.020990 -90.00 8.287529 90.000
4.98000000 11.41086 90.000 5.042262 -90.00 5.042262 -90.00 8.321920 90.000
5.00000000 11.45793 90.000 5.063547 -90.00 5.063547 -90.00 8.356323 90.000
5.02000000 11.50503 90.000 5.084845 -90.00 5.084845 -90.00 8.390738 90.000
5.04000000 11.55213 90.000 5.106155 -90.00 5.106155 -90.00 8.425166 90.000
5.06000000 11.59926 90.000 5.127479 -90.00 5.127479 -90.00 8.459607 90.000
5.08000000 11.64640 90.000 5.148816 -90.00 5.148816 -90.00 8.494061 90.000
5.10000000 11.69356 90.000 5.170165 -90.00 5.170165 -90.00 8.528528 90.000
5.12000000 11.74073 90.000 5.191528 -90.00 5.191528 -90.00 8.563007 90.000
5.14000000 11.78792 90.000 5.212904 -90.00 5.212904 -90.00 8.597500 90.000
5.16000000 11.83513 90.000 5.234293 -90.00 5.234293 -90.00 8.632005 90.000
5.18000000 11.88235 90.000 5.255696 -90.00 5.255696 -90.00 8.666524 90.000
5.20000000 11.92960 90.000 5.277112 -90.00 5.277112 -90.00 8.701056 90.000
5.22000000 11.97685 90.000 5.298541 -90.00 5.298541 -90.00 8.735600 90.000
