! Sonnet Data File
! From: em Version : 14.52
! From Project: r2
! Data is De-embedded 
! Data File Written: 04/03/2019 11:14:56
!< HDATE 04/03/2019 10:43:15
!< MDATE 04/03/2019 10:43:15
# GHZ S MA R 50.00000
6.00000000 0.006657 79.686 0.999978 -8.723 0.999978 -8.723 0.006657 82.870
!< P1 F=6.0 Eeff=(5.67097947 -5.1707e-6) Z0=(51.3367484 2.34088e-5) R=0.00819012 C=0.00295365 
!< P2 F=6.0 Eeff=(5.67097947 -5.1707e-6) Z0=(51.3367484 2.34088e-5) R=0.00819012 C=0.00295365 
6.00500000 0.006666 79.675 0.999978 -8.730 0.999978 -8.730 0.006666 82.865
6.01000000 0.006675 79.665 0.999978 -8.738 0.999978 -8.738 0.006675 82.861
6.01500000 0.006684 79.654 0.999978 -8.745 0.999978 -8.745 0.006684 82.857
6.02000000 0.006694 79.643 0.999978 -8.753 0.999978 -8.753 0.006694 82.852
6.02500000 0.006703 79.633 0.999977 -8.760 0.999977 -8.760 0.006703 82.848
6.03000000 0.006712 79.622 0.999977 -8.768 0.999977 -8.768 0.006712 82.844
6.03500000 0.006722 79.611 0.999977 -8.775 0.999977 -8.775 0.006722 82.839
6.04000000 0.006732 79.601 0.999977 -8.783 0.999977 -8.783 0.006732 82.835
6.04500000 0.006741 79.590 0.999977 -8.790 0.999977 -8.790 0.006741 82.831
6.05000000 0.006751 79.579 0.999977 -8.798 0.999977 -8.798 0.006751 82.827
6.05500000 0.006761 79.568 0.999977 -8.805 0.999977 -8.805 0.006761 82.822
6.06000000 0.006771 79.557 0.999977 -8.813 0.999977 -8.813 0.006771 82.818
6.06500000 0.006781 79.546 0.999977 -8.820 0.999977 -8.820 0.006781 82.814
6.07000000 0.006791 79.535 0.999977 -8.828 0.999977 -8.828 0.006791 82.810
6.07500000 0.006801 79.524 0.999977 -8.835 0.999977 -8.835 0.006801 82.806
6.08000000 0.006812 79.513 0.999977 -8.843 0.999977 -8.843 0.006812 82.802
6.08500000 0.006822 79.502 0.999977 -8.851 0.999977 -8.851 0.006822 82.798
6.09000000 0.006833 79.491 0.999977 -8.858 0.999977 -8.858 0.006833 82.794
6.09500000 0.006843 79.479 0.999977 -8.866 0.999977 -8.866 0.006843 82.791
6.10000000 0.006854 79.468 0.999976 -8.873 0.999976 -8.873 0.006854 82.787
6.10500000 0.006865 79.457 0.999976 -8.881 0.999976 -8.881 0.006865 82.783
6.11000000 0.006876 79.445 0.999976 -8.888 0.999976 -8.888 0.006876 82.779
6.11500000 0.006887 79.434 0.999976 -8.896 0.999976 -8.896 0.006887 82.776
6.12000000 0.006899 79.422 0.999976 -8.904 0.999976 -8.904 0.006899 82.772
6.12500000 0.006910 79.410 0.999976 -8.911 0.999976 -8.911 0.006910 82.769
6.13000000 0.006922 79.398 0.999976 -8.919 0.999976 -8.919 0.006922 82.765
6.13500000 0.006934 79.387 0.999976 -8.926 0.999976 -8.926 0.006934 82.762
6.14000000 0.006946 79.375 0.999976 -8.934 0.999976 -8.934 0.006946 82.758
6.14500000 0.006958 79.363 0.999976 -8.942 0.999976 -8.942 0.006958 82.755
6.15000000 0.006970 79.351 0.999976 -8.949 0.999976 -8.949 0.006970 82.752
6.15500000 0.006983 79.339 0.999976 -8.957 0.999976 -8.957 0.006983 82.749
6.16000000 0.006995 79.326 0.999975 -8.965 0.999975 -8.965 0.006995 82.746
6.16500000 0.007008 79.314 0.999975 -8.972 0.999975 -8.972 0.007008 82.743
6.17000000 0.007021 79.301 0.999975 -8.980 0.999975 -8.980 0.007021 82.740
6.17500000 0.007034 79.289 0.999975 -8.988 0.999975 -8.988 0.007034 82.737
6.18000000 0.007048 79.276 0.999975 -8.996 0.999975 -8.996 0.007048 82.734
6.18500000 0.007062 79.264 0.999975 -9.003 0.999975 -9.003 0.007062 82.731
6.19000000 0.007076 79.251 0.999975 -9.011 0.999975 -9.011 0.007076 82.728
6.19500000 0.007090 79.238 0.999975 -9.019 0.999975 -9.019 0.007090 82.726
6.20000000 0.007104 79.225 0.999975 -9.027 0.999975 -9.027 0.007104 82.723
6.20500000 0.007119 79.211 0.999975 -9.034 0.999975 -9.034 0.007119 82.721
6.21000000 0.007134 79.198 0.999974 -9.042 0.999974 -9.042 0.007134 82.719
6.21500000 0.007149 79.185 0.999974 -9.050 0.999974 -9.050 0.007149 82.717
6.22000000 0.007165 79.171 0.999974 -9.058 0.999974 -9.058 0.007165 82.715
6.22500000 0.007181 79.157 0.999974 -9.066 0.999974 -9.066 0.007181 82.713
6.23000000 0.007197 79.143 0.999974 -9.074 0.999974 -9.074 0.007197 82.711
6.23500000 0.007214 79.129 0.999974 -9.082 0.999974 -9.082 0.007214 82.709
6.24000000 0.007231 79.115 0.999974 -9.090 0.999974 -9.090 0.007231 82.708
6.24500000 0.007248 79.100 0.999974 -9.097 0.999974 -9.097 0.007248 82.706
6.25000000 0.007266 79.086 0.999974 -9.105 0.999974 -9.105 0.007266 82.705
6.25500000 0.007284 79.071 0.999973 -9.113 0.999973 -9.113 0.007284 82.704
6.26000000 0.007303 79.056 0.999973 -9.121 0.999973 -9.121 0.007303 82.703
6.26500000 0.007322 79.041 0.999973 -9.130 0.999973 -9.130 0.007322 82.702
6.27000000 0.007342 79.025 0.999973 -9.138 0.999973 -9.138 0.007342 82.701
6.27500000 0.007362 79.010 0.999973 -9.146 0.999973 -9.146 0.007362 82.700
6.28000000 0.007383 78.994 0.999973 -9.154 0.999973 -9.154 0.007383 82.700
6.28500000 0.007404 78.977 0.999973 -9.162 0.999973 -9.162 0.007404 82.700
6.29000000 0.007426 78.961 0.999972 -9.170 0.999972 -9.170 0.007426 82.700
6.29500000 0.007449 78.944 0.999972 -9.179 0.999972 -9.179 0.007449 82.700
6.30000000 0.007472 78.927 0.999972 -9.187 0.999972 -9.187 0.007472 82.701
6.30500000 0.007496 78.910 0.999972 -9.195 0.999972 -9.195 0.007496 82.701
6.31000000 0.007521 78.892 0.999972 -9.204 0.999972 -9.204 0.007521 82.702
6.31500000 0.007547 78.874 0.999971 -9.212 0.999971 -9.212 0.007547 82.703
6.32000000 0.007574 78.856 0.999971 -9.220 0.999971 -9.220 0.007574 82.705
6.32500000 0.007601 78.837 0.999971 -9.229 0.999971 -9.229 0.007601 82.707
6.33000000 0.007630 78.817 0.999971 -9.238 0.999971 -9.238 0.007630 82.709
6.33500000 0.007660 78.798 0.999971 -9.246 0.999971 -9.246 0.007660 82.711
6.34000000 0.007691 78.778 0.999970 -9.255 0.999970 -9.255 0.007691 82.714
6.34500000 0.007723 78.757 0.999970 -9.264 0.999970 -9.264 0.007723 82.717
6.35000000 0.007757 78.736 0.999970 -9.273 0.999970 -9.273 0.007757 82.720
6.35500000 0.007792 78.714 0.999970 -9.282 0.999970 -9.282 0.007792 82.724
6.36000000 0.007828 78.691 0.999969 -9.291 0.999969 -9.291 0.007828 82.729
6.36500000 0.007867 78.668 0.999969 -9.300 0.999969 -9.300 0.007867 82.733
6.37000000 0.007907 78.644 0.999969 -9.309 0.999969 -9.309 0.007907 82.739
6.37500000 0.007950 78.620 0.999968 -9.318 0.999968 -9.318 0.007950 82.744
6.38000000 0.007994 78.594 0.999968 -9.328 0.999968 -9.328 0.007994 82.751
6.38500000 0.008041 78.568 0.999968 -9.338 0.999968 -9.338 0.008041 82.758
6.39000000 0.008091 78.541 0.999967 -9.347 0.999967 -9.347 0.008091 82.766
6.39500000 0.008143 78.512 0.999967 -9.357 0.999967 -9.357 0.008143 82.774
6.40000000 0.008199 78.483 0.999966 -9.368 0.999966 -9.368 0.008199 82.783
6.40500000 0.008259 78.452 0.999966 -9.378 0.999966 -9.378 0.008259 82.793
6.41000000 0.008322 78.420 0.999965 -9.389 0.999965 -9.389 0.008322 82.804
6.41500000 0.008390 78.386 0.999965 -9.399 0.999965 -9.399 0.008390 82.816
6.42000000 0.008462 78.351 0.999964 -9.410 0.999964 -9.410 0.008462 82.829
6.42500000 0.008541 78.314 0.999963 -9.422 0.999963 -9.422 0.008541 82.843
6.43000000 0.008625 78.275 0.999963 -9.434 0.999963 -9.434 0.008625 82.858
6.43500000 0.008717 78.234 0.999962 -9.446 0.999962 -9.446 0.008717 82.875
6.44000000 0.008816 78.190 0.999961 -9.459 0.999961 -9.459 0.008816 82.893
6.44500000 0.008925 78.144 0.999960 -9.472 0.999960 -9.472 0.008925 82.913
6.45000000 0.009045 78.094 0.999959 -9.486 0.999959 -9.486 0.009045 82.935
6.45500000 0.009177 78.041 0.999958 -9.500 0.999958 -9.500 0.009177 82.959
6.46000000 0.009324 77.984 0.999956 -9.516 0.999956 -9.516 0.009324 82.985
6.46500000 0.009488 77.923 0.999955 -9.532 0.999955 -9.532 0.009488 83.014
6.47000000 0.009673 77.856 0.999953 -9.549 0.999953 -9.549 0.009673 83.045
6.47500000 0.009883 77.783 0.999951 -9.568 0.999951 -9.568 0.009883 83.080
6.48000000 0.010123 77.703 0.999949 -9.589 0.999949 -9.589 0.010123 83.118
6.48500000 0.010402 77.615 0.999946 -9.612 0.999946 -9.612 0.010402 83.160
6.49000000 0.010729 77.517 0.999942 -9.638 0.999942 -9.638 0.010729 83.206
6.49500000 0.011118 77.407 0.999938 -9.667 0.999938 -9.667 0.011118 83.257
6.50000000 0.011589 77.283 0.999932 -9.701 0.999932 -9.701 0.011590 83.313
6.50500000 0.012173 77.139 0.999925 -9.741 0.999925 -9.741 0.012173 83.375
6.51000000 0.012913 76.973 0.999916 -9.791 0.999916 -9.791 0.012913 83.442
6.51500000 0.013886 76.774 0.999903 -9.854 0.999903 -9.854 0.013886 83.514
6.52000000 0.015221 76.533 0.999883 -9.937 0.999883 -9.937 0.015221 83.587
6.52500000 0.017168 76.227 0.999851 -10.06 0.999851 -10.06 0.017168 83.653
6.53000000 0.020277 75.816 0.999792 -10.24 0.999792 -10.24 0.020277 83.689
6.53500000 0.026036 75.202 0.999656 -10.58 0.999656 -10.58 0.026036 83.621
!< P1 F=6.535 Eeff=(5.670973 -5.1705e-6) Z0=(51.336668 2.34039e-5) R=0.00751583 C=0.00295365 
!< P2 F=6.535 Eeff=(5.670973 -5.1705e-6) Z0=(51.336668 2.34039e-5) R=0.00751583 C=0.00295365 
6.54000000 0.040358 74.022 0.999170 -11.41 0.999170 -11.41 0.040358 83.124
6.54500000 0.137264 67.925 0.990307 -16.99 0.990307 -16.99 0.137265 77.906
!< P1 F=6.545 Eeff=(5.67097297 -5.1708e-6) Z0=(51.3366668 2.34039e-5) R=0.00750717 C=0.00295365 
!< P2 F=6.545 Eeff=(5.67097297 -5.1708e-6) Z0=(51.3366668 2.34039e-5) R=0.00750717 C=0.00295365 
6.55000000 0.061581 -101.1 0.998040 -5.577 0.998040 -5.577 0.061582 -89.94
6.55500000 0.020374 -104.3 0.999783 -7.947 0.999783 -7.947 0.020375 -91.52
6.56000000 0.010149 -106.2 0.999945 -8.540 0.999945 -8.540 0.010149 -90.87
6.56500000 0.005516 -108.5 0.999983 -8.813 0.999983 -8.813 0.005516 -89.06
6.57000000 0.002881 -112.9 0.999995 -8.972 0.999995 -8.972 0.002881 -85.02
6.57500000 0.001214 -125.4 0.999998 -9.077 0.999998 -9.077 0.001214 -72.67
6.58000000 4.443e-4 156.60 0.999999 -9.153 0.999999 -9.153 4.452e-4 5.0820
6.58500000 0.001055 100.21 0.999999 -9.211 0.999999 -9.211 0.001055 61.342
6.59000000 0.001702 90.528 0.999998 -9.257 0.999998 -9.257 0.001702 70.944
6.59500000 0.002233 86.889 0.999997 -9.295 0.999997 -9.295 0.002233 74.514
6.60000000 0.002669 84.987 0.999996 -9.327 0.999996 -9.327 0.002669 76.354
6.60500000 0.003032 83.817 0.999995 -9.355 0.999995 -9.355 0.003032 77.470
6.61000000 0.003340 83.023 0.999994 -9.380 0.999994 -9.380 0.003340 78.216
6.61500000 0.003604 82.446 0.999993 -9.402 0.999993 -9.402 0.003604 78.749
6.62000000 0.003833 82.008 0.999993 -9.423 0.999993 -9.423 0.003833 79.147
6.62500000 0.004033 81.663 0.999992 -9.441 0.999992 -9.441 0.004033 79.455
6.63000000 0.004210 81.384 0.999991 -9.458 0.999991 -9.458 0.004210 79.701
6.63500000 0.004368 81.153 0.999990 -9.474 0.999990 -9.474 0.004368 79.900
6.64000000 0.004509 80.958 0.999990 -9.489 0.999990 -9.489 0.004509 80.065
6.64500000 0.004637 80.791 0.999989 -9.504 0.999989 -9.504 0.004637 80.204
6.65000000 0.004753 80.646 0.999989 -9.517 0.999989 -9.517 0.004753 80.321
6.65500000 0.004858 80.519 0.999988 -9.530 0.999988 -9.530 0.004858 80.422
6.66000000 0.004955 80.406 0.999988 -9.543 0.999988 -9.543 0.004955 80.510
6.66500000 0.005044 80.306 0.999987 -9.555 0.999987 -9.555 0.005044 80.586
6.67000000 0.005126 80.215 0.999987 -9.567 0.999987 -9.567 0.005126 80.654
6.67500000 0.005202 80.133 0.999986 -9.578 0.999986 -9.578 0.005202 80.713
6.68000000 0.005273 80.059 0.999986 -9.589 0.999986 -9.589 0.005273 80.766
6.68500000 0.005340 79.990 0.999986 -9.600 0.999986 -9.600 0.005340 80.813
6.69000000 0.005401 79.927 0.999985 -9.610 0.999985 -9.610 0.005401 80.855
6.69500000 0.005460 79.868 0.999985 -9.620 0.999985 -9.620 0.005460 80.893
6.70000000 0.005514 79.814 0.999985 -9.631 0.999985 -9.631 0.005514 80.927
6.70500000 0.005566 79.763 0.999984 -9.641 0.999984 -9.641 0.005566 80.958
6.71000000 0.005615 79.715 0.999984 -9.650 0.999984 -9.650 0.005615 80.987
6.71500000 0.005661 79.670 0.999984 -9.660 0.999984 -9.660 0.005661 81.012
6.72000000 0.005704 79.628 0.999984 -9.669 0.999984 -9.669 0.005704 81.035
6.72500000 0.005746 79.588 0.999983 -9.679 0.999983 -9.679 0.005746 81.057
6.73000000 0.005786 79.550 0.999983 -9.688 0.999983 -9.688 0.005786 81.076
6.73500000 0.005823 79.514 0.999983 -9.697 0.999983 -9.697 0.005823 81.094
6.74000000 0.005860 79.480 0.999983 -9.706 0.999983 -9.706 0.005860 81.110
6.74500000 0.005894 79.447 0.999983 -9.715 0.999983 -9.715 0.005894 81.125
6.75000000 0.005927 79.416 0.999982 -9.724 0.999982 -9.724 0.005927 81.139
6.75500000 0.005959 79.386 0.999982 -9.733 0.999982 -9.733 0.005959 81.151
6.76000000 0.005990 79.357 0.999982 -9.741 0.999982 -9.741 0.005990 81.163
6.76500000 0.006019 79.329 0.999982 -9.750 0.999982 -9.750 0.006019 81.173
6.77000000 0.006047 79.302 0.999982 -9.759 0.999982 -9.759 0.006047 81.183
6.77500000 0.006075 79.277 0.999982 -9.767 0.999982 -9.767 0.006075 81.192
6.78000000 0.006101 79.252 0.999981 -9.776 0.999981 -9.776 0.006101 81.200
6.78500000 0.006126 79.227 0.999981 -9.784 0.999981 -9.784 0.006126 81.207
6.79000000 0.006151 79.204 0.999981 -9.792 0.999981 -9.792 0.006151 81.214
6.79500000 0.006175 79.181 0.999981 -9.801 0.999981 -9.801 0.006175 81.220
6.80000000 0.006198 79.159 0.999981 -9.809 0.999981 -9.809 0.006198 81.226
6.80500000 0.006221 79.137 0.999981 -9.817 0.999981 -9.817 0.006221 81.231
6.81000000 0.006242 79.116 0.999980 -9.825 0.999980 -9.825 0.006242 81.235
6.81500000 0.006264 79.096 0.999980 -9.834 0.999980 -9.834 0.006264 81.239
6.82000000 0.006284 79.076 0.999980 -9.842 0.999980 -9.842 0.006284 81.243
6.82500000 0.006304 79.057 0.999980 -9.850 0.999980 -9.850 0.006304 81.246
6.83000000 0.006324 79.037 0.999980 -9.858 0.999980 -9.858 0.006324 81.249
6.83500000 0.006343 79.019 0.999980 -9.866 0.999980 -9.866 0.006343 81.252
6.84000000 0.006361 79.001 0.999980 -9.874 0.999980 -9.874 0.006361 81.254
6.84500000 0.006379 78.983 0.999980 -9.882 0.999980 -9.882 0.006379 81.256
6.85000000 0.006397 78.965 0.999980 -9.890 0.999980 -9.890 0.006397 81.257
6.85500000 0.006414 78.948 0.999979 -9.898 0.999979 -9.898 0.006414 81.259
6.86000000 0.006431 78.931 0.999979 -9.906 0.999979 -9.906 0.006431 81.260
6.86500000 0.006448 78.914 0.999979 -9.914 0.999979 -9.914 0.006448 81.261
6.87000000 0.006464 78.898 0.999979 -9.922 0.999979 -9.922 0.006464 81.261
6.87500000 0.006480 78.882 0.999979 -9.929 0.999979 -9.929 0.006480 81.262
6.88000000 0.006495 78.866 0.999979 -9.937 0.999979 -9.937 0.006495 81.262
6.88500000 0.006511 78.851 0.999979 -9.945 0.999979 -9.945 0.006511 81.262
6.89000000 0.006525 78.835 0.999979 -9.953 0.999979 -9.953 0.006525 81.261
6.89500000 0.006540 78.820 0.999979 -9.961 0.999979 -9.961 0.006540 81.261
6.90000000 0.006555 78.805 0.999978 -9.968 0.999978 -9.968 0.006554 81.260
6.90500000 0.006569 78.790 0.999978 -9.976 0.999978 -9.976 0.006569 81.259
6.91000000 0.006583 78.776 0.999978 -9.984 0.999978 -9.984 0.006583 81.259
6.91500000 0.006596 78.761 0.999978 -9.992 0.999978 -9.992 0.006596 81.257
6.92000000 0.006610 78.747 0.999978 -9.999 0.999978 -9.999 0.006610 81.256
6.92500000 0.006623 78.733 0.999978 -10.01 0.999978 -10.01 0.006623 81.255
6.93000000 0.006636 78.719 0.999978 -10.01 0.999978 -10.01 0.006636 81.253
6.93500000 0.006649 78.706 0.999978 -10.02 0.999978 -10.02 0.006649 81.252
6.94000000 0.006661 78.692 0.999978 -10.03 0.999978 -10.03 0.006661 81.250
6.94500000 0.006674 78.679 0.999978 -10.04 0.999978 -10.04 0.006674 81.248
6.95000000 0.006686 78.665 0.999978 -10.05 0.999978 -10.05 0.006686 81.246
6.95500000 0.006698 78.652 0.999978 -10.05 0.999978 -10.05 0.006698 81.244
6.96000000 0.006710 78.639 0.999977 -10.06 0.999977 -10.06 0.006710 81.242
6.96500000 0.006722 78.626 0.999977 -10.07 0.999977 -10.07 0.006722 81.239
6.97000000 0.006733 78.613 0.999977 -10.08 0.999977 -10.08 0.006733 81.237
6.97500000 0.006745 78.600 0.999977 -10.08 0.999977 -10.08 0.006745 81.234
6.98000000 0.006756 78.588 0.999977 -10.09 0.999977 -10.09 0.006756 81.232
6.98500000 0.006767 78.575 0.999977 -10.10 0.999977 -10.10 0.006767 81.229
6.99000000 0.006778 78.563 0.999977 -10.11 0.999977 -10.11 0.006778 81.226
6.99500000 0.006789 78.551 0.999977 -10.11 0.999977 -10.11 0.006789 81.223
7.00000000 0.006800 78.538 0.999977 -10.12 0.999977 -10.12 0.006800 81.221
7.00500000 0.006811 78.526 0.999977 -10.13 0.999977 -10.13 0.006811 81.218
7.01000000 0.006821 78.514 0.999977 -10.14 0.999977 -10.14 0.006821 81.214
7.01500000 0.006832 78.502 0.999977 -10.14 0.999977 -10.14 0.006832 81.211
7.02000000 0.006842 78.490 0.999977 -10.15 0.999977 -10.15 0.006842 81.208
7.02500000 0.006852 78.478 0.999976 -10.16 0.999976 -10.16 0.006852 81.205
7.03000000 0.006862 78.467 0.999976 -10.17 0.999976 -10.17 0.006862 81.202
7.03500000 0.006872 78.455 0.999976 -10.17 0.999976 -10.17 0.006872 81.198
7.04000000 0.006882 78.443 0.999976 -10.18 0.999976 -10.18 0.006882 81.195
7.04500000 0.006892 78.432 0.999976 -10.19 0.999976 -10.19 0.006892 81.191
7.05000000 0.006902 78.420 0.999976 -10.20 0.999976 -10.20 0.006902 81.188
7.05500000 0.006912 78.409 0.999976 -10.20 0.999976 -10.20 0.006912 81.184
7.06000000 0.006921 78.398 0.999976 -10.21 0.999976 -10.21 0.006921 81.180
7.06500000 0.006931 78.386 0.999976 -10.22 0.999976 -10.22 0.006931 81.177
7.07000000 0.006940 78.375 0.999976 -10.23 0.999976 -10.23 0.006940 81.173
7.07500000 0.006949 78.364 0.999976 -10.23 0.999976 -10.23 0.006949 81.169
7.08000000 0.006959 78.353 0.999976 -10.24 0.999976 -10.24 0.006959 81.165
7.08500000 0.006968 78.342 0.999976 -10.25 0.999976 -10.25 0.006968 81.161
7.09000000 0.006977 78.331 0.999976 -10.26 0.999976 -10.26 0.006977 81.158
7.09500000 0.006986 78.320 0.999976 -10.26 0.999976 -10.26 0.006986 81.154
7.10000000 0.006995 78.309 0.999976 -10.27 0.999976 -10.27 0.006995 81.150
7.10500000 0.007004 78.298 0.999975 -10.28 0.999975 -10.28 0.007004 81.145
7.11000000 0.007013 78.287 0.999975 -10.29 0.999975 -10.29 0.007013 81.141
7.11500000 0.007021 78.276 0.999975 -10.29 0.999975 -10.29 0.007021 81.137
7.12000000 0.007030 78.265 0.999975 -10.30 0.999975 -10.30 0.007030 81.133
7.12500000 0.007039 78.255 0.999975 -10.31 0.999975 -10.31 0.007039 81.129
7.13000000 0.007047 78.244 0.999975 -10.32 0.999975 -10.32 0.007047 81.125
7.13500000 0.007056 78.233 0.999975 -10.32 0.999975 -10.32 0.007056 81.120
7.14000000 0.007064 78.223 0.999975 -10.33 0.999975 -10.33 0.007064 81.116
7.14500000 0.007073 78.212 0.999975 -10.34 0.999975 -10.34 0.007073 81.112
7.15000000 0.007081 78.202 0.999975 -10.35 0.999975 -10.35 0.007081 81.107
7.15500000 0.007090 78.191 0.999975 -10.35 0.999975 -10.35 0.007090 81.103
7.16000000 0.007098 78.181 0.999975 -10.36 0.999975 -10.36 0.007098 81.099
7.16500000 0.007106 78.170 0.999975 -10.37 0.999975 -10.37 0.007106 81.094
7.17000000 0.007114 78.160 0.999975 -10.38 0.999975 -10.38 0.007114 81.090
7.17500000 0.007122 78.150 0.999975 -10.38 0.999975 -10.38 0.007122 81.085
7.18000000 0.007131 78.139 0.999975 -10.39 0.999975 -10.39 0.007131 81.081
7.18500000 0.007139 78.129 0.999974 -10.40 0.999974 -10.40 0.007139 81.076
7.19000000 0.007147 78.119 0.999974 -10.41 0.999974 -10.41 0.007147 81.072
7.19500000 0.007155 78.109 0.999974 -10.41 0.999974 -10.41 0.007155 81.067
7.20000000 0.007162 78.098 0.999974 -10.42 0.999974 -10.42 0.007162 81.062
7.20500000 0.007170 78.088 0.999974 -10.43 0.999974 -10.43 0.007170 81.058
7.21000000 0.007178 78.078 0.999974 -10.44 0.999974 -10.44 0.007178 81.053
7.21500000 0.007186 78.068 0.999974 -10.44 0.999974 -10.44 0.007186 81.048
7.22000000 0.007194 78.058 0.999974 -10.45 0.999974 -10.45 0.007194 81.044
7.22500000 0.007201 78.048 0.999974 -10.46 0.999974 -10.46 0.007201 81.039
7.23000000 0.007209 78.038 0.999974 -10.47 0.999974 -10.47 0.007209 81.034
7.23500000 0.007217 78.028 0.999974 -10.47 0.999974 -10.47 0.007217 81.029
7.24000000 0.007224 78.018 0.999974 -10.48 0.999974 -10.48 0.007224 81.025
7.24500000 0.007232 78.008 0.999974 -10.49 0.999974 -10.49 0.007232 81.020
7.25000000 0.007240 77.998 0.999974 -10.49 0.999974 -10.49 0.007240 81.015
7.25500000 0.007247 77.988 0.999974 -10.50 0.999974 -10.50 0.007247 81.010
7.26000000 0.007255 77.978 0.999974 -10.51 0.999974 -10.51 0.007255 81.005
7.26500000 0.007262 77.968 0.999974 -10.52 0.999974 -10.52 0.007262 81.001
7.27000000 0.007269 77.958 0.999974 -10.52 0.999974 -10.52 0.007269 80.996
7.27500000 0.007277 77.948 0.999973 -10.53 0.999973 -10.53 0.007277 80.991
