! Sonnet Data File
! From: em Version : 14.52
! From Project: RO_2
! Data is De-embedded 
! Data File Written: 01/08/2019 21:17:36
!< HDATE 01/08/2019 00:46:20
!< MDATE 01/08/2019 20:29:06
# GHZ S MA R 50.00000
6.00000000 0.009376 78.958 0.999956 -12.15 0.999956 -12.15 0.009376 76.739
!< P1 F=6.0 Eeff=(5.67080918 -5.1691e-6) Z0=(51.6560295 2.35492e-5) R=0.01071313 C=0.0022568 
!< P2 F=6.0 Eeff=(5.67080918 -5.1691e-6) Z0=(51.6560295 2.35492e-5) R=0.01071313 C=0.0022568 
6.00250000 0.009381 78.954 0.999956 -12.16 0.999956 -12.16 0.009381 76.733
6.00500000 0.009386 78.950 0.999956 -12.16 0.999956 -12.16 0.009386 76.727
6.00750000 0.009392 78.946 0.999956 -12.17 0.999956 -12.17 0.009392 76.721
6.01000000 0.009397 78.941 0.999956 -12.17 0.999956 -12.17 0.009397 76.715
6.01250000 0.009402 78.937 0.999956 -12.18 0.999956 -12.18 0.009402 76.709
6.01500000 0.009407 78.933 0.999956 -12.18 0.999956 -12.18 0.009407 76.703
6.01750000 0.009412 78.929 0.999956 -12.19 0.999956 -12.19 0.009412 76.697
6.02000000 0.009417 78.925 0.999956 -12.19 0.999956 -12.19 0.009417 76.691
6.02250000 0.009422 78.921 0.999956 -12.20 0.999956 -12.20 0.009422 76.685
6.02500000 0.009428 78.916 0.999955 -12.20 0.999955 -12.20 0.009428 76.679
6.02750000 0.009433 78.912 0.999955 -12.21 0.999955 -12.21 0.009433 76.672
6.03000000 0.009438 78.908 0.999955 -12.21 0.999955 -12.21 0.009438 76.666
6.03250000 0.009443 78.904 0.999955 -12.22 0.999955 -12.22 0.009443 76.660
6.03500000 0.009448 78.900 0.999955 -12.22 0.999955 -12.22 0.009448 76.654
6.03750000 0.009454 78.896 0.999955 -12.23 0.999955 -12.23 0.009454 76.648
6.04000000 0.009459 78.891 0.999955 -12.23 0.999955 -12.23 0.009459 76.642
6.04250000 0.009464 78.887 0.999955 -12.24 0.999955 -12.24 0.009464 76.636
6.04500000 0.009469 78.883 0.999955 -12.24 0.999955 -12.24 0.009469 76.630
6.04750000 0.009475 78.879 0.999955 -12.25 0.999955 -12.25 0.009475 76.623
6.05000000 0.009480 78.875 0.999955 -12.25 0.999955 -12.25 0.009480 76.617
6.05250000 0.009485 78.871 0.999955 -12.26 0.999955 -12.26 0.009485 76.611
6.05500000 0.009490 78.867 0.999955 -12.26 0.999955 -12.26 0.009490 76.605
6.05750000 0.009496 78.863 0.999955 -12.27 0.999955 -12.27 0.009496 76.599
6.06000000 0.009501 78.858 0.999955 -12.28 0.999955 -12.28 0.009501 76.593
6.06250000 0.009506 78.854 0.999955 -12.28 0.999955 -12.28 0.009506 76.586
6.06500000 0.009512 78.850 0.999955 -12.29 0.999955 -12.29 0.009512 76.580
6.06750000 0.009517 78.846 0.999955 -12.29 0.999955 -12.29 0.009517 76.574
6.07000000 0.009523 78.842 0.999955 -12.30 0.999955 -12.30 0.009523 76.568
6.07250000 0.009528 78.838 0.999955 -12.30 0.999955 -12.30 0.009528 76.562
6.07500000 0.009533 78.834 0.999954 -12.31 0.999954 -12.31 0.009533 76.556
6.07750000 0.009539 78.830 0.999954 -12.31 0.999954 -12.31 0.009539 76.549
6.08000000 0.009544 78.826 0.999954 -12.32 0.999954 -12.32 0.009544 76.543
6.08250000 0.009550 78.822 0.999954 -12.32 0.999954 -12.32 0.009550 76.537
6.08500000 0.009555 78.817 0.999954 -12.33 0.999954 -12.33 0.009555 76.531
6.08750000 0.009561 78.813 0.999954 -12.33 0.999954 -12.33 0.009561 76.524
6.09000000 0.009566 78.809 0.999954 -12.34 0.999954 -12.34 0.009566 76.518
6.09250000 0.009572 78.805 0.999954 -12.34 0.999954 -12.34 0.009572 76.512
6.09500000 0.009577 78.801 0.999954 -12.35 0.999954 -12.35 0.009577 76.506
6.09750000 0.009583 78.797 0.999954 -12.35 0.999954 -12.35 0.009583 76.499
6.10000000 0.009588 78.793 0.999954 -12.36 0.999954 -12.36 0.009588 76.493
6.10250000 0.009594 78.789 0.999954 -12.36 0.999954 -12.36 0.009594 76.487
6.10500000 0.009599 78.785 0.999954 -12.37 0.999954 -12.37 0.009600 76.481
6.10750000 0.009605 78.781 0.999954 -12.37 0.999954 -12.37 0.009605 76.474
6.11000000 0.009611 78.777 0.999954 -12.38 0.999954 -12.38 0.009611 76.468
6.11250000 0.009616 78.773 0.999954 -12.38 0.999954 -12.38 0.009616 76.462
6.11500000 0.009622 78.769 0.999954 -12.39 0.999954 -12.39 0.009622 76.455
6.11750000 0.009628 78.765 0.999954 -12.39 0.999954 -12.39 0.009628 76.449
6.12000000 0.009633 78.761 0.999954 -12.40 0.999954 -12.40 0.009633 76.443
6.12250000 0.009639 78.757 0.999953 -12.40 0.999953 -12.40 0.009639 76.437
6.12500000 0.009645 78.753 0.999953 -12.41 0.999953 -12.41 0.009645 76.430
6.12750000 0.009651 78.749 0.999953 -12.41 0.999953 -12.41 0.009651 76.424
6.13000000 0.009656 78.745 0.999953 -12.42 0.999953 -12.42 0.009656 76.417
6.13250000 0.009662 78.741 0.999953 -12.42 0.999953 -12.42 0.009662 76.411
6.13500000 0.009668 78.737 0.999953 -12.43 0.999953 -12.43 0.009668 76.405
6.13750000 0.009674 78.733 0.999953 -12.44 0.999953 -12.44 0.009674 76.398
6.14000000 0.009680 78.729 0.999953 -12.44 0.999953 -12.44 0.009680 76.392
6.14250000 0.009685 78.725 0.999953 -12.45 0.999953 -12.45 0.009685 76.386
6.14500000 0.009691 78.721 0.999953 -12.45 0.999953 -12.45 0.009691 76.379
6.14750000 0.009697 78.717 0.999953 -12.46 0.999953 -12.46 0.009697 76.373
6.15000000 0.009703 78.713 0.999953 -12.46 0.999953 -12.46 0.009703 76.366
6.15250000 0.009709 78.709 0.999953 -12.47 0.999953 -12.47 0.009709 76.360
6.15500000 0.009715 78.705 0.999953 -12.47 0.999953 -12.47 0.009715 76.354
6.15750000 0.009721 78.701 0.999953 -12.48 0.999953 -12.48 0.009721 76.347
6.16000000 0.009727 78.697 0.999953 -12.48 0.999953 -12.48 0.009727 76.341
6.16250000 0.009733 78.694 0.999953 -12.49 0.999953 -12.49 0.009733 76.334
6.16500000 0.009739 78.690 0.999953 -12.49 0.999953 -12.49 0.009739 76.328
6.16750000 0.009745 78.686 0.999952 -12.50 0.999952 -12.50 0.009745 76.321
6.17000000 0.009751 78.682 0.999952 -12.50 0.999952 -12.50 0.009751 76.315
6.17250000 0.009757 78.678 0.999952 -12.51 0.999952 -12.51 0.009757 76.308
6.17500000 0.009763 78.674 0.999952 -12.51 0.999952 -12.51 0.009763 76.302
6.17750000 0.009769 78.670 0.999952 -12.52 0.999952 -12.52 0.009769 76.295
6.18000000 0.009776 78.666 0.999952 -12.52 0.999952 -12.52 0.009776 76.289
6.18250000 0.009782 78.662 0.999952 -12.53 0.999952 -12.53 0.009782 76.282
6.18500000 0.009788 78.659 0.999952 -12.53 0.999952 -12.53 0.009788 76.276
6.18750000 0.009794 78.655 0.999952 -12.54 0.999952 -12.54 0.009794 76.269
6.19000000 0.009800 78.651 0.999952 -12.54 0.999952 -12.54 0.009801 76.263
6.19250000 0.009807 78.647 0.999952 -12.55 0.999952 -12.55 0.009807 76.256
6.19500000 0.009813 78.643 0.999952 -12.55 0.999952 -12.55 0.009813 76.250
6.19750000 0.009819 78.640 0.999952 -12.56 0.999952 -12.56 0.009819 76.243
6.20000000 0.009826 78.636 0.999952 -12.56 0.999952 -12.56 0.009826 76.236
6.20250000 0.009832 78.632 0.999952 -12.57 0.999952 -12.57 0.009832 76.230
6.20500000 0.009839 78.628 0.999952 -12.58 0.999952 -12.58 0.009839 76.223
6.20750000 0.009845 78.624 0.999952 -12.58 0.999952 -12.58 0.009845 76.216
6.21000000 0.009852 78.621 0.999951 -12.59 0.999951 -12.59 0.009852 76.210
6.21250000 0.009858 78.617 0.999951 -12.59 0.999951 -12.59 0.009858 76.203
6.21500000 0.009865 78.613 0.999951 -12.60 0.999951 -12.60 0.009865 76.197
6.21750000 0.009871 78.609 0.999951 -12.60 0.999951 -12.60 0.009871 76.190
6.22000000 0.009878 78.606 0.999951 -12.61 0.999951 -12.61 0.009878 76.183
6.22250000 0.009884 78.602 0.999951 -12.61 0.999951 -12.61 0.009884 76.176
6.22500000 0.009891 78.598 0.999951 -12.62 0.999951 -12.62 0.009891 76.170
6.22750000 0.009898 78.594 0.999951 -12.62 0.999951 -12.62 0.009898 76.163
6.23000000 0.009904 78.591 0.999951 -12.63 0.999951 -12.63 0.009905 76.156
6.23250000 0.009911 78.587 0.999951 -12.63 0.999951 -12.63 0.009911 76.149
6.23500000 0.009918 78.583 0.999951 -12.64 0.999951 -12.64 0.009918 76.143
6.23750000 0.009925 78.580 0.999951 -12.64 0.999951 -12.64 0.009925 76.136
6.24000000 0.009932 78.576 0.999951 -12.65 0.999951 -12.65 0.009932 76.129
6.24250000 0.009939 78.572 0.999951 -12.65 0.999951 -12.65 0.009939 76.122
6.24500000 0.009946 78.569 0.999951 -12.66 0.999951 -12.66 0.009946 76.115
6.24750000 0.009953 78.565 0.999950 -12.66 0.999950 -12.66 0.009953 76.109
6.25000000 0.009960 78.561 0.999950 -12.67 0.999950 -12.67 0.009960 76.102
6.25250000 0.009967 78.558 0.999950 -12.67 0.999950 -12.67 0.009967 76.095
6.25500000 0.009974 78.554 0.999950 -12.68 0.999950 -12.68 0.009974 76.088
6.25750000 0.009981 78.551 0.999950 -12.69 0.999950 -12.69 0.009981 76.081
6.26000000 0.009988 78.547 0.999950 -12.69 0.999950 -12.69 0.009988 76.074
6.26250000 0.009995 78.543 0.999950 -12.70 0.999950 -12.70 0.009995 76.067
6.26500000 0.010002 78.540 0.999950 -12.70 0.999950 -12.70 0.010002 76.060
6.26750000 0.010010 78.536 0.999950 -12.71 0.999950 -12.71 0.010010 76.053
6.27000000 0.010017 78.533 0.999950 -12.71 0.999950 -12.71 0.010017 76.046
6.27250000 0.010024 78.529 0.999950 -12.72 0.999950 -12.72 0.010024 76.039
6.27500000 0.010032 78.526 0.999950 -12.72 0.999950 -12.72 0.010032 76.032
6.27750000 0.010039 78.522 0.999950 -12.73 0.999950 -12.73 0.010039 76.025
6.28000000 0.010047 78.519 0.999950 -12.73 0.999950 -12.73 0.010047 76.018
6.28250000 0.010054 78.515 0.999949 -12.74 0.999949 -12.74 0.010054 76.011
6.28500000 0.010062 78.512 0.999949 -12.74 0.999949 -12.74 0.010062 76.004
6.28750000 0.010069 78.509 0.999949 -12.75 0.999949 -12.75 0.010069 75.997
6.29000000 0.010077 78.505 0.999949 -12.75 0.999949 -12.75 0.010077 75.990
6.29250000 0.010085 78.502 0.999949 -12.76 0.999949 -12.76 0.010085 75.983
6.29500000 0.010093 78.498 0.999949 -12.76 0.999949 -12.76 0.010093 75.976
6.29750000 0.010100 78.495 0.999949 -12.77 0.999949 -12.77 0.010100 75.968
6.30000000 0.010108 78.492 0.999949 -12.77 0.999949 -12.77 0.010108 75.961
6.30250000 0.010116 78.488 0.999949 -12.78 0.999949 -12.78 0.010116 75.954
6.30500000 0.010124 78.485 0.999949 -12.79 0.999949 -12.79 0.010124 75.947
6.30750000 0.010132 78.482 0.999949 -12.79 0.999949 -12.79 0.010132 75.939
6.31000000 0.010140 78.478 0.999949 -12.80 0.999949 -12.80 0.010140 75.932
6.31250000 0.010148 78.475 0.999949 -12.80 0.999949 -12.80 0.010149 75.925
6.31500000 0.010157 78.472 0.999948 -12.81 0.999948 -12.81 0.010157 75.917
6.31750000 0.010165 78.468 0.999948 -12.81 0.999948 -12.81 0.010165 75.910
6.32000000 0.010173 78.465 0.999948 -12.82 0.999948 -12.82 0.010173 75.903
6.32250000 0.010182 78.462 0.999948 -12.82 0.999948 -12.82 0.010182 75.895
6.32500000 0.010190 78.459 0.999948 -12.83 0.999948 -12.83 0.010190 75.888
6.32750000 0.010199 78.456 0.999948 -12.83 0.999948 -12.83 0.010199 75.880
6.33000000 0.010207 78.452 0.999948 -12.84 0.999948 -12.84 0.010207 75.873
6.33250000 0.010216 78.449 0.999948 -12.84 0.999948 -12.84 0.010216 75.865
6.33500000 0.010225 78.446 0.999948 -12.85 0.999948 -12.85 0.010225 75.858
6.33750000 0.010234 78.443 0.999948 -12.85 0.999948 -12.85 0.010234 75.850
6.34000000 0.010242 78.440 0.999948 -12.86 0.999948 -12.86 0.010242 75.843
6.34250000 0.010251 78.437 0.999947 -12.87 0.999947 -12.87 0.010251 75.835
6.34500000 0.010260 78.434 0.999947 -12.87 0.999947 -12.87 0.010260 75.827
6.34750000 0.010270 78.431 0.999947 -12.88 0.999947 -12.88 0.010270 75.820
6.35000000 0.010279 78.428 0.999947 -12.88 0.999947 -12.88 0.010279 75.812
6.35250000 0.010288 78.425 0.999947 -12.89 0.999947 -12.89 0.010288 75.804
6.35500000 0.010297 78.422 0.999947 -12.89 0.999947 -12.89 0.010297 75.796
6.35750000 0.010307 78.419 0.999947 -12.90 0.999947 -12.90 0.010307 75.789
6.36000000 0.010316 78.416 0.999947 -12.90 0.999947 -12.90 0.010316 75.781
6.36250000 0.010326 78.413 0.999947 -12.91 0.999947 -12.91 0.010326 75.773
6.36500000 0.010336 78.410 0.999947 -12.91 0.999947 -12.91 0.010336 75.765
6.36750000 0.010345 78.407 0.999947 -12.92 0.999947 -12.92 0.010345 75.757
6.37000000 0.010355 78.405 0.999946 -12.92 0.999946 -12.92 0.010355 75.749
6.37250000 0.010365 78.402 0.999946 -12.93 0.999946 -12.93 0.010365 75.741
6.37500000 0.010375 78.399 0.999946 -12.94 0.999946 -12.94 0.010375 75.733
6.37750000 0.010386 78.396 0.999946 -12.94 0.999946 -12.94 0.010386 75.725
6.38000000 0.010396 78.394 0.999946 -12.95 0.999946 -12.95 0.010396 75.717
6.38250000 0.010406 78.391 0.999946 -12.95 0.999946 -12.95 0.010406 75.708
6.38500000 0.010417 78.388 0.999946 -12.96 0.999946 -12.96 0.010417 75.700
6.38750000 0.010427 78.386 0.999946 -12.96 0.999946 -12.96 0.010427 75.692
6.39000000 0.010438 78.383 0.999946 -12.97 0.999946 -12.97 0.010438 75.684
6.39250000 0.010449 78.380 0.999945 -12.97 0.999945 -12.97 0.010449 75.675
6.39500000 0.010460 78.378 0.999945 -12.98 0.999945 -12.98 0.010460 75.667
6.39750000 0.010471 78.375 0.999945 -12.98 0.999945 -12.98 0.010471 75.658
6.40000000 0.010482 78.373 0.999945 -12.99 0.999945 -12.99 0.010482 75.650
6.40250000 0.010493 78.370 0.999945 -13.00 0.999945 -13.00 0.010494 75.641
6.40500000 0.010505 78.368 0.999945 -13.00 0.999945 -13.00 0.010505 75.633
6.40750000 0.010517 78.366 0.999945 -13.01 0.999945 -13.01 0.010517 75.624
6.41000000 0.010528 78.363 0.999945 -13.01 0.999945 -13.01 0.010528 75.615
6.41250000 0.010540 78.361 0.999945 -13.02 0.999945 -13.02 0.010540 75.607
6.41500000 0.010552 78.359 0.999944 -13.02 0.999944 -13.02 0.010552 75.598
6.41750000 0.010564 78.357 0.999944 -13.03 0.999944 -13.03 0.010564 75.589
6.42000000 0.010577 78.355 0.999944 -13.03 0.999944 -13.03 0.010577 75.580
6.42250000 0.010589 78.352 0.999944 -13.04 0.999944 -13.04 0.010589 75.571
6.42500000 0.010602 78.350 0.999944 -13.05 0.999944 -13.05 0.010602 75.562
6.42750000 0.010615 78.348 0.999944 -13.05 0.999944 -13.05 0.010615 75.553
6.43000000 0.010628 78.346 0.999944 -13.06 0.999944 -13.06 0.010628 75.544
6.43250000 0.010641 78.344 0.999943 -13.06 0.999943 -13.06 0.010641 75.534
6.43500000 0.010655 78.342 0.999943 -13.07 0.999943 -13.07 0.010655 75.525
6.43750000 0.010668 78.341 0.999943 -13.07 0.999943 -13.07 0.010668 75.516
6.44000000 0.010682 78.339 0.999943 -13.08 0.999943 -13.08 0.010682 75.506
6.44250000 0.010696 78.337 0.999943 -13.08 0.999943 -13.08 0.010696 75.497
6.44500000 0.010710 78.335 0.999943 -13.09 0.999943 -13.09 0.010710 75.487
6.44750000 0.010724 78.334 0.999943 -13.10 0.999943 -13.10 0.010725 75.477
6.45000000 0.010739 78.332 0.999942 -13.10 0.999942 -13.10 0.010739 75.468
6.45250000 0.010754 78.330 0.999942 -13.11 0.999942 -13.11 0.010754 75.458
6.45500000 0.010769 78.329 0.999942 -13.11 0.999942 -13.11 0.010769 75.448
6.45750000 0.010784 78.328 0.999942 -13.12 0.999942 -13.12 0.010784 75.438
6.46000000 0.010800 78.326 0.999942 -13.12 0.999942 -13.12 0.010800 75.428
6.46250000 0.010816 78.325 0.999942 -13.13 0.999942 -13.13 0.010816 75.418
6.46500000 0.010832 78.324 0.999941 -13.14 0.999941 -13.14 0.010832 75.407
6.46750000 0.010848 78.323 0.999941 -13.14 0.999941 -13.14 0.010848 75.397
6.47000000 0.010865 78.321 0.999941 -13.15 0.999941 -13.15 0.010865 75.386
6.47250000 0.010882 78.320 0.999941 -13.15 0.999941 -13.15 0.010882 75.376
6.47500000 0.010899 78.319 0.999941 -13.16 0.999941 -13.16 0.010899 75.365
6.47750000 0.010917 78.319 0.999940 -13.17 0.999940 -13.17 0.010917 75.354
6.48000000 0.010935 78.318 0.999940 -13.17 0.999940 -13.17 0.010935 75.343
6.48250000 0.010953 78.317 0.999940 -13.18 0.999940 -13.18 0.010953 75.332
6.48500000 0.010972 78.316 0.999940 -13.18 0.999940 -13.18 0.010972 75.321
6.48750000 0.010991 78.316 0.999940 -13.19 0.999940 -13.19 0.010991 75.310
6.49000000 0.011010 78.315 0.999939 -13.19 0.999939 -13.19 0.011010 75.298
6.49250000 0.011030 78.315 0.999939 -13.20 0.999939 -13.20 0.011030 75.287
6.49500000 0.011050 78.315 0.999939 -13.21 0.999939 -13.21 0.011050 75.275
6.49750000 0.011071 78.315 0.999939 -13.21 0.999939 -13.21 0.011071 75.263
6.50000000 0.011092 78.315 0.999939 -13.22 0.999939 -13.22 0.011092 75.251
6.50250000 0.011113 78.315 0.999938 -13.22 0.999938 -13.22 0.011114 75.239
6.50500000 0.011136 78.315 0.999938 -13.23 0.999938 -13.23 0.011136 75.227
6.50750000 0.011158 78.315 0.999938 -13.24 0.999938 -13.24 0.011158 75.214
6.51000000 0.011181 78.315 0.999938 -13.24 0.999938 -13.24 0.011181 75.202
6.51250000 0.011205 78.316 0.999937 -13.25 0.999937 -13.25 0.011205 75.189
6.51500000 0.011229 78.316 0.999937 -13.26 0.999937 -13.26 0.011229 75.176
6.51750000 0.011254 78.317 0.999937 -13.26 0.999937 -13.26 0.011254 75.162
6.52000000 0.011279 78.318 0.999937 -13.27 0.999937 -13.27 0.011279 75.149
6.52250000 0.011305 78.319 0.999936 -13.27 0.999936 -13.27 0.011305 75.135
6.52500000 0.011332 78.320 0.999936 -13.28 0.999936 -13.28 0.011332 75.121
6.52750000 0.011359 78.321 0.999936 -13.29 0.999936 -13.29 0.011359 75.107
6.53000000 0.011387 78.323 0.999935 -13.29 0.999935 -13.29 0.011387 75.093
6.53250000 0.011416 78.324 0.999935 -13.30 0.999935 -13.30 0.011416 75.078
6.53500000 0.011446 78.326 0.999935 -13.31 0.999935 -13.31 0.011446 75.064
6.53750000 0.011476 78.328 0.999934 -13.31 0.999934 -13.31 0.011476 75.048
6.54000000 0.011508 78.330 0.999934 -13.32 0.999934 -13.32 0.011508 75.033
6.54250000 0.011540 78.333 0.999934 -13.33 0.999934 -13.33 0.011540 75.017
6.54500000 0.011573 78.335 0.999933 -13.33 0.999933 -13.33 0.011573 75.001
6.54750000 0.011608 78.338 0.999933 -13.34 0.999933 -13.34 0.011608 74.985
6.55000000 0.011643 78.341 0.999932 -13.35 0.999932 -13.35 0.011643 74.968
6.55250000 0.011680 78.344 0.999932 -13.35 0.999932 -13.35 0.011680 74.951
6.55500000 0.011718 78.347 0.999931 -13.36 0.999931 -13.36 0.011718 74.934
6.55750000 0.011757 78.351 0.999931 -13.37 0.999931 -13.37 0.011757 74.916
6.56000000 0.011798 78.355 0.999931 -13.38 0.999931 -13.38 0.011798 74.898
6.56250000 0.011840 78.359 0.999930 -13.38 0.999930 -13.38 0.011840 74.879
6.56500000 0.011883 78.363 0.999930 -13.39 0.999930 -13.39 0.011883 74.860
6.56750000 0.011928 78.368 0.999929 -13.40 0.999929 -13.40 0.011928 74.841
6.57000000 0.011975 78.373 0.999928 -13.40 0.999928 -13.40 0.011975 74.821
6.57250000 0.012024 78.378 0.999928 -13.41 0.999928 -13.41 0.012024 74.800
6.57500000 0.012075 78.384 0.999927 -13.42 0.999927 -13.42 0.012075 74.779
6.57750000 0.012127 78.390 0.999927 -13.43 0.999927 -13.43 0.012127 74.757
6.58000000 0.012182 78.396 0.999926 -13.44 0.999926 -13.44 0.012182 74.735
6.58250000 0.012240 78.403 0.999925 -13.44 0.999925 -13.44 0.012240 74.712
6.58500000 0.012299 78.410 0.999925 -13.45 0.999925 -13.45 0.012299 74.688
6.58750000 0.012362 78.418 0.999924 -13.46 0.999924 -13.46 0.012362 74.663
6.59000000 0.012428 78.426 0.999923 -13.47 0.999923 -13.47 0.012428 74.638
6.59250000 0.012496 78.434 0.999922 -13.48 0.999922 -13.48 0.012496 74.612
6.59500000 0.012569 78.443 0.999921 -13.49 0.999921 -13.49 0.012569 74.585
6.59750000 0.012644 78.453 0.999920 -13.50 0.999920 -13.50 0.012645 74.557
6.60000000 0.012724 78.463 0.999919 -13.51 0.999919 -13.51 0.012724 74.528
6.60250000 0.012809 78.474 0.999918 -13.52 0.999918 -13.52 0.012809 74.498
6.60500000 0.012898 78.485 0.999917 -13.53 0.999917 -13.53 0.012898 74.467
6.60750000 0.012992 78.497 0.999916 -13.54 0.999916 -13.54 0.012992 74.434
6.61000000 0.013092 78.510 0.999914 -13.55 0.999914 -13.55 0.013092 74.400
6.61250000 0.013197 78.523 0.999913 -13.56 0.999913 -13.56 0.013198 74.365
6.61500000 0.013310 78.538 0.999912 -13.57 0.999912 -13.57 0.013310 74.328
6.61750000 0.013431 78.553 0.999910 -13.58 0.999910 -13.58 0.013431 74.289
6.62000000 0.013559 78.569 0.999908 -13.59 0.999908 -13.59 0.013559 74.249
6.62250000 0.013697 78.586 0.999906 -13.61 0.999906 -13.61 0.013697 74.206
6.62500000 0.013845 78.604 0.999904 -13.62 0.999904 -13.62 0.013845 74.161
6.62750000 0.014005 78.623 0.999902 -13.63 0.999902 -13.63 0.014005 74.114
6.63000000 0.014178 78.644 0.999900 -13.65 0.999900 -13.65 0.014178 74.064
6.63250000 0.014365 78.665 0.999897 -13.66 0.999897 -13.66 0.014365 74.011
6.63500000 0.014569 78.688 0.999894 -13.68 0.999894 -13.68 0.014570 73.955
6.63750000 0.014793 78.713 0.999891 -13.70 0.999891 -13.70 0.014793 73.895
6.64000000 0.015038 78.739 0.999887 -13.72 0.999887 -13.72 0.015038 73.831
6.64250000 0.015308 78.766 0.999883 -13.74 0.999883 -13.74 0.015309 73.763
6.64500000 0.015609 78.795 0.999878 -13.76 0.999878 -13.76 0.015609 73.690
6.64750000 0.015944 78.826 0.999873 -13.78 0.999873 -13.78 0.015944 73.610
6.65000000 0.016320 78.859 0.999867 -13.81 0.999867 -13.81 0.016320 73.525
