! Sonnet Data File
! From: em Version : 14.52
! From Project: RO_3
! Data is De-embedded 
! Data File Written: 01/08/2019 21:32:08
!< HDATE 01/08/2019 00:47:59
!< MDATE 01/08/2019 20:32:01
# GHZ S MA R 50.00000
6.00000000 0.009615 78.784 0.999954 -12.16 0.999954 -12.16 0.009615 76.907
!< P1 F=6.0 Eeff=(5.67081746 -5.1701e-6) Z0=(51.7017575 2.35733e-5) R=0.0106902 C=0.00226256 
!< P2 F=6.0 Eeff=(5.67081746 -5.1701e-6) Z0=(51.7017575 2.35733e-5) R=0.0106902 C=0.00226256 
6.00250000 0.009620 78.780 0.999954 -12.16 0.999954 -12.16 0.009620 76.901
6.00500000 0.009626 78.776 0.999954 -12.17 0.999954 -12.17 0.009626 76.895
6.00750000 0.009631 78.771 0.999954 -12.17 0.999954 -12.17 0.009631 76.889
6.01000000 0.009636 78.767 0.999953 -12.18 0.999953 -12.18 0.009636 76.883
6.01250000 0.009641 78.762 0.999953 -12.18 0.999953 -12.18 0.009641 76.877
6.01500000 0.009646 78.758 0.999953 -12.19 0.999953 -12.19 0.009646 76.871
6.01750000 0.009652 78.754 0.999953 -12.19 0.999953 -12.19 0.009652 76.865
6.02000000 0.009657 78.750 0.999953 -12.20 0.999953 -12.20 0.009657 76.859
6.02250000 0.009662 78.745 0.999953 -12.20 0.999953 -12.20 0.009662 76.853
6.02500000 0.009667 78.741 0.999953 -12.21 0.999953 -12.21 0.009667 76.848
6.02750000 0.009672 78.737 0.999953 -12.21 0.999953 -12.21 0.009672 76.842
6.03000000 0.009678 78.732 0.999953 -12.22 0.999953 -12.22 0.009678 76.836
6.03250000 0.009683 78.728 0.999953 -12.22 0.999953 -12.22 0.009683 76.830
6.03500000 0.009688 78.724 0.999953 -12.23 0.999953 -12.23 0.009688 76.824
6.03750000 0.009694 78.719 0.999953 -12.23 0.999953 -12.23 0.009694 76.818
6.04000000 0.009699 78.715 0.999953 -12.24 0.999953 -12.24 0.009699 76.812
6.04250000 0.009704 78.711 0.999953 -12.24 0.999953 -12.24 0.009704 76.806
6.04500000 0.009709 78.706 0.999953 -12.25 0.999953 -12.25 0.009709 76.800
6.04750000 0.009715 78.702 0.999953 -12.25 0.999953 -12.25 0.009715 76.794
6.05000000 0.009720 78.698 0.999953 -12.26 0.999953 -12.26 0.009720 76.788
6.05250000 0.009725 78.693 0.999953 -12.26 0.999953 -12.26 0.009725 76.782
6.05500000 0.009731 78.689 0.999953 -12.27 0.999953 -12.27 0.009731 76.776
6.05750000 0.009736 78.685 0.999953 -12.27 0.999953 -12.27 0.009736 76.770
6.06000000 0.009742 78.681 0.999952 -12.28 0.999952 -12.28 0.009742 76.764
6.06250000 0.009747 78.676 0.999952 -12.28 0.999952 -12.28 0.009747 76.758
6.06500000 0.009752 78.672 0.999952 -12.29 0.999952 -12.29 0.009752 76.752
6.06750000 0.009758 78.668 0.999952 -12.29 0.999952 -12.29 0.009758 76.746
6.07000000 0.009763 78.664 0.999952 -12.30 0.999952 -12.30 0.009763 76.740
6.07250000 0.009769 78.659 0.999952 -12.30 0.999952 -12.30 0.009769 76.734
6.07500000 0.009774 78.655 0.999952 -12.31 0.999952 -12.31 0.009774 76.728
6.07750000 0.009780 78.651 0.999952 -12.31 0.999952 -12.31 0.009780 76.722
6.08000000 0.009785 78.646 0.999952 -12.32 0.999952 -12.32 0.009785 76.716
6.08250000 0.009791 78.642 0.999952 -12.32 0.999952 -12.32 0.009791 76.710
6.08500000 0.009796 78.638 0.999952 -12.33 0.999952 -12.33 0.009796 76.704
6.08750000 0.009802 78.634 0.999952 -12.34 0.999952 -12.34 0.009802 76.698
6.09000000 0.009807 78.629 0.999952 -12.34 0.999952 -12.34 0.009807 76.692
6.09250000 0.009813 78.625 0.999952 -12.35 0.999952 -12.35 0.009813 76.685
6.09500000 0.009818 78.621 0.999952 -12.35 0.999952 -12.35 0.009818 76.679
6.09750000 0.009824 78.617 0.999952 -12.36 0.999952 -12.36 0.009824 76.673
6.10000000 0.009829 78.613 0.999952 -12.36 0.999952 -12.36 0.009829 76.667
6.10250000 0.009835 78.608 0.999952 -12.37 0.999952 -12.37 0.009835 76.661
6.10500000 0.009841 78.604 0.999952 -12.37 0.999952 -12.37 0.009841 76.655
6.10750000 0.009846 78.600 0.999951 -12.38 0.999951 -12.38 0.009846 76.649
6.11000000 0.009852 78.596 0.999951 -12.38 0.999951 -12.38 0.009852 76.643
6.11250000 0.009858 78.591 0.999951 -12.39 0.999951 -12.39 0.009858 76.637
6.11500000 0.009863 78.587 0.999951 -12.39 0.999951 -12.39 0.009863 76.631
6.11750000 0.009869 78.583 0.999951 -12.40 0.999951 -12.40 0.009869 76.625
6.12000000 0.009875 78.579 0.999951 -12.40 0.999951 -12.40 0.009875 76.618
6.12250000 0.009880 78.575 0.999951 -12.41 0.999951 -12.41 0.009880 76.612
6.12500000 0.009886 78.570 0.999951 -12.41 0.999951 -12.41 0.009886 76.606
6.12750000 0.009892 78.566 0.999951 -12.42 0.999951 -12.42 0.009892 76.600
6.13000000 0.009898 78.562 0.999951 -12.42 0.999951 -12.42 0.009898 76.594
6.13250000 0.009903 78.558 0.999951 -12.43 0.999951 -12.43 0.009903 76.588
6.13500000 0.009909 78.554 0.999951 -12.43 0.999951 -12.43 0.009909 76.582
6.13750000 0.009915 78.550 0.999951 -12.44 0.999951 -12.44 0.009915 76.575
6.14000000 0.009921 78.545 0.999951 -12.44 0.999951 -12.44 0.009921 76.569
6.14250000 0.009927 78.541 0.999951 -12.45 0.999951 -12.45 0.009927 76.563
6.14500000 0.009933 78.537 0.999951 -12.45 0.999951 -12.45 0.009933 76.557
6.14750000 0.009939 78.533 0.999951 -12.46 0.999951 -12.46 0.009939 76.551
6.15000000 0.009944 78.529 0.999951 -12.46 0.999951 -12.46 0.009944 76.545
6.15250000 0.009950 78.525 0.999950 -12.47 0.999950 -12.47 0.009950 76.538
6.15500000 0.009956 78.520 0.999950 -12.47 0.999950 -12.47 0.009956 76.532
6.15750000 0.009962 78.516 0.999950 -12.48 0.999950 -12.48 0.009962 76.526
6.16000000 0.009968 78.512 0.999950 -12.48 0.999950 -12.48 0.009968 76.520
6.16250000 0.009974 78.508 0.999950 -12.49 0.999950 -12.49 0.009974 76.513
6.16500000 0.009980 78.504 0.999950 -12.50 0.999950 -12.50 0.009980 76.507
6.16750000 0.009986 78.500 0.999950 -12.50 0.999950 -12.50 0.009986 76.501
6.17000000 0.009993 78.496 0.999950 -12.51 0.999950 -12.51 0.009993 76.495
6.17250000 0.009999 78.492 0.999950 -12.51 0.999950 -12.51 0.009999 76.488
6.17500000 0.010005 78.488 0.999950 -12.52 0.999950 -12.52 0.010005 76.482
6.17750000 0.010011 78.483 0.999950 -12.52 0.999950 -12.52 0.010011 76.476
6.18000000 0.010017 78.479 0.999950 -12.53 0.999950 -12.53 0.010017 76.470
6.18250000 0.010023 78.475 0.999950 -12.53 0.999950 -12.53 0.010023 76.463
6.18500000 0.010029 78.471 0.999950 -12.54 0.999950 -12.54 0.010029 76.457
6.18750000 0.010036 78.467 0.999950 -12.54 0.999950 -12.54 0.010036 76.451
6.19000000 0.010042 78.463 0.999950 -12.55 0.999950 -12.55 0.010042 76.444
6.19250000 0.010048 78.459 0.999949 -12.55 0.999949 -12.55 0.010048 76.438
6.19500000 0.010054 78.455 0.999949 -12.56 0.999949 -12.56 0.010054 76.432
6.19750000 0.010061 78.451 0.999949 -12.56 0.999949 -12.56 0.010061 76.425
6.20000000 0.010067 78.447 0.999949 -12.57 0.999949 -12.57 0.010067 76.419
6.20250000 0.010073 78.443 0.999949 -12.57 0.999949 -12.57 0.010073 76.413
6.20500000 0.010080 78.439 0.999949 -12.58 0.999949 -12.58 0.010080 76.406
6.20750000 0.010086 78.435 0.999949 -12.58 0.999949 -12.58 0.010086 76.400
6.21000000 0.010093 78.431 0.999949 -12.59 0.999949 -12.59 0.010093 76.393
6.21250000 0.010099 78.427 0.999949 -12.59 0.999949 -12.59 0.010099 76.387
6.21500000 0.010106 78.423 0.999949 -12.60 0.999949 -12.60 0.010106 76.381
6.21750000 0.010112 78.419 0.999949 -12.60 0.999949 -12.60 0.010112 76.374
6.22000000 0.010119 78.415 0.999949 -12.61 0.999949 -12.61 0.010119 76.368
6.22250000 0.010125 78.411 0.999949 -12.61 0.999949 -12.61 0.010125 76.361
6.22500000 0.010132 78.407 0.999949 -12.62 0.999949 -12.62 0.010132 76.355
6.22750000 0.010139 78.403 0.999949 -12.63 0.999949 -12.63 0.010139 76.348
6.23000000 0.010145 78.399 0.999949 -12.63 0.999949 -12.63 0.010145 76.342
6.23250000 0.010152 78.395 0.999948 -12.64 0.999948 -12.64 0.010152 76.336
6.23500000 0.010159 78.391 0.999948 -12.64 0.999948 -12.64 0.010159 76.329
6.23750000 0.010165 78.387 0.999948 -12.65 0.999948 -12.65 0.010165 76.323
6.24000000 0.010172 78.383 0.999948 -12.65 0.999948 -12.65 0.010172 76.316
6.24250000 0.010179 78.379 0.999948 -12.66 0.999948 -12.66 0.010179 76.309
6.24500000 0.010186 78.375 0.999948 -12.66 0.999948 -12.66 0.010186 76.303
6.24750000 0.010193 78.371 0.999948 -12.67 0.999948 -12.67 0.010193 76.296
6.25000000 0.010200 78.367 0.999948 -12.67 0.999948 -12.67 0.010200 76.290
6.25250000 0.010207 78.363 0.999948 -12.68 0.999948 -12.68 0.010207 76.283
6.25500000 0.010214 78.360 0.999948 -12.68 0.999948 -12.68 0.010214 76.277
6.25750000 0.010221 78.356 0.999948 -12.69 0.999948 -12.69 0.010221 76.270
6.26000000 0.010228 78.352 0.999948 -12.69 0.999948 -12.69 0.010228 76.263
6.26250000 0.010235 78.348 0.999948 -12.70 0.999948 -12.70 0.010235 76.257
6.26500000 0.010242 78.344 0.999948 -12.70 0.999948 -12.70 0.010242 76.250
6.26750000 0.010249 78.340 0.999947 -12.71 0.999947 -12.71 0.010249 76.244
6.27000000 0.010256 78.336 0.999947 -12.71 0.999947 -12.71 0.010256 76.237
6.27250000 0.010263 78.333 0.999947 -12.72 0.999947 -12.72 0.010263 76.230
6.27500000 0.010271 78.329 0.999947 -12.72 0.999947 -12.72 0.010271 76.224
6.27750000 0.010278 78.325 0.999947 -12.73 0.999947 -12.73 0.010278 76.217
6.28000000 0.010285 78.321 0.999947 -12.74 0.999947 -12.74 0.010285 76.210
6.28250000 0.010293 78.317 0.999947 -12.74 0.999947 -12.74 0.010293 76.203
6.28500000 0.010300 78.314 0.999947 -12.75 0.999947 -12.75 0.010300 76.197
6.28750000 0.010308 78.310 0.999947 -12.75 0.999947 -12.75 0.010308 76.190
6.29000000 0.010315 78.306 0.999947 -12.76 0.999947 -12.76 0.010315 76.183
6.29250000 0.010323 78.302 0.999947 -12.76 0.999947 -12.76 0.010323 76.176
6.29500000 0.010330 78.299 0.999947 -12.77 0.999947 -12.77 0.010330 76.170
6.29750000 0.010338 78.295 0.999947 -12.77 0.999947 -12.77 0.010338 76.163
6.30000000 0.010346 78.291 0.999946 -12.78 0.999946 -12.78 0.010346 76.156
6.30250000 0.010354 78.288 0.999946 -12.78 0.999946 -12.78 0.010354 76.149
6.30500000 0.010361 78.284 0.999946 -12.79 0.999946 -12.79 0.010361 76.142
6.30750000 0.010369 78.280 0.999946 -12.79 0.999946 -12.79 0.010369 76.135
6.31000000 0.010377 78.277 0.999946 -12.80 0.999946 -12.80 0.010377 76.128
6.31250000 0.010385 78.273 0.999946 -12.80 0.999946 -12.80 0.010385 76.121
6.31500000 0.010393 78.269 0.999946 -12.81 0.999946 -12.81 0.010393 76.114
6.31750000 0.010401 78.266 0.999946 -12.81 0.999946 -12.81 0.010401 76.107
6.32000000 0.010409 78.262 0.999946 -12.82 0.999946 -12.82 0.010409 76.100
6.32250000 0.010417 78.258 0.999946 -12.83 0.999946 -12.83 0.010417 76.093
6.32500000 0.010426 78.255 0.999946 -12.83 0.999946 -12.83 0.010426 76.086
6.32750000 0.010434 78.251 0.999946 -12.84 0.999946 -12.84 0.010434 76.079
6.33000000 0.010442 78.248 0.999945 -12.84 0.999945 -12.84 0.010442 76.072
6.33250000 0.010451 78.244 0.999945 -12.85 0.999945 -12.85 0.010451 76.065
6.33500000 0.010459 78.241 0.999945 -12.85 0.999945 -12.85 0.010459 76.058
6.33750000 0.010468 78.237 0.999945 -12.86 0.999945 -12.86 0.010468 76.051
6.34000000 0.010476 78.234 0.999945 -12.86 0.999945 -12.86 0.010476 76.044
6.34250000 0.010485 78.230 0.999945 -12.87 0.999945 -12.87 0.010485 76.037
6.34500000 0.010494 78.227 0.999945 -12.87 0.999945 -12.87 0.010494 76.030
6.34750000 0.010502 78.223 0.999945 -12.88 0.999945 -12.88 0.010502 76.022
6.35000000 0.010511 78.220 0.999945 -12.88 0.999945 -12.88 0.010511 76.015
6.35250000 0.010520 78.216 0.999945 -12.89 0.999945 -12.89 0.010520 76.008
6.35500000 0.010529 78.213 0.999945 -12.89 0.999945 -12.89 0.010529 76.001
6.35750000 0.010538 78.209 0.999944 -12.90 0.999944 -12.90 0.010538 75.993
6.36000000 0.010547 78.206 0.999944 -12.91 0.999944 -12.91 0.010547 75.986
6.36250000 0.010557 78.203 0.999944 -12.91 0.999944 -12.91 0.010557 75.978
6.36500000 0.010566 78.199 0.999944 -12.92 0.999944 -12.92 0.010566 75.971
6.36750000 0.010575 78.196 0.999944 -12.92 0.999944 -12.92 0.010575 75.964
6.37000000 0.010585 78.193 0.999944 -12.93 0.999944 -12.93 0.010585 75.956
6.37250000 0.010594 78.189 0.999944 -12.93 0.999944 -12.93 0.010594 75.949
6.37500000 0.010604 78.186 0.999944 -12.94 0.999944 -12.94 0.010604 75.941
6.37750000 0.010614 78.183 0.999944 -12.94 0.999944 -12.94 0.010614 75.934
6.38000000 0.010624 78.180 0.999944 -12.95 0.999944 -12.95 0.010624 75.926
6.38250000 0.010633 78.176 0.999943 -12.95 0.999943 -12.95 0.010633 75.919
6.38500000 0.010643 78.173 0.999943 -12.96 0.999943 -12.96 0.010643 75.911
6.38750000 0.010653 78.170 0.999943 -12.96 0.999943 -12.96 0.010654 75.903
6.39000000 0.010664 78.167 0.999943 -12.97 0.999943 -12.97 0.010664 75.896
6.39250000 0.010674 78.164 0.999943 -12.98 0.999943 -12.98 0.010674 75.888
6.39500000 0.010684 78.161 0.999943 -12.98 0.999943 -12.98 0.010684 75.880
6.39750000 0.010695 78.158 0.999943 -12.99 0.999943 -12.99 0.010695 75.872
6.40000000 0.010705 78.155 0.999943 -12.99 0.999943 -12.99 0.010705 75.864
6.40250000 0.010716 78.152 0.999943 -13.00 0.999943 -13.00 0.010716 75.857
6.40500000 0.010727 78.149 0.999942 -13.00 0.999942 -13.00 0.010727 75.849
6.40750000 0.010738 78.146 0.999942 -13.01 0.999942 -13.01 0.010738 75.841
6.41000000 0.010749 78.143 0.999942 -13.01 0.999942 -13.01 0.010749 75.833
6.41250000 0.010760 78.140 0.999942 -13.02 0.999942 -13.02 0.010760 75.825
6.41500000 0.010772 78.137 0.999942 -13.02 0.999942 -13.02 0.010772 75.817
6.41750000 0.010783 78.134 0.999942 -13.03 0.999942 -13.03 0.010783 75.808
6.42000000 0.010795 78.131 0.999942 -13.04 0.999942 -13.04 0.010795 75.800
6.42250000 0.010806 78.128 0.999942 -13.04 0.999942 -13.04 0.010806 75.792
6.42500000 0.010818 78.126 0.999942 -13.05 0.999942 -13.05 0.010818 75.784
6.42750000 0.010830 78.123 0.999941 -13.05 0.999941 -13.05 0.010830 75.776
6.43000000 0.010842 78.120 0.999941 -13.06 0.999941 -13.06 0.010842 75.767
6.43250000 0.010854 78.117 0.999941 -13.06 0.999941 -13.06 0.010855 75.759
6.43500000 0.010867 78.115 0.999941 -13.07 0.999941 -13.07 0.010867 75.750
6.43750000 0.010880 78.112 0.999941 -13.07 0.999941 -13.07 0.010880 75.742
6.44000000 0.010892 78.110 0.999941 -13.08 0.999941 -13.08 0.010892 75.733
6.44250000 0.010905 78.107 0.999941 -13.09 0.999941 -13.09 0.010905 75.725
6.44500000 0.010918 78.104 0.999940 -13.09 0.999940 -13.09 0.010918 75.716
6.44750000 0.010932 78.102 0.999940 -13.10 0.999940 -13.10 0.010932 75.707
6.45000000 0.010945 78.100 0.999940 -13.10 0.999940 -13.10 0.010945 75.699
6.45250000 0.010959 78.097 0.999940 -13.11 0.999940 -13.11 0.010959 75.690
6.45500000 0.010973 78.095 0.999940 -13.11 0.999940 -13.11 0.010973 75.681
6.45750000 0.010987 78.092 0.999940 -13.12 0.999940 -13.12 0.010987 75.672
6.46000000 0.011001 78.090 0.999940 -13.12 0.999940 -13.12 0.011001 75.663
6.46250000 0.011015 78.088 0.999939 -13.13 0.999939 -13.13 0.011015 75.654
6.46500000 0.011030 78.086 0.999939 -13.14 0.999939 -13.14 0.011030 75.645
6.46750000 0.011045 78.084 0.999939 -13.14 0.999939 -13.14 0.011045 75.635
6.47000000 0.011060 78.082 0.999939 -13.15 0.999939 -13.15 0.011060 75.626
6.47250000 0.011075 78.080 0.999939 -13.15 0.999939 -13.15 0.011075 75.617
6.47500000 0.011091 78.078 0.999939 -13.16 0.999939 -13.16 0.011091 75.607
6.47750000 0.011107 78.076 0.999938 -13.16 0.999938 -13.16 0.011107 75.598
6.48000000 0.011123 78.074 0.999938 -13.17 0.999938 -13.17 0.011123 75.588
6.48250000 0.011139 78.072 0.999938 -13.18 0.999938 -13.18 0.011139 75.578
6.48500000 0.011156 78.070 0.999938 -13.18 0.999938 -13.18 0.011156 75.568
6.48750000 0.011173 78.068 0.999938 -13.19 0.999938 -13.19 0.011173 75.559
6.49000000 0.011190 78.067 0.999937 -13.19 0.999937 -13.19 0.011190 75.549
6.49250000 0.011208 78.065 0.999937 -13.20 0.999937 -13.20 0.011208 75.538
6.49500000 0.011226 78.064 0.999937 -13.21 0.999937 -13.21 0.011226 75.528
6.49750000 0.011244 78.062 0.999937 -13.21 0.999937 -13.21 0.011244 75.518
6.50000000 0.011263 78.061 0.999937 -13.22 0.999937 -13.22 0.011263 75.508
6.50250000 0.011282 78.059 0.999936 -13.22 0.999936 -13.22 0.011282 75.497
6.50500000 0.011301 78.058 0.999936 -13.23 0.999936 -13.23 0.011301 75.486
6.50750000 0.011321 78.057 0.999936 -13.23 0.999936 -13.23 0.011321 75.476
6.51000000 0.011341 78.056 0.999936 -13.24 0.999936 -13.24 0.011341 75.465
6.51250000 0.011361 78.055 0.999935 -13.25 0.999935 -13.25 0.011361 75.454
6.51500000 0.011382 78.054 0.999935 -13.25 0.999935 -13.25 0.011382 75.443
6.51750000 0.011404 78.053 0.999935 -13.26 0.999935 -13.26 0.011404 75.431
6.52000000 0.011426 78.052 0.999935 -13.27 0.999935 -13.27 0.011426 75.420
6.52250000 0.011448 78.051 0.999935 -13.27 0.999935 -13.27 0.011448 75.409
6.52500000 0.011471 78.051 0.999934 -13.28 0.999934 -13.28 0.011471 75.397
6.52750000 0.011494 78.050 0.999934 -13.28 0.999934 -13.28 0.011494 75.385
6.53000000 0.011518 78.050 0.999934 -13.29 0.999934 -13.29 0.011518 75.373
6.53250000 0.011543 78.050 0.999933 -13.30 0.999933 -13.30 0.011543 75.361
6.53500000 0.011568 78.049 0.999933 -13.30 0.999933 -13.30 0.011568 75.348
6.53750000 0.011594 78.049 0.999933 -13.31 0.999933 -13.31 0.011594 75.336
6.54000000 0.011620 78.049 0.999933 -13.31 0.999933 -13.31 0.011620 75.323
6.54250000 0.011647 78.049 0.999932 -13.32 0.999932 -13.32 0.011647 75.310
6.54500000 0.011675 78.050 0.999932 -13.33 0.999932 -13.33 0.011675 75.297
6.54750000 0.011703 78.050 0.999932 -13.33 0.999932 -13.33 0.011703 75.284
6.55000000 0.011733 78.051 0.999931 -13.34 0.999931 -13.34 0.011733 75.270
6.55250000 0.011763 78.051 0.999931 -13.35 0.999931 -13.35 0.011763 75.256
6.55500000 0.011794 78.052 0.999931 -13.35 0.999931 -13.35 0.011794 75.242
6.55750000 0.011825 78.053 0.999930 -13.36 0.999930 -13.36 0.011825 75.228
6.56000000 0.011858 78.054 0.999930 -13.37 0.999930 -13.37 0.011858 75.214
6.56250000 0.011892 78.055 0.999929 -13.37 0.999929 -13.37 0.011892 75.199
6.56500000 0.011927 78.057 0.999929 -13.38 0.999929 -13.38 0.011927 75.184
6.56750000 0.011963 78.058 0.999928 -13.39 0.999928 -13.39 0.011963 75.168
6.57000000 0.012000 78.060 0.999928 -13.39 0.999928 -13.39 0.012000 75.153
6.57250000 0.012038 78.062 0.999928 -13.40 0.999928 -13.40 0.012038 75.136
6.57500000 0.012078 78.064 0.999927 -13.41 0.999927 -13.41 0.012078 75.120
6.57750000 0.012119 78.067 0.999927 -13.42 0.999927 -13.42 0.012119 75.103
6.58000000 0.012161 78.069 0.999926 -13.42 0.999926 -13.42 0.012161 75.086
6.58250000 0.012205 78.072 0.999926 -13.43 0.999926 -13.43 0.012205 75.069
6.58500000 0.012251 78.075 0.999925 -13.44 0.999925 -13.44 0.012251 75.051
6.58750000 0.012298 78.079 0.999924 -13.45 0.999924 -13.45 0.012298 75.032
6.59000000 0.012347 78.082 0.999924 -13.45 0.999924 -13.45 0.012347 75.013
6.59250000 0.012399 78.086 0.999923 -13.46 0.999923 -13.46 0.012399 74.994
6.59500000 0.012452 78.090 0.999923 -13.47 0.999923 -13.47 0.012452 74.974
6.59750000 0.012507 78.095 0.999922 -13.48 0.999922 -13.48 0.012507 74.953
6.60000000 0.012565 78.099 0.999921 -13.49 0.999921 -13.49 0.012565 74.932
6.60250000 0.012625 78.104 0.999920 -13.49 0.999920 -13.49 0.012625 74.911
6.60500000 0.012688 78.110 0.999920 -13.50 0.999920 -13.50 0.012688 74.888
6.60750000 0.012754 78.116 0.999919 -13.51 0.999919 -13.51 0.012754 74.865
6.61000000 0.012824 78.122 0.999918 -13.52 0.999918 -13.52 0.012824 74.841
6.61250000 0.012896 78.128 0.999917 -13.53 0.999917 -13.53 0.012896 74.817
6.61500000 0.012973 78.135 0.999916 -13.54 0.999916 -13.54 0.012973 74.791
6.61750000 0.013053 78.143 0.999915 -13.55 0.999915 -13.55 0.013053 74.765
6.62000000 0.013137 78.151 0.999914 -13.56 0.999914 -13.56 0.013137 74.737
6.62250000 0.013227 78.159 0.999913 -13.57 0.999913 -13.57 0.013227 74.709
6.62500000 0.013321 78.169 0.999911 -13.58 0.999911 -13.58 0.013321 74.679
6.62750000 0.013421 78.178 0.999910 -13.59 0.999910 -13.59 0.013421 74.649
6.63000000 0.013527 78.188 0.999909 -13.60 0.999909 -13.60 0.013527 74.617
6.63250000 0.013640 78.199 0.999907 -13.61 0.999907 -13.61 0.013640 74.583
6.63500000 0.013761 78.211 0.999905 -13.62 0.999905 -13.62 0.013761 74.548
6.63750000 0.013889 78.223 0.999904 -13.63 0.999904 -13.63 0.013889 74.511
6.64000000 0.014027 78.236 0.999902 -13.65 0.999902 -13.65 0.014027 74.473
6.64250000 0.014175 78.250 0.999900 -13.66 0.999900 -13.66 0.014175 74.432
6.64500000 0.014334 78.264 0.999897 -13.67 0.999897 -13.67 0.014334 74.389
6.64750000 0.014506 78.280 0.999895 -13.69 0.999895 -13.69 0.014506 74.344
6.65000000 0.014692 78.297 0.999892 -13.70 0.999892 -13.70 0.014692 74.297
